!Keysight Technologies N9950B: A.12.38
!Date: Thursday, 11 May 2023 14:31:09
!Timezone: (UTC-06:00) Central Time (US & Canada)
!Model: N9950B
!Serial: MY61131330
!GPS Latitude: 
!GPS Longitude: 
!GPS TimeStamp: 0001-01-01 00:00:00Z
!GPS Seconds Since Last Read: 0
!CHECKSUM:1797697833
!Correction: S11(ON U)S21(ON U)S12(ON U)S22(ON U)
!S2P File: Measurements:S11,S21,S12,S22:
# Hz S DB R 50
800000000	-52.3319814009444	-5.07820674367687	-0.0288948260473042	-48.1090295390561	-0.0232258450842414	-48.1998159051246	-56.61674246035	13.9212290776309	
801700000	-46.7868661293999	-1.60080683419555	-0.0320240160785124	-48.3056121256251	-0.0350147628695331	-48.2383629682713	-73.5435384334247	31.0311427865317	
803400000	-50.7327925579266	-7.08778458339179	-0.0394094470943207	-48.3548781385354	-0.0278445678232025	-48.3639163242634	-48.8938132303403	-13.4390703439803	
805100000	-48.3376233975331	17.3855726065173	-0.0248942300194741	-48.4785155115244	-0.0250380418788183	-48.5662944114822	-50.1561463634881	-13.4873116023511	
806800000	-48.3831784601374	12.1937825521035	-0.0245902356732314	-48.5661925049511	-0.038070763430154	-48.6381839098719	-48.8755623079261	19.1483464476342	
808500000	-56.7627247555863	-32.973105774448	-0.0222911964886609	-48.6839387831884	-0.0281679748654652	-48.6742970459186	-53.0922354947637	-13.6246610429536	
810200000	-52.8028832222905	4.11346898514674	-0.0264994953920215	-48.6799119567254	-0.0166042256833855	-48.8129169923205	-49.5591995262035	-10.2060541596139	
811900000	-55.2949365816	13.9351954465126	-0.0289338210992795	-48.9697982329884	-0.0355805207544139	-48.8404197974718	-48.8475468927501	-13.9262260599985	
813600000	-46.3684831941152	10.2657872334006	-0.0350984109416135	-48.9674168770158	-0.0206330483181475	-49.0125111645161	-55.4623346949154	-13.5830388027337	
815300000	-53.0935517593317	6.513892794024	-0.0205867336455398	-49.0749754905281	-0.0302264555117039	-49.1228568004134	-52.0844911633055	-2.83680101851407	
817000000	-52.7650769157104	4.89885883902596	-0.0122303468608952	-49.2122235624628	-0.0392229575674543	-49.2338836391315	-57.109075917206	14.8681368731331	
818700000	-52.1132977137761	5.73650737987277	-0.0413737814894934	-49.27331630323	-0.038185444827559	-49.3302848003675	-46.3927756527995	13.6345994545676	
820400000	-53.5383513730824	-29.034793056318	-0.0307192378668671	-49.375600557642	-0.0294607539935038	-49.4885984947012	-52.2860978917423	-17.1482869111344	
822100000	-51.1949015849105	-39.1094890950449	-0.0269865214819933	-49.4892624978006	-0.0171158713807568	-49.5407103051133	-56.2798060140073	2.10820108085758	
823800000	-50.8978968547414	10.6054894128898	-0.0346824907452697	-49.6645697420414	-0.0301669833969554	-49.5889605132391	-55.6333563706848	-6.61241532127489	
825500000	-48.2465546487496	-12.0112974679618	-0.0190416516461358	-49.6571407343989	-0.0297689690770328	-49.7077470485268	-51.5944200703311	9.59087528215813	
827200000	-48.3389412066641	-22.7271437539427	-0.0243321751823961	-49.7389812482619	-0.0353258981626229	-49.8235879525394	-56.3145196950117	-47.0087353515018	
828900000	-55.1724516629913	1.43030122383569	-0.0367707571293293	-49.8526302376231	-0.0428893158872817	-49.8981676345836	-51.6752428404448	9.66356565219673	
830600000	-49.1461255605014	-8.18077491368286	-0.0243387479870509	-50.0902721301657	-0.0218457467217019	-50.0901865451142	-49.125894528174	27.3656738743521	
832300000	-54.3671838854455	-22.3513223503369	-0.0402136206296174	-50.205612757768	-0.0259105427242108	-50.1859459804152	-50.4474961274745	28.6739563339081	
834000000	-53.6090311024013	25.5510309750716	-0.0278373954807369	-50.3154508550782	-0.0269421343506485	-50.2588989694552	-50.2892997865986	-12.976280958847	
835700000	-49.5611330721959	-5.32325695835104	-0.0164660667472452	-50.3846309259282	-0.0246402067383292	-50.2791356307617	-48.8585792201893	-8.10628116399898	
837400000	-53.3701197836623	-6.6374968994013	-0.0200505443519908	-50.4014760643146	-0.0274685364384823	-50.4207503972465	-55.0648195207076	7.58065986086102	
839100000	-47.7173029666791	27.0367048901451	-0.0242714150158188	-50.5174329182741	-0.0195244650770221	-50.5318138673212	-54.7226209707048	-39.499996921219	
840800000	-53.2552775978906	-4.96269703452945	-0.0306517596216537	-50.6408951040584	-0.0368060236860402	-50.6803939576998	-50.2848942573885	5.65710564265636	
842500000	-54.1049994805776	17.7555479445193	-0.0311611634632096	-50.7436581990146	-0.0266251591674635	-50.7511652202153	-50.1593876190933	-12.9686869568205	
844200000	-46.6373377539106	12.13905547188	-0.0182270127703225	-50.8277236614094	-0.0369531590883813	-50.7942943470138	-52.2282385763196	-9.53965175925347	
845900000	-54.1404048192726	49.285147006353	-0.0225256665637252	-51.0120635739535	-0.0303975373273874	-50.9769202609552	-48.9277183944488	-11.8107337621815	
847600000	-51.9792100455372	-27.8161965651572	-0.0233399728571187	-51.0677219886518	-0.0243824717560588	-51.1053602335846	-55.4011068400633	-2.7587581947965	
849300000	-51.735025092483	10.7719200007872	-0.0403252298413432	-51.2273001600988	-0.0242095721570901	-51.1207134283087	-50.5789101217133	28.7374773957984	
851000000	-47.2888351338932	17.7739439662345	-0.0212936915076814	-51.2235230874073	-0.0237334031609931	-51.3078158852501	-49.7728070450591	-26.9721686868573	
852700000	-49.8834634586965	-3.41818555375208	-0.0272703486047288	-51.3890601325762	-0.0293746609521121	-51.2840882334897	-48.0474027667041	-6.97876452265125	
854400000	-48.4758653912554	-1.35094198947341	-0.0306169764588192	-51.4593944980431	-0.0326423594785944	-51.5477699087824	-56.9194047826847	59.0146180604813	
856100000	-48.2487489470383	-44.9993200748275	-0.0342528533334638	-51.6406706348592	-0.0154009929149525	-51.5289896282034	-57.6184702376343	19.9782061464011	
857800000	-51.9911927809601	-8.93281699547217	-0.0255847109455831	-51.6653326862574	-0.0158318017728565	-51.6401022380932	-53.8011583481327	8.62768718266185	
859500000	-55.4916822520939	16.5570215329349	-0.0358143310693313	-51.79107532565	-0.0293335057061417	-51.7844529303447	-67.187174772757	3.47891634762666	
861200000	-52.6215430940751	-57.5636616667784	-0.0143204071651962	-51.8528358746443	-0.0213579005831779	-51.8808841507753	-48.915458813055	-25.1317867902258	
862900000	-53.6737059458156	-7.34560362508793	-0.0354834061916139	-51.9936006816102	-0.0300984795018912	-52.0111197596061	-58.4920635629841	7.70149614879223	
864600000	-52.7639652158765	-6.56647031287185	-0.0364047991915841	-52.0875361479782	-0.0336152829176992	-52.0608731273626	-48.4579966109402	-10.513286822593	
866300000	-56.3162871771701	4.52829422805495	-0.0380220454092848	-52.1783401766982	-0.0234602331644832	-52.2418423755961	-51.4539068993917	8.25498854409794	
868000000	-55.1314689078457	-8.69384341544492	-0.0226681506291787	-52.1854898671544	-0.0378561224015604	-52.2961632611205	-49.1496286860885	-44.3243849724608	
869700000	-53.3110779223504	-7.04392973443699	-0.0160507059605296	-52.373478427919	-0.0289375885378129	-52.3963631873099	-58.8716727794761	-21.3470491243547	
871400000	-52.9023286622776	-49.5650028679609	-0.0315689682495946	-52.4306331235576	-0.0359393285301096	-52.3928139801128	-51.4361897463767	-27.5736069249434	
873100000	-48.6355501962684	-21.2829339028737	-0.0245565809940508	-52.6057916584898	-0.0365191052070757	-52.5576907033064	-55.8305982791996	-26.456258642671	
874800000	-49.916490338063	-11.8227397719375	-0.0315045646977525	-52.6053964715174	-0.0319082613667703	-52.6277821299773	-54.2917468074401	-81.7688852974549	
876500000	-47.2518280224068	-0.322858278867828	-0.0125787487255545	-52.910197869381	-0.0231535754112788	-52.8011191831667	-53.8754505924586	-8.20635590283458	
878200000	-56.3378626473333	-21.3458176254008	-0.0351894212153514	-52.8554284597949	-0.0304696313829297	-52.9269288699514	-60.45344574751	0.167572445040443	
879900000	-52.8378336085999	-24.3016193472049	-0.0230804835720434	-52.9847988707001	-0.0288471827318895	-52.9773723905943	-50.2903700311368	-10.2640919539491	
881600000	-52.5618063145897	-0.75458779887226	-0.032140869948129	-53.0657184281476	-0.0434738276537294	-53.0513822442815	-47.475753651428	-28.4610818708176	
883300000	-56.1789113132648	-51.7949768928338	-0.0224371263298006	-53.1871947463621	-0.0368647343988031	-53.0801756312355	-52.4631241627285	7.31887276100901	
885000000	-53.483819928897	-14.2990723583827	-0.0219814155032813	-53.3216014725224	-0.035688156863593	-53.290159871355	-49.9999110578614	-4.43125250409932	
886700000	-51.406099739285	-10.9401113460835	-0.0290177827457256	-53.3053803710245	-0.0292909296851234	-53.3632542255756	-48.066192636232	3.27140588700441	
888400000	-52.1460079103711	5.14180338803609	-0.0254590019180479	-53.5769927642404	-0.0244369319189847	-53.4383045821529	-54.513229488677	26.0031157301583	
890100000	-59.2506843825705	-22.7258169628366	-0.0228924124531934	-53.6055555045703	-0.0296328549164075	-53.595981782932	-48.6299868529379	0.414531887678118	
891800000	-51.0979268698765	-19.4952772345985	-0.0312732924054091	-53.7017342283921	-0.0278820607687998	-53.7034157408351	-51.214587790094	31.5203725738626	
893500000	-48.8602112317617	-21.2495314585348	-0.0252886293027471	-53.8634381701504	-0.0262144141982288	-53.8534931141033	-51.7951599221685	-33.5027093085063	
895200000	-48.3403780238273	-21.1140590717625	-0.0321586987709456	-54.0037255637276	-0.0391725812934323	-53.9858635344181	-54.4424674334677	-11.8234553928368	
896900000	-56.2141058105736	-2.49836530370075	-0.0313918966283981	-54.1183485037849	-0.0341791952407011	-54.0197672529777	-47.705949040895	8.31931926899362	
898600000	-53.4776335207201	3.37711647642866	-0.0268074556164073	-54.0843810457303	-0.0291743011527374	-54.0849109570837	-49.9497783718377	-10.8881481394864	
900300000	-50.4327142005353	7.44181967085933	-0.0189253691908535	-54.2715691564289	-0.0252890004936543	-54.17093101541	-44.9547856665579	10.4351471414571	
902000000	-49.9350443632013	-23.8506914902868	-0.024824215353627	-54.2828029431502	-0.0367552248841419	-54.2795789897593	-48.1776449054064	-1.94977225599903	
903700000	-47.6597891893699	-19.2854869160473	-0.0181713303327984	-54.5371286672579	-0.0346698175672044	-54.4364800907357	-46.9187293530456	-24.5184747531624	
905400000	-57.5713187573241	-68.2896401325256	-0.0386277930115184	-54.5671204513608	-0.0309031614838688	-54.4973357438873	-57.5247143347734	-24.8151555849067	
907100000	-55.9925413348005	-2.03307942506262	-0.0175255856939032	-54.6910147526143	-0.0302897318533233	-54.5898378509138	-54.0793399464865	-12.6047283450733	
908800000	-49.9153069644496	-24.7808110036784	-0.0273327541393516	-54.6930123564951	-0.0233300640726417	-54.8034149266997	-55.1051182169004	51.6713779755974	
910500000	-51.7065332040987	-15.1946960284999	-0.0236333346576915	-54.8126679256675	-0.022198760176086	-54.8081426834275	-50.546405462956	13.9055543467986	
912200000	-48.4295050267087	-22.9730322236425	-0.0266155696046585	-54.9670519389904	-0.030462715263517	-55.0138944334145	-53.6105829227191	-24.3523081245134	
913900000	-49.175800885387	-15.8880569904882	-0.0126242534877808	-55.0237442118645	-0.0303915192400513	-55.1220205482811	-47.4948899988556	-10.6122178514647	
915600000	-52.5523727121074	-20.2368279658608	-0.0275552865144107	-55.1652790736443	-0.0287800360605489	-55.0413032861371	-52.7993309101176	-45.0318358980133	
917300000	-53.7142919734343	-2.12568121050392	-0.0285093843381534	-55.2218947226383	-0.0301404609336887	-55.25600878198	-48.1196062727824	-7.31533296483427	
919000000	-49.0563388850209	-0.402177146809839	-0.0264376340685939	-55.3104092312086	-0.0354415874043933	-55.3199055007244	-46.1014709179759	-2.20037194749583	
920700000	-48.1648762768995	-0.317100561822775	-0.033173486477393	-55.450496890248	-0.0238226381581176	-55.490789006543	-47.7231732415497	-5.24172595017801	
922400000	-49.4714335446737	-6.45140719887456	-0.0359720838173476	-55.4965342496524	-0.0307985837570046	-55.5071972277027	-52.1849375760364	3.14907833425469	
924100000	-49.0783806866248	1.19311798029792	-0.0087428112669563	-55.7538016687145	-0.0394489851255272	-55.7481277403559	-67.3909778643656	-13.4059722587671	
925800000	-51.0729648283698	-23.5048509520067	-0.0169170833194209	-55.7291401417941	-0.0344522471843062	-55.709189408704	-49.3602536619682	-23.5743188904735	
927500000	-53.8009011971504	1.2557428255029	-0.0295329605307698	-55.8579078084667	-0.0283137168030155	-55.760300142	-52.9189038577678	19.3211524274716	
929200000	-49.4653846178329	-9.35261596264053	-0.0250083210245139	-55.9573271096769	-0.0315121837297092	-55.9369276856076	-58.3739018171826	-5.77507460097163	
930900000	-51.0605557288666	34.0232165113905	-0.0362385095647269	-56.0416019186931	-0.0435440806362732	-55.9255589188564	-52.2102976420681	12.954337447709	
932600000	-51.7043377051738	-16.4816388209972	-0.0264756492679047	-56.0841070173918	-0.0245679604887343	-56.1731099524362	-49.3986752603985	-12.7810346436249	
934300000	-52.4295917413428	-25.8917608850488	-0.0215843287011924	-56.2051632801757	-0.0260786442800687	-56.2824834588016	-50.1306026932768	7.1528103278575	
936000000	-49.9583263042557	10.5831376850988	-0.0178927327202818	-56.2628442178691	-0.0333879194483897	-56.3909794691935	-49.4599697185833	10.6678923612484	
937700000	-50.8726811629297	22.9064804991133	-0.0166090643028304	-56.4444067786289	-0.0389195364713917	-56.3387793524865	-51.2310844869231	-24.4198131140732	
939400000	-51.0405199396709	-5.35006221681748	-0.0358349856670922	-56.4952295915279	-0.0249105723220333	-56.5212125460086	-50.6263241381958	16.8684276288084	
941100000	-49.3654732960029	-30.0457817598682	-0.0190728386807208	-56.6700941721512	-0.0391657094862295	-56.7214384001361	-54.1622590570098	-18.8607018666607	
942800000	-49.3048844155271	-3.47136822243499	-0.0297437181548155	-56.8794691874701	-0.0322833568855437	-56.7980316472151	-49.5232288993537	0.568820907460897	
944500000	-47.505369241068	-40.2365481553853	-0.042941037456618	-56.9919773446923	-0.0338649395687449	-56.8814274070252	-53.1159635853902	1.39734660937552	
946200000	-53.9052869843285	-16.648364504903	-0.0434991438869981	-56.9555909629977	-0.0214020570725501	-56.9135101455798	-45.7905691361317	-35.8429158290199	
947900000	-46.7502438661129	-10.7894311206715	-0.0373767617576249	-57.1243729989123	-0.0380918272551179	-57.11957663801	-56.2844679291382	1.43815550880026	
949600000	-49.3014369667244	-11.4624760632771	-0.0325740634798505	-57.0645994896031	-0.0243846944341385	-57.2279055640551	-64.7980748186719	139.896037213605	
951300000	-50.4117144072098	36.8978830552945	-0.0412915127966283	-57.2255428740343	-0.0340646782589555	-57.3140167157581	-47.8832443183002	-6.93674666562533	
953000000	-52.7541090391013	-19.040487330666	-0.0354426304112074	-57.454465099827	-0.016894026807662	-57.4134068283003	-49.5984427120622	3.81331235553862	
954700000	-59.5354006140802	-23.4955994715863	-0.0273753509216734	-57.4931671213131	-0.0307103418756469	-57.4974648010698	-49.5551064942375	-13.3380990139038	
956400000	-49.5698298813231	-16.5719934431815	-0.0210270098154027	-57.6645023578641	-0.0348142502055087	-57.5641297945416	-48.3773488823145	16.2036704233421	
958100000	-54.0328235495109	-10.9031035788949	-0.036200139652321	-57.7776149643182	-0.0352106857186054	-57.6847404568485	-49.9408569165415	-5.76110002444144	
959800000	-50.430717548482	16.9442286870886	-0.039833620218449	-57.7512415587719	-0.030791858398543	-57.8081857083899	-50.0252324636278	-57.596283407385	
961500000	-55.0427786751851	-29.1376693443866	-0.0260712601670357	-57.8599943597908	-0.0424964806211398	-57.8304454913	-50.5379530697536	-38.7174230327178	
963200000	-52.5450816723721	-9.62417563062884	-0.0242324670563623	-58.0632458281725	-0.0264840698140039	-57.945541203004	-53.9027860410593	-8.15560582605518	
964900000	-55.8921785706483	23.6902510025314	-0.0317524490536594	-58.1219978498886	-0.0315188368883109	-58.1125514723574	-52.5745346357764	9.37555865082845	
966600000	-48.7926083139263	-17.7270190705403	-0.0274046962037576	-58.2321758928013	-0.0395955987207476	-58.1454872753201	-50.1320568297303	-41.0270779002245	
968300000	-49.0552849583133	-26.1626383760554	-0.0282579347047606	-58.3758383433817	-0.0511461141693053	-58.274758790921	-49.2408232208725	1.1536033017869	
970000000	-46.0593058762738	-16.4895626053437	-0.0226519019413491	-58.4337216640683	-0.0235842606392455	-58.421910487892	-49.0195701639037	-7.60912197833124	
971700000	-54.368323348134	-9.34529271521545	-0.0227285180892562	-58.6092716266007	-0.0330694863725967	-58.4619683241884	-50.5290484882179	11.401952155888	
973400000	-52.8839166727197	1.08983929160593	-0.0303789188194729	-58.5889921403114	-0.0401059642172693	-58.5672051482241	-52.221213314368	19.415361723147	
975100000	-53.6330385896004	15.6500037627471	-0.0306486853193453	-58.8295398193917	-0.0435236100684467	-58.640323609861	-52.4531495046122	-16.6648036142721	
976800000	-53.6145096197474	-5.92695281231983	-0.0357143045069798	-58.7487151725054	-0.0351631033746354	-58.7958653831075	-48.3321896159809	-29.7302640523442	
978500000	-50.6734045899393	-5.10118490885672	-0.0404604169745359	-58.8971817938886	-0.0206202635880353	-58.9449004504939	-47.3655183479591	-12.0023114023807	
980200000	-53.3153503500274	-6.92408592949176	-0.0347234790748971	-59.0336201477995	-0.0205000460869012	-59.0362575769562	-52.1607091547075	-1.90452586433914	
981900000	-54.4419234709052	10.8826389730966	-0.0427950499356049	-59.0687156318163	-0.0359197033942345	-59.1228655761185	-51.5197243367063	19.7025649355255	
983600000	-50.6733112722687	-24.9756959471707	-0.0138510549620325	-59.2292325772435	-0.014284176240988	-59.1756306481428	-55.7591018390973	17.3854894846342	
985300000	-51.3816512614125	-54.4736523157782	-0.0226405798013443	-59.3763152691185	-0.0199699005798905	-59.3268380200825	-50.0428416970811	-12.3835420738156	
987000000	-52.0910453982319	10.7092093786574	-0.020455139787547	-59.4690346520017	-0.0388103472260817	-59.4235522269147	-48.2702665910056	9.44518000285793	
988700000	-50.6850670001852	-32.8568312748777	-0.0398981114706806	-59.4263648154391	-0.0419945123004888	-59.5251740899514	-47.7829292128596	12.3255968773523	
990400000	-54.1337760771379	-19.4140407182494	-0.0286272717245667	-59.6742873648348	-0.0362465308810466	-59.6204925208524	-48.9673842131377	-3.67593898145607	
992100000	-59.4033420131176	-11.3022428879787	-0.02118268343814	-59.8190937980411	-0.023834055912337	-59.6676682668059	-65.4648457196749	115.41569623816	
993800000	-49.1689027025403	-4.04160503498092	-0.0456703733859581	-59.9129969000156	-0.0319454342983644	-59.9233925510814	-49.7055962240572	-37.8435940692796	
995500000	-51.1416755984228	-0.145354444726662	-0.0158379697624942	-59.9754846944471	-0.0192613564412805	-59.9274216859948	-57.6084986475205	-29.3994048672089	
997200000	-52.8558363778397	8.45083378197452	-0.0293907459651355	-60.0640206188272	-0.0148330618059311	-60.0591767617297	-51.5306039204041	-14.6108279098951	
998900000	-51.6746177723956	-35.6008059211919	-0.0328949100026924	-60.1621016182582	-0.0313962366666356	-60.1128999766467	-51.02422042798	-39.382111747804	
1000600000	-48.8134147881023	-11.1344647493381	-0.0334641910846063	-60.2540529551468	-0.0401006969530063	-60.2601661143898	-49.1163917218821	-38.2431248571375	
1002300000	-50.6077855425988	-5.06683630851069	-0.0245481344170099	-60.3874976632057	-0.0229375403520985	-60.4101411574371	-59.8490145299308	-177.413274050848	
1004000000	-50.3999648757183	-19.6364869249072	-0.0210937039905703	-60.5857743799515	-0.0300455455226385	-60.376829508696	-49.8991854026745	2.01138864157474	
1005700000	-51.7627855604326	-24.8568377123088	-0.0268991283652116	-60.6089986455225	-0.0377446908396894	-60.5928373369754	-54.5414039709772	8.20067418933491	
1007400000	-51.873385922352	-26.8869858474917	-0.037845282815903	-60.6613649956727	-0.0336790850550782	-60.6113485046243	-48.8728829440122	5.08135170539657	
1009100000	-52.1896625200793	-16.5294760682039	-0.0364351666734156	-60.7030032436914	-0.0387218146608445	-60.694534314504	-52.7128514636324	-60.910331289961	
