!Keysight Technologies N9950B: A.12.38
!Date: Thursday, 11 May 2023 14:04:55
!Timezone: (UTC-06:00) Central Time (US & Canada)
!Model: N9950B
!Serial: MY61131330
!GPS Latitude: 
!GPS Longitude: 
!GPS TimeStamp: 0001-01-01 00:00:00Z
!GPS Seconds Since Last Read: 0
!CHECKSUM:2147006886
!Correction: S11(ON U)S21(ON U)S12(ON U)S22(ON U)
!S2P File: Measurements:S11,S21,S12,S22:
# Hz S DB R 50
160000000	-8.29706753534658	-144.184683795859	-0.976762446976712	-53.2308415059564	-0.98110389195599	-53.1679867959339	-8.32986243725734	-148.09540922823	
160640000	-8.30215806977493	-144.322708192193	-0.974980273662437	-53.4755178263556	-0.986991558797001	-53.6186785417609	-8.29009471306501	-148.512873170216	
161280000	-8.267886627099	-144.444154663956	-0.976594616155577	-53.6859600260389	-0.999236315843673	-53.7040794329497	-8.29055201960316	-148.644712212644	
161920000	-8.18880516350912	-144.926896771249	-0.968845110766528	-53.7346027296273	-0.997952284511117	-53.8271282525711	-8.20363701486088	-149.147229747	
162560000	-8.2145720230912	-144.965911097507	-0.982197029388035	-54.0119859638371	-1.00544672606762	-53.9488931546392	-8.24704546156561	-149.409164998745	
163200000	-8.17522486588738	-144.907655525978	-0.981172702413062	-54.1568999406453	-0.983247654728945	-54.2522646210173	-8.20931572881837	-149.008552987274	
163840000	-8.15465052759088	-145.161984231187	-1.00056109374289	-54.3264165751604	-1.01936805520122	-54.2518530247368	-8.20346860192091	-149.61340142809	
164480000	-8.13580010330165	-145.378446426382	-0.990463630142736	-54.567760229057	-1.00562628789701	-54.5533131123435	-8.18879880884728	-149.533607739277	
165120000	-8.10329256875514	-145.461522053347	-0.980034178865784	-54.7481821860094	-1.02212639815671	-54.8670986723102	-8.15057377471643	-150.006619826461	
165760000	-8.10944470949358	-145.742428403965	-1.00768222966962	-54.8335849343135	-1.02078131042535	-54.9617281562895	-8.18652710324964	-150.088400288973	
166400000	-8.09929182983656	-145.741604849133	-1.00488978032858	-54.9226551138465	-1.01817161993205	-55.1827327686742	-8.16540555275105	-150.47144333914	
167040000	-8.11013169711483	-146.293389400514	-1.01981642874392	-55.2896692344881	-1.04487313417816	-55.2571588716975	-8.1455059169553	-150.592951629786	
167680000	-8.07196677125373	-146.18086395163	-1.02179431438139	-55.4246629768744	-1.03896370520664	-55.4599191652927	-8.08800094361995	-150.970580615585	
168320000	-8.03141852160834	-146.441100106592	-1.02253805893504	-55.6626323641579	-1.04688290359093	-55.8228763465038	-8.05836897043296	-150.842799794195	
168960000	-8.0364371941992	-146.558404988589	-1.01516938393059	-55.9043949046978	-1.03289344664335	-55.7291157106944	-8.03441344198886	-150.775464038392	
169600000	-7.99992890959309	-146.687965570784	-1.03983145426081	-56.0382585427335	-1.04575458719392	-56.0646236794068	-8.01200254517344	-151.452463660461	
170240000	-7.9344848796503	-147.184446815955	-1.04637708399849	-56.2359559892772	-1.06907300514819	-56.2401507046294	-8.00231650862644	-151.772369001498	
170880000	-7.97383536550821	-147.453332586551	-1.05123607992507	-56.3357157526342	-1.04895496251267	-56.4380086813891	-7.95397940896736	-151.784065414841	
171520000	-7.92381396455407	-147.534011555654	-1.03509421191171	-56.6239267262717	-1.06031009050916	-56.6997166172804	-7.93229096545712	-151.855877987733	
172160000	-7.90028271866532	-147.686756092565	-1.04106910049029	-56.7632669635883	-1.05970237506051	-56.7735043131951	-7.95183454907545	-152.414973959332	
172800000	-7.95677901792742	-147.61659705741	-1.04099123064521	-56.9564529506271	-1.06074780082095	-56.8684785361016	-7.9743966583964	-151.95575943658	
173440000	-7.86872659141059	-147.843832332777	-1.04996699262727	-57.1312040348452	-1.07580261657305	-57.107410159602	-7.9361482087424	-152.36056466289	
174080000	-7.87913114435555	-148.074863681826	-1.04993155431845	-57.288162190641	-1.07620275497603	-57.3995381895933	-7.88270254912308	-152.331113303322	
174720000	-7.81093050157647	-148.052646261868	-1.06719795780085	-57.5661069231866	-1.06652787381465	-57.6661649140001	-7.82528915296656	-152.398762279152	
175360000	-7.85498236479401	-148.713954330995	-1.06041977644174	-57.8126236138383	-1.09106584202769	-57.7171012224652	-7.86617541755559	-153.120970791186	
176000000	-7.78778355091587	-148.528711575929	-1.08209078499303	-57.8414593371179	-1.08382344294	-57.8658276554524	-7.83925221446679	-153.011548071432	
176640000	-7.80900508098635	-148.905528956084	-1.06997627660898	-58.0372566797196	-1.07319297422195	-58.1711903935746	-7.80613116036099	-153.397017052339	
177280000	-7.80193545535423	-149.023337602207	-1.09648577443034	-58.2142068010495	-1.11189215338635	-58.3720712348465	-7.79471148280599	-153.659312455695	
177920000	-7.78958485620381	-149.189908895546	-1.09104866094393	-58.4989865228185	-1.11230227576869	-58.5192684714895	-7.8188477087104	-153.98837888764	
178560000	-7.74707846149915	-149.507121570533	-1.10391816359719	-58.6930874067928	-1.11274481540103	-58.6951187612656	-7.74763722519479	-153.832222078277	
179200000	-7.74253214819881	-149.31364505905	-1.08779250785206	-58.711785573604	-1.10499776724027	-58.7854627013345	-7.77257567832891	-153.976101046286	
179840000	-7.70231967157742	-149.571883476785	-1.09848387127725	-59.0216273927524	-1.10022222713783	-59.0378537567947	-7.756529716876	-154.163851760477	
180480000	-7.73463405028539	-149.790700162967	-1.08789105363244	-59.2149561011395	-1.12021876440086	-59.244494297549	-7.74922436499151	-154.318457178437	
181120000	-7.72920241114576	-149.946202274432	-1.10392121252562	-59.2351266954125	-1.11478740122077	-59.3737609669625	-7.73823549591195	-154.463736047964	
181760000	-7.66441853009272	-150.014211058954	-1.10020883154109	-59.4980954631482	-1.11243724812379	-59.5082893231687	-7.67735484210722	-154.877947192238	
182400000	-7.67728763922085	-150.287664044101	-1.11506831353662	-59.7868430500666	-1.11572421700061	-59.7424123002899	-7.67521013849148	-155.142120072418	
183040000	-7.64153553314372	-150.310935764888	-1.1104717766959	-59.9547620678317	-1.12866062545326	-59.9057694652452	-7.70546672926191	-155.166796168026	
183680000	-7.63723732853438	-150.713592536976	-1.11981204801387	-60.0945518141779	-1.13933970598957	-60.1067908993748	-7.64234600682927	-155.502991901672	
184320000	-7.61933295851992	-150.90255408459	-1.13483144825433	-60.265616271822	-1.1491217933064	-60.2604324327369	-7.64223725162686	-155.660054572388	
184960000	-7.60737817310602	-150.970696459867	-1.11590765798184	-60.5351849279279	-1.13518638201066	-60.4696342379054	-7.63440689062461	-155.861350085568	
185600000	-7.58273851592827	-151.408484720953	-1.13043625469498	-60.638316913093	-1.15760114169681	-60.6741675344333	-7.63123104679104	-155.886900144913	
186240000	-7.56451076740691	-151.421509074588	-1.11888041308118	-60.8315780449718	-1.15532120533691	-60.8026193762411	-7.61823234662958	-156.357004513714	
186880000	-7.57958571250077	-151.613534618495	-1.14249160783706	-61.003919364805	-1.15102081675002	-60.9799255830101	-7.6050606672986	-156.802095203281	
187520000	-7.5883653293864	-151.900730481517	-1.1336140110088	-61.0977716716026	-1.16528380239741	-61.1859343821084	-7.60176056254905	-156.850058248587	
188160000	-7.54264486227519	-152.020681926047	-1.14891621807707	-61.3819415461887	-1.16142155211312	-61.4035306313351	-7.52104286454466	-156.791101772672	
188800000	-7.5075952477473	-151.946996847836	-1.15575533954675	-61.4984757860877	-1.17299312261341	-61.6275622388848	-7.5284116490692	-156.851085754252	
189440000	-7.50507016154798	-152.099326808899	-1.1492415322779	-61.7085795718744	-1.16460359066907	-61.7332357408333	-7.55307490364674	-156.923807550264	
190080000	-7.48107378541392	-152.607361674168	-1.17705581007007	-61.8895418908888	-1.16095274421765	-61.9092249461611	-7.53916170938196	-157.026036870633	
190720000	-7.44100699668521	-152.463940345282	-1.16001040224215	-62.095436826477	-1.1645072146316	-62.0456723878555	-7.49175130267437	-157.356889634099	
191360000	-7.44143920911328	-152.874990791991	-1.15969364353388	-62.3219541143485	-1.18210114110813	-62.2956938480541	-7.49554405998461	-157.871739542534	
192000000	-7.40952378896542	-152.849872933806	-1.16728537797057	-62.451773937048	-1.18046273792195	-62.4538817034243	-7.44576614771385	-157.663449877601	
192640000	-7.45389860721991	-153.193137114462	-1.16685480225207	-62.5272129836167	-1.17765740060864	-62.6143555601723	-7.44542741315958	-158.167274360435	
193280000	-7.43824400450029	-153.318705381903	-1.16583140879533	-62.7578163181839	-1.17920257792942	-62.8194756193306	-7.48105191580437	-158.266644756867	
193920000	-7.41145152328396	-153.507129714587	-1.17197626328574	-62.986529921681	-1.18515720214677	-62.8885219212921	-7.46685939375195	-158.409555359928	
194560000	-7.38400953355565	-153.665937686854	-1.17472387108306	-63.0910306741806	-1.20541145842094	-63.1367502718467	-7.40857235173868	-158.726156546641	
195200000	-7.34296979526088	-153.603122644338	-1.19654428198302	-63.3702193413927	-1.18429879984304	-63.422873209725	-7.36772077380618	-158.695031167506	
195840000	-7.37884254596069	-154.036487622047	-1.19633524228627	-63.5326986055434	-1.20038774580261	-63.5546561282783	-7.43055925536614	-159.139195358003	
196480000	-7.37212935026745	-153.836928117173	-1.17744531426553	-63.7946732581285	-1.19599050544042	-63.8102237683632	-7.40684350177749	-158.936783525936	
197120000	-7.3897969033033	-154.124571021684	-1.1831713028061	-63.9065029972316	-1.18568702828811	-63.9848020846979	-7.43698413331551	-159.021275334095	
197760000	-7.33469079164645	-154.299490039037	-1.2197544934103	-64.1400494296791	-1.22612105148634	-64.100289307997	-7.33677412346056	-159.511306443655	
198400000	-7.31306288411967	-154.488876992931	-1.20131952161504	-64.1625858787724	-1.21435730474199	-64.3602139665654	-7.34135638823139	-159.668983160476	
199040000	-7.29838799744806	-154.604809769403	-1.21296880519336	-64.448174677181	-1.21406557137127	-64.444216470947	-7.34332814438519	-159.827164220198	
199680000	-7.27405772890267	-155.014219525258	-1.20972444069536	-64.5990842158655	-1.228267016857	-64.6317170349613	-7.31029273823672	-160.269210944119	
200320000	-7.2732523247326	-154.989568638142	-1.20939885553753	-64.8843611215159	-1.22335293430845	-64.8519178698828	-7.34872354788703	-159.980591245959	
200960000	-7.29973119814094	-155.264813714757	-1.20586097182927	-64.9017590084101	-1.23338645311501	-65.0209561093875	-7.31036083828922	-160.606513480176	
201600000	-7.25860156917166	-155.372052972962	-1.21977375118941	-65.1462561287923	-1.23318002415507	-65.1677586909207	-7.29054527175846	-160.380267612518	
202240000	-7.22197596132774	-155.415549204464	-1.23072902255797	-65.3941868981807	-1.23231954157603	-65.4635578833989	-7.28454058994799	-160.866942545731	
202880000	-7.21020199146174	-155.604445001169	-1.24110493992548	-65.6083788133459	-1.22904707918802	-65.6281486280329	-7.25331070383287	-160.892078145953	
203520000	-7.19246335320741	-156.053155970134	-1.23593357082077	-65.7115062577163	-1.25933360238312	-65.7263626078873	-7.29329195066409	-161.050915769521	
204160000	-7.19580840781634	-156.051194145419	-1.22355932640007	-65.9301192808952	-1.24243876320538	-65.8315308765344	-7.22032273564379	-161.362943264822	
204800000	-7.21104786556694	-156.042708824309	-1.23038238216095	-65.9834556403811	-1.23774182760689	-66.0760591320081	-7.24401134756674	-161.398395921703	
205440000	-7.20136046500739	-156.328091577917	-1.23664149556176	-66.1873391117747	-1.25095952408978	-66.2825630791964	-7.27073871453583	-161.751112545488	
206080000	-7.16761939791676	-156.504255680636	-1.2390665726753	-66.3674624137855	-1.25651870079843	-66.4239673695321	-7.207525408603	-161.948898978818	
206720000	-7.15995332946397	-156.882406713362	-1.22458645895605	-66.5159107954617	-1.25349162870565	-66.5364516407269	-7.22537713267591	-161.972144182685	
207360000	-7.17842630320462	-157.039531890601	-1.24952944662989	-66.7229751298802	-1.26841111268946	-66.7438080821542	-7.1804980518457	-162.334351751766	
208000000	-7.15275099015348	-157.012106490286	-1.25828645944819	-66.8911397313229	-1.27164927160869	-67.0485134047972	-7.1694915488065	-162.360454555598	
208640000	-7.12800688005649	-156.938001257077	-1.25616471723355	-67.1744262965867	-1.26956050967217	-67.1032494183023	-7.17296018545174	-162.406024597248	
209280000	-7.13520426843651	-157.263531443783	-1.25372717921021	-67.2828390743415	-1.27726344517713	-67.3046075175299	-7.1248011467759	-162.695362328844	
209920000	-7.09978432070965	-157.641486142413	-1.26135274027949	-67.4760203887437	-1.28291442444288	-67.4700707991363	-7.12844025563172	-163.011802415394	
210560000	-7.07229769323023	-157.641187770884	-1.26528844899413	-67.7276867170457	-1.27663275402607	-67.6426185556498	-7.11389073223795	-163.026597059291	
211200000	-7.08330585804675	-157.812738608425	-1.26781562381748	-67.7981896961669	-1.28589930712794	-67.8914111225812	-7.13228656400966	-163.162652975539	
211840000	-7.09862751511347	-157.932964774288	-1.2590778206942	-68.1010323308082	-1.28578584818666	-67.9629328589828	-7.12842792544119	-163.42040363803	
212480000	-7.04509529675552	-158.021290236462	-1.28208297971642	-68.1931405642667	-1.27535190427781	-68.2742485228772	-7.10931717882293	-163.743218335974	
213120000	-7.05223335964035	-158.122034650478	-1.28242471134919	-68.3409609002494	-1.2744203787893	-68.4096640521341	-7.10418840336187	-163.85746646873	
213760000	-7.04930708952852	-158.411719363445	-1.2708658042498	-68.5019155138836	-1.30935738963373	-68.5192564878542	-7.08062011531429	-164.089532823512	
214400000	-7.089294391507	-158.532120007006	-1.28320309150402	-68.6066086683622	-1.27614873977114	-68.6662474904037	-7.12294365354513	-164.212115048769	
215040000	-7.05093196650542	-158.812200721457	-1.28272352083219	-68.8680972952893	-1.29602350439004	-68.9398589112105	-7.09202661355019	-164.340108235927	
215680000	-6.9797591237618	-158.948865802729	-1.28729053215259	-69.0614760038632	-1.29522036389814	-69.179733660415	-7.02809704632863	-164.373898323793	
216320000	-7.04627954507207	-159.024007127642	-1.27175932921011	-69.2647363887829	-1.29265143891695	-69.1856892374695	-7.08251719529388	-164.661929883049	
216960000	-7.01772445030638	-159.039690900253	-1.29554613915833	-69.4838252875336	-1.31120042117227	-69.4246769434883	-7.05869061667634	-164.748812921493	
217600000	-7.00510138919712	-159.546265723899	-1.29945697991082	-69.4717010480193	-1.30699560692021	-69.6088166405721	-7.03151385429539	-165.038557588028	
218240000	-6.97523065437379	-159.692741886405	-1.30834097348853	-69.7626251256643	-1.31020771454684	-69.7724650679287	-7.04826526236648	-165.424432248715	
218880000	-6.99931247733975	-159.718132267215	-1.27980880358003	-69.9269046248741	-1.30845203759906	-69.9677797978287	-7.02247775658574	-165.364326193514	
219520000	-6.97183238392562	-159.733482010571	-1.29878615642112	-70.1202317316927	-1.30356988786877	-70.1206150526266	-7.01591387481252	-165.505518886585	
220160000	-6.97522967722583	-160.339286131111	-1.30708598003957	-70.3577290382577	-1.32964826588802	-70.296840802021	-6.98410072485795	-165.741656074669	
220800000	-6.90856000604008	-160.407989906557	-1.30461956935292	-70.4320204485782	-1.31775216252928	-70.4547032755263	-6.99874052312452	-165.771679690797	
221440000	-6.93242413235498	-160.473955971263	-1.30828837922695	-70.6525673001462	-1.31535208105966	-70.6226934383462	-7.00792859218093	-166.097418162986	
222080000	-6.93236309346737	-160.629659890701	-1.32707369897925	-70.8231089695051	-1.33018427215265	-70.8874284807533	-6.98412014991134	-166.489282755152	
222720000	-6.93675517090694	-160.822202362613	-1.32818433718924	-70.8928424071411	-1.33203737726238	-71.0383588813002	-6.99583382887146	-166.616458883701	
223360000	-6.93065680669628	-161.016725672679	-1.31170227070923	-71.2712169384019	-1.32519986556542	-71.227021966667	-6.9672248118834	-166.578513965658	
224000000	-6.94987232576944	-161.096289376244	-1.32979346441372	-71.3268536308873	-1.32798583264154	-71.3029644280167	-6.94478330763105	-166.727276555058	
224640000	-6.91349504700182	-161.10805205235	-1.31844852653725	-71.5670079825336	-1.32656173429131	-71.510712188404	-6.96642433912054	-167.086910113622	
225280000	-6.90553124288759	-161.390783161358	-1.32631359492321	-71.8264924741421	-1.34201799633601	-71.727621098683	-6.94358232280374	-167.033800336139	
225920000	-6.87992243797099	-161.717654789927	-1.33192414107412	-71.8853152410804	-1.35571442792264	-71.8979103271681	-6.94222931871536	-167.459063266201	
226560000	-6.88715244955059	-161.685184885891	-1.32905746228248	-71.9891698166813	-1.34599595222811	-72.011946676339	-6.9635051178594	-167.639405103372	
227200000	-6.86653462567215	-161.790541238446	-1.32950239771501	-72.1516164579043	-1.34381500034975	-72.2792476944129	-6.90040269738147	-167.674139501616	
227840000	-6.86724236053347	-162.326130580327	-1.33642540751028	-72.3113508019899	-1.37063692745738	-72.3850270337779	-6.93609754336674	-168.110796405144	
228480000	-6.85358819614371	-162.252113800269	-1.34230145593035	-72.650564834485	-1.36071918648986	-72.5618345043975	-6.89675670826718	-168.205564686613	
229120000	-6.8466158840859	-162.328581858479	-1.34523889404989	-72.7403481495968	-1.36698250894485	-72.9116609801406	-6.86946649842607	-168.285099903018	
229760000	-6.85544044590099	-162.515892093146	-1.34512483546596	-72.98802556509	-1.34446592170037	-73.0200371870372	-6.89527892402799	-168.402252120616	
230400000	-6.83389615026163	-162.737539315504	-1.34847731190436	-72.8998610838957	-1.35514757164004	-73.0996878919327	-6.90669932655253	-168.612481314845	
231040000	-6.86920705215996	-162.935337979548	-1.36062928116921	-73.2205350904194	-1.36170205148986	-73.2665269151517	-6.92142814522481	-168.875302688206	
231680000	-6.80891313262594	-163.187694764629	-1.36399034086792	-73.4134897654749	-1.37886139516866	-73.5062812830995	-6.86950864816971	-169.363568610244	
232320000	-6.80494098198186	-163.265888437487	-1.35267321845843	-73.6232811189217	-1.37336256528346	-73.6784328356469	-6.85118607746312	-169.192689746044	
232960000	-6.79137351101612	-163.076943049515	-1.35449543519291	-73.7749172820287	-1.36613611215967	-73.9151188764978	-6.86740146804482	-169.10217741679	
233600000	-6.78477104883995	-163.562458467114	-1.3695862716863	-73.9783315066067	-1.36087232444377	-74.066963747563	-6.85441597473994	-169.577716216597	
234240000	-6.79463519636266	-163.676992300196	-1.36329024886611	-74.1341548161821	-1.38632135787312	-73.9744787899448	-6.82806472669315	-169.657354244701	
234880000	-6.80291090624388	-163.892812091706	-1.36739068326789	-74.3403899847867	-1.38297712328944	-74.3104567293343	-6.82953731818851	-169.950417742694	
235520000	-6.78628450947542	-163.925484606429	-1.37271891150838	-74.5137339519441	-1.37256536590953	-74.4877696084974	-6.81566668262901	-170.056189902028	
236160000	-6.76844632327721	-164.362464492132	-1.36833336807562	-74.675790921126	-1.40262321237798	-74.8124838552323	-6.83954266398534	-170.370752278226	
236800000	-6.76675659178291	-164.402034797189	-1.37186273511058	-74.8472194791419	-1.38665014348732	-74.8520239892481	-6.86017334155729	-170.380842604209	
237440000	-6.75698304534509	-164.458239372122	-1.3772708964579	-75.0370019063637	-1.37406971548577	-75.0911396299972	-6.81353686404962	-170.558814582286	
238080000	-6.75642757703728	-164.69283792931	-1.36446673431969	-75.0677475752951	-1.384549473845	-75.2030414961357	-6.81205225685494	-170.583361174638	
238720000	-6.74381440834884	-164.995589898991	-1.37344659977453	-75.2718662000025	-1.40768778069512	-75.3550981751305	-6.80862899346198	-170.783912995499	
239360000	-6.74041393968234	-165.13245920737	-1.39191128853789	-75.4963030544173	-1.39066728928764	-75.5103950204871	-6.80119965249241	-171.016734777299	
240000000	-6.73611031476445	-165.283848436177	-1.39088057189751	-75.6874477580684	-1.40732401013832	-75.6345214528196	-6.79649882693698	-171.419242764889	
240640000	-6.75221593933545	-165.509159665539	-1.38103961036698	-75.8037073160192	-1.41018971104901	-75.8411920399245	-6.80729764010146	-171.54078428372	
