!Keysight Technologies N9950B: A.12.38
!Date: Thursday, 11 May 2023 14:01:40
!Timezone: (UTC-06:00) Central Time (US & Canada)
!Model: N9950B
!Serial: MY61131330
!GPS Latitude: 
!GPS Longitude: 
!GPS TimeStamp: 0001-01-01 00:00:00Z
!GPS Seconds Since Last Read: 0
!CHECKSUM:0283810886
!Correction: S11(ON U)S21(ON U)S12(ON U)S22(ON U)
!S2P File: Measurements:S11,S21,S12,S22:
# Hz S DB R 50
160000000	-47.5127444474918	27.4945532838634	-0.035079949514276	-29.0056640306245	-0.0299435410928377	-28.8956015617667	-46.7215467222988	9.1903589533623	
160640000	-47.1393167807823	27.900197369552	-0.0296364583609131	-29.1234357459832	-0.0388192451477181	-29.2117301921017	-46.2035820397399	5.92580043037924	
161280000	-45.9709900697134	21.267878472992	-0.0292853554284273	-29.2584769603172	-0.0481912025847843	-29.2704139426726	-46.8318457016217	14.5049873568381	
161920000	-52.3228491403734	25.8337025383835	-0.0227822211907424	-29.3382298936803	-0.0296354546641936	-29.3799958202837	-53.4261369117446	18.882063580976	
162560000	-47.8729841354035	19.3832949003278	-0.021645081425988	-29.5129890691039	-0.0462890858748331	-29.540776351043	-50.997467064061	45.4474913470695	
163200000	-49.6198878027736	13.5270426463611	-0.0338514107430335	-29.5763783468327	-0.0321606112864231	-29.5797446759696	-45.3881966097715	10.2607166385703	
163840000	-47.6887840979737	6.37787092967221	-0.0292411204724229	-29.7598405347978	-0.035284456671313	-29.7063997374703	-52.2252479836821	29.4228118831101	
164480000	-50.2618373708841	14.475089483632	-0.0293968375054278	-29.8303531844399	-0.0300824484263082	-29.8015853402328	-46.7719700817176	14.6075715303027	
165120000	-47.6105735609828	1.44498656138122	-0.0283191156325827	-29.9338586681633	-0.0238716766251973	-30.0181408383369	-49.670143127506	23.8926704523799	
165760000	-49.3816037283983	18.2290995795561	-0.031200163382677	-30.1009918353519	-0.041302815701283	-30.1069250302959	-45.3721743739713	27.926955751158	
166400000	-45.4926008566953	13.4409861017811	-0.0285236795404792	-30.1248006117024	-0.0324803503942609	-30.2533586004084	-46.9940894961656	47.5645443499809	
167040000	-48.2267843931745	26.8152070251518	-0.0155729294849848	-30.3719243671982	-0.0427945173603147	-30.2974017287386	-47.5598978301126	33.8209335780134	
167680000	-46.2522220890976	19.8654013939753	-0.0428464272815143	-30.4694919524089	-0.0371691909471355	-30.3600656331949	-51.6254307253639	46.9581513195454	
168320000	-48.5867768861512	10.9163177419066	-0.027946040557163	-30.493770307839	-0.0367062580674176	-30.5837207942538	-48.5390670761969	16.2466089373713	
168960000	-46.6375687022388	19.4900110145824	-0.0346005045979513	-30.684224531533	-0.0260307880246989	-30.5676683929014	-48.0111778256257	9.09523378001606	
169600000	-46.9636249020139	10.1563785660955	-0.0254858295439532	-30.6632958499016	-0.0413579098256442	-30.7160036891535	-51.0669126085103	33.3026066647707	
170240000	-52.961395361828	-19.7426798548761	-0.0304485025011343	-30.8862392971316	-0.0415958928093277	-30.8680399573651	-51.8022793519357	54.8905663242257	
170880000	-50.1306352701678	45.9317055065322	-0.0301453319569536	-30.9016626262519	-0.0335074760383871	-31.0523952887155	-50.538199862453	15.8359942457089	
171520000	-52.600568923844	30.1213768081028	-0.0249436192792873	-31.2046227713623	-0.0450757393206117	-31.1111483396111	-48.0584380569749	-2.76283468062025	
172160000	-50.0873479264596	6.44628116239845	-0.0201193991319219	-31.231236265847	-0.0348524005409401	-31.2440672817835	-48.8535913944453	53.5878322744434	
172800000	-45.6443833446272	39.5528654970962	-0.0361775349099225	-31.3386511041278	-0.0377404397507429	-31.2936188127063	-46.0767604403243	14.8849279867806	
173440000	-48.9823726883508	-12.5830021549483	-0.0385080657922627	-31.4730671339925	-0.0344951010629171	-31.4453209809659	-47.1905937143143	28.0950642131069	
174080000	-49.5069582413516	25.7166842150536	-0.0220824522047232	-31.4538482806608	-0.0406951091471804	-31.5901927248904	-45.7595444749395	-1.48252425283405	
174720000	-49.3772788201521	0.674482582508534	-0.0374998891458103	-31.6642468458714	-0.0216576077532542	-31.7603550487721	-45.6564039001072	-24.8343617110799	
175360000	-49.7361267147054	37.9668836109588	-0.0312213877696296	-31.873842834381	-0.043703639114623	-31.8308167789155	-50.1891227534026	25.497485667835	
176000000	-52.3261330388347	-0.194057659280367	-0.041166265801618	-31.9355060171535	-0.0347693408359568	-31.7726624956276	-46.4006890137603	16.6170954018234	
176640000	-48.9078972831454	32.5127725380908	-0.0258320231960986	-32.1037213537947	-0.0326813609402856	-32.0585588783417	-49.4554004886866	8.10447317286216	
177280000	-49.5802938536431	9.96897981004938	-0.0413116495841029	-32.1335175666404	-0.0445083985177321	-32.2373487622777	-51.9922637279245	15.5763200680217	
177920000	-47.6852369847945	15.613751146091	-0.0240336275042657	-32.3145528881913	-0.0373135894442041	-32.2576156083024	-49.6267954114655	39.3121278931493	
178560000	-51.6683344719063	25.2849239154292	-0.0211388287814017	-32.4465704691872	-0.0331229816249705	-32.3692685753502	-48.7994995578553	-23.971698250793	
179200000	-48.5378359570837	11.6966871136388	-0.0399720716206626	-32.5204417753534	-0.0430275572543551	-32.3930493273283	-46.7943102806647	8.80336878378824	
179840000	-49.7070264859436	-6.86102775154076	-0.0355465640889282	-32.6096679585191	-0.0256587149403063	-32.6615604205987	-47.308016416894	11.4093620638175	
180480000	-47.7842850333231	21.9002047593217	-0.0210770827275067	-32.8291629864651	-0.0442699703732154	-32.7445171777184	-46.0750484001995	5.73217121946941	
181120000	-48.7957611103806	30.1528350937634	-0.0439068050467322	-32.8480646391682	-0.0360963102226428	-32.8601520758664	-45.8174316968111	5.38333718172742	
181760000	-46.6434414863881	11.7928440714736	-0.0276337267984788	-33.0007289684016	-0.0314674514936047	-32.9769435184273	-51.0605719898657	5.68881792337856	
182400000	-48.3636926931897	3.88598777039126	-0.0300638733207237	-33.1386649425164	-0.0310300335727219	-33.0917899996238	-49.855892869797	26.541426707935	
183040000	-47.9437646662574	-6.00491650058164	-0.0228591959821405	-33.2848632966908	-0.0403571558049328	-33.2308718873977	-46.0844296950849	20.6753557823699	
183680000	-48.9106803304336	7.92278457591903	-0.0236138578784651	-33.3553079527759	-0.0361900118466868	-33.4062696079728	-50.5681271960957	16.258661270733	
184320000	-49.4813130840003	12.0406108929522	-0.0416040967654029	-33.3985883800746	-0.0391665346052434	-33.3643905356147	-51.3651423971796	17.0394185834034	
184960000	-47.1471443826702	12.8879567337996	-0.0296183362414614	-33.6030897167889	-0.0453568759482502	-33.5853317091332	-49.2461439906849	20.5879070803797	
185600000	-52.0997020878078	23.4715225654259	-0.0412040766157292	-33.6157861593802	-0.0369131619525654	-33.6348037938228	-48.3677154945801	10.6334999098441	
186240000	-49.4499126412863	13.1235294071001	-0.0250620207903053	-33.8193962976097	-0.0448640251936244	-33.7826901078741	-50.6081752654102	35.9125933066034	
186880000	-46.7013579827125	15.815199726052	-0.0367937671354716	-33.9609776439363	-0.032377327389367	-33.9587428252613	-49.371783062294	63.3332822305919	
187520000	-47.1914361789302	39.7760067415126	-0.0213637651882102	-34.0732085312227	-0.0351585313132673	-34.023390286342	-50.4851960340612	36.1518889403271	
188160000	-49.6539239758957	37.3530006219816	-0.0281088795171682	-34.2086115590608	-0.0435846739157312	-34.0945304186208	-51.0383123277463	-5.02243005135911	
188800000	-48.9415330195999	7.66525015248231	-0.0341344052592944	-34.2905022038861	-0.0471504408527924	-34.2208771439822	-51.6964072370501	-23.0615208590892	
189440000	-48.2648079004866	-0.152161582750669	-0.0238062351005338	-34.276702839365	-0.0307805055019948	-34.3518116496649	-46.4347069927179	14.6256864120603	
190080000	-54.5499229887388	15.4458383674835	-0.0350937440907432	-34.427287708251	-0.0416619167260587	-34.4544744702944	-45.5405859395105	8.88683473739272	
190720000	-50.4645232958351	-13.0620298834929	-0.0341991121041778	-34.5659371244599	-0.0247459160757346	-34.5281151723246	-50.2996990136992	10.091119071138	
191360000	-51.3320625302894	5.0865254833469	-0.0324934359349329	-34.7131830845686	-0.0425066679994384	-34.7638226008565	-50.0488507414965	21.5698084386894	
192000000	-50.7412908825144	-8.35992131658295	-0.0338218212682028	-34.741570082765	-0.0266126545021273	-34.8087334528019	-50.6921006016859	-10.140821116807	
192640000	-47.2939505937299	27.7481932128007	-0.0315594121969647	-34.8955485301698	-0.0185443374159284	-34.8995906269399	-52.7449914581703	31.0628452578242	
193280000	-50.302117259436	6.32202627989982	-0.0240691797632191	-35.0400760615895	-0.0425471321120728	-35.1246687825777	-46.3894428594932	31.4400180174022	
193920000	-51.4229850129029	21.6792206391021	-0.0317943536277662	-35.3166084710385	-0.0404972805335173	-35.1416958192347	-46.6726561400282	26.1724580884857	
194560000	-50.7250779624275	16.1356890272722	-0.0335173894782293	-35.2186743443008	-0.0458874072180196	-35.2010380739422	-52.9061249246738	23.2741441608589	
195200000	-48.8092557791783	-4.37021930433352	-0.0392695403557038	-35.3665932165031	-0.0342569775233385	-35.4611613244584	-50.3069185074281	-10.7769805371913	
195840000	-50.1821515855612	6.80744147455382	-0.0354180037101285	-35.5189408825536	-0.0261937687947766	-35.6194468452091	-47.9627464542153	40.2647085369119	
196480000	-45.841363791846	0.876154145480421	-0.00768055297253412	-35.7666456622571	-0.0338256188359878	-35.5810197764421	-45.3368340202048	7.6342957986596	
197120000	-45.3978447216028	18.8818685721008	-0.0420985233684419	-35.7238085996028	-0.0232926785820937	-35.825566240374	-43.9588406103997	19.6505780225562	
197760000	-47.3105912626384	2.23819911118692	-0.0409056149303116	-35.8482607600016	-0.042585635156544	-35.8475038336469	-52.7057758124237	-12.2728952228931	
198400000	-48.0362731390345	-1.84155970636177	-0.0256795476893803	-35.9141895512419	-0.0381327024260308	-35.9405627038106	-50.0281569303489	13.4551899844689	
199040000	-48.4248859868717	-1.83112643124195	-0.0335441122091922	-36.0393282987828	-0.0547285960178816	-36.0149152623136	-48.7134709368247	11.1649143479444	
199680000	-50.6096329934793	15.4374996899863	-0.0348636306417755	-36.1878758228104	-0.0323469131104409	-36.2323685121489	-52.5313928896807	23.0877467364935	
200320000	-46.4736030860115	-8.06514273550136	-0.0432536912917286	-36.4386206937903	-0.0351768567915225	-36.3071343548675	-45.3690430744349	17.1724765322119	
200960000	-46.3424159978289	19.8920997713422	-0.0402148508478325	-36.4660289543606	-0.0494533440298098	-36.5485636793802	-51.4991255434398	32.2167153187704	
201600000	-49.5526999402798	24.4964288440199	-0.0180426759117386	-36.5513025540988	-0.0331334300475085	-36.604771954566	-47.5779961003673	-8.43770535407895	
202240000	-46.1437092917492	-22.9480123269142	-0.0443199479135776	-36.7306100033831	-0.0326089252551449	-36.6859920361782	-49.3909978599467	24.1862895074593	
202880000	-47.5946956923018	-6.40564956775922	-0.0323443783532391	-36.757445258662	-0.025409347095244	-36.7487741293785	-49.5407813198856	-9.97866890666524	
203520000	-53.7237476616507	-27.2149383042219	-0.0295422599007359	-36.881273074457	-0.0359788736316484	-36.9150240938442	-46.7987101584012	17.8823305879327	
204160000	-47.3532561224802	1.06572043452956	-0.0387200352362765	-37.0503671070396	-0.0359248570686455	-37.0035607964078	-54.6535335536943	3.63654126352518	
204800000	-46.8716489403142	8.3261032218098	-0.0309627708206007	-37.1351135626255	-0.0403674325507445	-37.151326430045	-48.316601234664	13.1295591311569	
205440000	-47.6405179030242	10.6578906873111	-0.0424899200969803	-37.2897465312008	-0.0370396030861411	-37.2552250488096	-45.7197799883536	22.1812933408703	
206080000	-47.3184871095533	-2.75762800129852	-0.0425938558972884	-37.3890756904437	-0.0404485852789564	-37.3433847533108	-52.5419039131392	28.1830929183476	
206720000	-52.1871352937858	33.6498552591562	-0.0235425139700599	-37.514926196256	-0.0240422209409162	-37.4977224128842	-46.3986763880769	21.9336326053694	
207360000	-48.3198390387936	15.8870970127465	-0.0319247294246562	-37.6499195352429	-0.0339394344357525	-37.5753789844864	-53.9714374235058	17.4383236848611	
208000000	-49.0987379332996	-2.0229962208885	-0.0336707383708324	-37.7938245411631	-0.0494410569217631	-37.7511396243815	-49.7796222318796	-2.87702646876291	
208640000	-45.8951994288701	-11.5451797052082	-0.0298293637943534	-37.8410379361809	-0.039484064682067	-37.7639088515218	-48.4351136522842	-6.80208909122086	
209280000	-46.9886564411269	16.3346725031528	-0.043752016719613	-37.9326268641829	-0.0487087109488006	-37.900669883839	-50.4981913382383	-23.3161523123424	
209920000	-51.2851461179362	8.52644498009855	-0.0321653229289099	-38.0577496694329	-0.0414718624790795	-38.0323234040444	-51.0912989727076	6.16325420549032	
210560000	-47.4620438282836	-23.2858312040285	-0.0279263183732594	-38.1966276012439	-0.0277401448401305	-38.2490779551487	-53.1911216779909	-5.17977598658679	
211200000	-48.9670677044787	-11.8661854038829	-0.0384708194952723	-38.255215874932	-0.0362068297531612	-38.2476884943031	-47.2659405840075	-8.7999586891518	
211840000	-46.0791334774193	9.76688760114217	-0.0309629758436313	-38.3945822164264	-0.0334004352446902	-38.4731028296153	-49.0216626142818	5.434218005756	
212480000	-45.9865329906349	-27.0708655679045	-0.0551991372042486	-38.5869033789851	-0.0415999641322783	-38.5150287279304	-49.2491946519536	21.2784188275002	
213120000	-47.5733662779582	-12.3804496888946	-0.0405818629463899	-38.6069852072443	-0.0376462807032538	-38.6629546452443	-47.6184331403072	15.5834162515014	
213760000	-45.9059812572542	-4.13844116382665	-0.0356417029274517	-38.7365870164928	-0.050567085796035	-38.789527756042	-52.6214054098445	8.7076623170914	
214400000	-45.218207540531	5.75693594753541	-0.0378358188208714	-38.8811640771101	-0.037887370102587	-38.7938743937649	-46.9418317618446	34.1934039603885	
215040000	-48.6164657769578	4.0557660053635	-0.0379386315863983	-38.9664885075053	-0.0435115942960226	-38.9872303186264	-47.1430663953099	10.9037754071098	
215680000	-49.3295516812144	-14.1770300488172	-0.0340426980433044	-39.0897076738265	-0.029611132881086	-39.1355121836624	-47.7212354277355	-24.6100437187433	
216320000	-46.0684241131467	13.3542050557984	-0.034392857884724	-39.2948540933283	-0.0433598743350016	-39.191069238804	-45.9783588939026	16.4480834617276	
216960000	-44.9720344051711	-4.81067703862166	-0.0198726823575925	-39.4283745164603	-0.0349888968395219	-39.2952403589497	-47.2723486616713	-1.1342456404679	
217600000	-50.3986568756826	10.2570060071069	-0.0408349960962942	-39.402344769322	-0.0423836674443577	-39.4045092860172	-48.403293785045	12.6040702854869	
218240000	-49.6702398171913	-11.7998342259698	-0.0337484719659756	-39.6016153975225	-0.0342024342506922	-39.6243703078898	-47.3375441919365	33.0978040443372	
218880000	-45.3781748948083	5.97164257508877	-0.0237182672713078	-39.5860703972198	-0.0315953862197468	-39.6774636619298	-48.7112728354397	5.45641169615645	
219520000	-45.0061633067821	-2.5735387350246	-0.0267274124778288	-39.8339834470741	-0.0350073255250714	-39.8072319088849	-48.0289341421086	1.01339949723065	
220160000	-47.9106266042482	20.196787424502	-0.0403142130730091	-39.9417730195933	-0.0346418374051417	-39.9225470338878	-50.2111194600218	-25.8796914045727	
220800000	-51.8155948328491	-29.743010065183	-0.0353471764882019	-40.0445413131803	-0.045259379522084	-40.0856749598943	-47.2780403397297	6.31975043889551	
221440000	-49.0074958274166	-2.25475129641665	-0.0297916850583074	-40.1850592229414	-0.0358210506800465	-40.1328341644255	-46.7067250744022	17.944545273357	
222080000	-48.2539249914152	-13.09187160249	-0.0366173634958863	-40.2292038464729	-0.0262300491456918	-40.2976069193781	-49.8917129235535	19.0461839346131	
222720000	-49.6846380454663	-3.02235425595611	-0.0521707829796095	-40.4232322667076	-0.026846265469099	-40.2879608780253	-47.1665367157072	22.6846939905878	
223360000	-45.4054317676884	-1.63800147645489	-0.0310588237523433	-40.5146229567083	-0.0486547031206377	-40.482619701661	-47.8317123461114	13.5037869769818	
224000000	-47.8073226325533	16.4104964096973	-0.0402947624573973	-40.494731272877	-0.0329796118043039	-40.5673334193127	-47.9852593786669	-14.6385932082906	
224640000	-44.7931876744442	-8.18391893783047	-0.0404822377958988	-40.6918667207509	-0.0340480839001198	-40.6873983492123	-47.1311133216697	29.7595156433213	
225280000	-45.9981021363869	1.01603996533085	-0.029301926364115	-40.8783732393647	-0.0356967290065447	-40.7944036473946	-46.1155512748003	-11.5532052880859	
225920000	-48.996235187956	-4.6776945449642	-0.0332054293127555	-40.9215578864071	-0.0409893273638128	-41.0032849764269	-49.4172060334385	9.93776404248979	
226560000	-47.0103781887983	1.04345965781293	-0.0490795850544367	-41.1557963795432	-0.050488321961725	-41.0599085116976	-47.1993445000312	20.4438608813985	
227200000	-47.7387380957891	-15.8809850084794	-0.0224490647724387	-41.1710899663466	-0.0466216619579647	-41.1294304712452	-48.0701801734202	1.60809165564065	
227840000	-51.8011106604233	20.8109130621772	-0.036490011828402	-41.2606235448218	-0.0421432293957336	-41.3377154682233	-48.9500949679881	23.9568402082595	
228480000	-47.1050948635414	-0.0961655663420305	-0.0427759125628124	-41.4655838152985	-0.0395867182359335	-41.4177214268751	-51.6917466320118	-0.619624016242085	
229120000	-46.1581151536273	-10.2560417692776	-0.0270386358196709	-41.4512840129016	-0.0411878987922705	-41.5520751161439	-51.9037410327981	-5.3066697485293	
229760000	-46.1260836060319	3.43341026055886	-0.0278516596487291	-41.747116902047	-0.0410151200930388	-41.704569804999	-47.0088724811511	-4.50778692752233	
230400000	-50.5354758502018	-8.01794791702304	-0.0368941668899215	-41.733073643911	-0.045309610154147	-41.7025697075588	-46.6324394743363	12.8058603694968	
231040000	-46.6858863623078	8.68125841619733	-0.0328534302580584	-41.8684161850867	-0.042762968138538	-41.8401937579352	-45.7316055797136	26.6991469150274	
231680000	-49.7674344698098	-16.1658244940052	-0.0363463599852595	-42.0211391320922	-0.03980200464788	-42.0360916253486	-52.6979498972902	50.7979548371362	
232320000	-49.5169287330317	0.755684150114876	-0.0269539189169909	-42.1127596960248	-0.0424765518251648	-42.2203715077714	-49.470885719955	-9.65503048795017	
232960000	-44.3340681469452	-19.8752491964552	-0.0388997610917748	-42.3034354135165	-0.046155214984832	-42.3164165190953	-45.4708928754881	-7.26016131252855	
233600000	-49.9502075757371	-26.6221623885999	-0.0305263660434973	-42.3489670211839	-0.0418083556830419	-42.3845933101237	-46.0673390455497	16.2321036905602	
234240000	-45.4681108298017	0.0157886791735214	-0.0473266153588475	-42.5018317168789	-0.056193588925166	-42.4872257502792	-54.6644794868623	8.48994420096486	
234880000	-46.6710240341772	-2.39205643973152	-0.0362097556149472	-42.6502781302387	-0.0434009935150793	-42.5660336313268	-50.7733568271962	5.28937084953015	
235520000	-46.7258005084675	-15.5483442637896	-0.0326484123536075	-42.586970583469	-0.0403917868645093	-42.6249183363669	-49.6418959852498	4.78655340280515	
236160000	-50.4616638000845	-9.17484618950743	-0.030555009008216	-42.7698307233856	-0.0456653045138067	-42.8649771511274	-47.9783622288044	8.03301182278218	
236800000	-48.808295740594	-12.3328193165128	-0.0350086640077373	-42.9812928750873	-0.0378525045861824	-42.8836845453222	-44.5630432531268	22.0326168875915	
237440000	-45.3776671688338	0.907521189463299	-0.0487733915647107	-43.0121279922481	-0.0239825249654442	-43.1159346241095	-48.7400092084822	-6.0030074232862	
238080000	-48.5396742288867	2.87408847672792	-0.0271495485140753	-43.04534133599	-0.0368488315490707	-43.0846837317405	-46.2822688628172	-0.857401497382371	
238720000	-53.2378205492458	13.1924248323433	-0.0302866377100768	-43.2805973396512	-0.0451856460760749	-43.3318565582601	-46.5674777325356	-7.12354175340805	
239360000	-50.0438701475369	8.44295322163662	-0.0463887209827144	-43.3880309406023	-0.0362835164401525	-43.4098134222768	-47.5155677723951	4.18726014115986	
