!Keysight Technologies N9950B: A.12.38
!Date: Thursday, 11 May 2023 14:33:04
!Timezone: (UTC-06:00) Central Time (US & Canada)
!Model: N9950B
!Serial: MY61131330
!GPS Latitude: 
!GPS Longitude: 
!GPS TimeStamp: 0001-01-01 00:00:00Z
!GPS Seconds Since Last Read: 0
!CHECKSUM:1624935736
!Correction: S11(ON U)S21(ON U)S12(ON U)S22(ON U)
!S2P File: Measurements:S11,S21,S12,S22:
# Hz S DB R 50
800000000	-7.01799944621466	-176.590756084041	-1.32202600562618	-80.5983488119413	-1.33688493619289	-80.5654655476144	-6.95731075769164	-170.230665503331	
801700000	-7.04917645448484	-176.61002122875	-1.32307017746621	-80.8052446782294	-1.35450467237739	-80.7284780570977	-6.95297875454833	-170.518999197538	
803400000	-7.04231979354066	-176.704166446599	-1.32964272577063	-80.8046131564818	-1.34130518514112	-80.9797252353588	-6.94940512872317	-170.301260913038	
805100000	-7.04506590408202	-176.975602018849	-1.30830014680233	-81.0444093152014	-1.33671094480581	-81.0659938613629	-6.95433491439117	-170.407100193434	
806800000	-7.06497392709692	-177.094785386579	-1.33092888679272	-81.1241535234886	-1.3348328721312	-81.2479371180393	-6.96143326584686	-170.828126856501	
808500000	-6.99478660135142	-177.335997186466	-1.33445385970995	-81.4037976800488	-1.34333213542846	-81.3492419918146	-6.92095455342792	-170.866595888338	
810200000	-7.01815037637394	-177.354183264646	-1.32287312394248	-81.4727016950064	-1.33554472088801	-81.5819272436095	-6.92936535096237	-170.977137637825	
811900000	-6.99476323108592	-177.698958122329	-1.32215622018889	-81.738006217423	-1.35720018336081	-81.6269731672355	-6.95292504847059	-171.040827716582	
813600000	-7.03919897671936	-177.580176422869	-1.31800653869681	-81.811226011727	-1.33961777081323	-81.7422501481621	-6.92738953918375	-171.310724878966	
815300000	-6.99092297854503	-177.899401636005	-1.32597731525744	-81.9315534399296	-1.34820469273027	-81.9524538634237	-6.9330692727703	-171.397896882469	
817000000	-6.98919415682829	-178.053820487507	-1.32086278510563	-82.0952026748457	-1.37280238865799	-82.0684646647967	-6.93954865884595	-171.608581795301	
818700000	-7.01532175031305	-178.211269645189	-1.33391787529024	-82.2052062701993	-1.3527846032201	-82.2192433297001	-6.97756573656579	-171.562609267927	
820400000	-6.97860593750759	-178.179552742707	-1.33764900153253	-82.327028258295	-1.3625352167411	-82.4641039231089	-6.91944633563375	-171.82268787307	
822100000	-6.96188831102961	-178.285127004667	-1.3308310719761	-82.5428614154822	-1.33984583195534	-82.5440419400559	-6.89901602606511	-172.050660639113	
823800000	-7.00018553670644	-178.698667759318	-1.34547001369674	-82.7826589662153	-1.35132657974685	-82.5826157346518	-6.9207970879668	-172.189745696492	
825500000	-7.00164191606053	-178.535013993395	-1.32413243823876	-82.7877249811758	-1.35307116352529	-82.8090059887445	-6.94191486510605	-172.213216931071	
827200000	-6.98788733369895	-178.713882414766	-1.33222358042038	-83.0190095274137	-1.35093351478479	-83.0105005258179	-6.86769092004968	-172.363341769363	
828900000	-6.99076763087414	-179.153781457642	-1.34760157277515	-83.0665008459208	-1.36703109383076	-83.1432861646775	-6.92646731662105	-172.39888439112	
830600000	-7.00322679705533	-179.131949859772	-1.32867669128903	-83.2543637045525	-1.34731382862185	-83.3333600503079	-6.92184536263502	-172.740723767135	
832300000	-6.97174034223718	-179.430277118322	-1.34039409013702	-83.4067437218954	-1.34770164886383	-83.4105573954521	-6.93086732933337	-172.800909839762	
834000000	-6.97940163213942	-179.611855350468	-1.3372861606502	-83.6399952751662	-1.35708617801191	-83.6371000551314	-6.91269586367835	-173.045221987545	
835700000	-6.98317389077487	-179.613565016373	-1.31651660756154	-83.7878200791266	-1.35384293391744	-83.7615540166722	-6.91665723386074	-172.986049579404	
837400000	-6.96897654854127	-179.803949755986	-1.34292365540732	-83.9175039376782	-1.36060692134941	-83.8901712274181	-6.89150274873189	-173.256819054585	
839100000	-7.0091572775794	-179.920759172673	-1.33451262129847	-83.9735750085691	-1.35989360092658	-83.9965979996246	-6.87556702099792	-173.361023463304	
840800000	-6.99157209589186	179.766546717613	-1.34311223087401	-84.2212722907745	-1.35853564021963	-84.2179823773771	-6.90411187045312	-173.424323159678	
842500000	-6.9739133505045	179.699842200706	-1.3357770507112	-84.3571831310671	-1.35612896175545	-84.3310962750862	-6.88288331721722	-173.62530751777	
844200000	-7.00631676897654	179.682598544247	-1.33888767402209	-84.4247233814701	-1.35661904683858	-84.4388489624752	-6.90786196580412	-173.670358515756	
845900000	-6.95701217072735	179.22809858499	-1.33886492231596	-84.6082126198986	-1.36739632935707	-84.7218700719627	-6.90006900296649	-173.923535080591	
847600000	-6.93464817494554	179.381133516007	-1.33319271357984	-84.7801270928599	-1.36728498504491	-84.7426264620508	-6.87210323964055	-174.006267681172	
849300000	-6.95342139847585	179.047501304987	-1.33460776923448	-84.959396563362	-1.35813022617491	-84.8475916809671	-6.90683701957228	-174.217904325302	
851000000	-7.00203853570307	178.920122002605	-1.34746412990282	-85.067550409374	-1.36251067793677	-85.1777346575521	-6.87833658205706	-174.171993467451	
852700000	-6.97229586790965	178.920596792681	-1.34722938531749	-85.2594577504144	-1.37148284989751	-85.2624928783721	-6.92355265080691	-174.212709704671	
854400000	-6.97000484975619	178.695608258441	-1.34330118624586	-85.3301051453906	-1.37039397266921	-85.4304757479446	-6.88721114924643	-174.890230827889	
856100000	-6.94106067549185	178.753308283937	-1.34596623812531	-85.4964714113184	-1.36531740979555	-85.4957862493052	-6.87661075716513	-174.730653251727	
857800000	-6.95679856129108	178.33045006812	-1.34999794789366	-85.6883435600604	-1.36268635491295	-85.6197627324369	-6.89632905920502	-174.918371407409	
859500000	-6.96114993370679	178.04810659773	-1.36128171510902	-85.785391071811	-1.38142288765135	-85.8218796608335	-6.85912546596671	-175.257856124386	
861200000	-6.90888469997254	178.291215341222	-1.337347544075	-86.0017452950137	-1.35390547586447	-85.9561985569727	-6.86096877892944	-174.919409163311	
862900000	-6.94824976278528	177.998928676444	-1.34567250485265	-86.0265254315333	-1.37558389135935	-86.1189110126664	-6.87855695379637	-175.354125374303	
864600000	-6.94280403649888	177.732187707817	-1.35304444048117	-86.3038354477155	-1.35602075613144	-86.2556226385386	-6.88655050953135	-175.263144205772	
866300000	-6.9405806271591	177.554978095102	-1.35325980894477	-86.3619763308978	-1.36433790677775	-86.4321947097582	-6.89515996727283	-175.555776373786	
868000000	-6.94849979409374	177.632729636057	-1.35271054652462	-86.5696129096726	-1.38143121484636	-86.5917746693884	-6.86442771616016	-175.477468355573	
869700000	-6.94225934805854	177.440101057075	-1.34577940655132	-86.6483314880846	-1.37519028679646	-86.6458354647705	-6.85625750738853	-175.788684675817	
871400000	-6.92185810804949	177.308093604034	-1.3482440799733	-86.836240616761	-1.37463215107296	-86.7725647202576	-6.86823649789952	-175.671116579792	
873100000	-6.94938257244925	177.183756285094	-1.34705069406715	-87.0059312638424	-1.36505674252098	-87.0279647737488	-6.86495889478713	-176.046696422008	
874800000	-6.95914071389478	177.055547178378	-1.35648684711488	-87.110903678028	-1.37176797306341	-87.1154489105964	-6.84605172731778	-176.051874013849	
876500000	-6.97177156374459	176.831097853855	-1.3369478288635	-87.304224931596	-1.36068508983573	-87.3291558048074	-6.86672997621638	-176.3724483209	
878200000	-6.93406468864953	176.560923853258	-1.35394970440714	-87.4694149573341	-1.3677922109183	-87.4977055599605	-6.85407488542212	-176.675125933246	
879900000	-6.93610405990523	176.508428360099	-1.34094664995792	-87.6842789485894	-1.35633840503556	-87.5717218637016	-6.88179260170562	-176.500654529741	
881600000	-6.96528654730985	176.30019017548	-1.34909703998503	-87.7838943844548	-1.37800953417557	-87.7849159582369	-6.88241173434921	-176.442766621509	
883300000	-6.92814687663625	176.113422848502	-1.36695137247578	-87.9741560853202	-1.36745848525826	-87.8185970586139	-6.87675372740095	-176.912342500685	
885000000	-6.95571020707851	175.986729840994	-1.34905980752227	-88.0604645698296	-1.36258129538254	-88.0708530021476	-6.87180656604217	-176.929739212878	
886700000	-6.95810452858106	175.954056171507	-1.3467816406922	-88.0587198093631	-1.3839692573663	-88.2551689395807	-6.92281996596231	-177.007424253932	
888400000	-6.9527472168768	175.586278161456	-1.35648665967035	-88.480949833154	-1.36617333080869	-88.2872853094097	-6.88754718293978	-177.456348564036	
890100000	-6.92596953616803	175.496896952036	-1.3499196353221	-88.5464500367168	-1.36866284481294	-88.5059268421594	-6.90379809671425	-177.259227164208	
891800000	-6.93917435224945	175.396207303435	-1.34869130198573	-88.6627805649833	-1.36754841645477	-88.6719138630516	-6.90510763229813	-177.62297048934	
893500000	-6.96220950893016	175.335633968038	-1.3541281757731	-88.8889068515782	-1.36940791601278	-88.8746973818475	-6.8649786871799	-177.643096201096	
895200000	-6.94516208463275	175.259968212404	-1.34251209805213	-88.9673756373546	-1.36919483077105	-89.0064046875823	-6.86517637707491	-177.840025601555	
896900000	-6.94854058552488	174.868680761904	-1.35497953982181	-89.1602574281454	-1.38336119976804	-89.1513510322314	-6.91701907505764	-177.966526722395	
898600000	-6.95715383602105	174.716216870884	-1.35544771971101	-89.3270400342165	-1.36323008006262	-89.2425557624163	-6.86911943917951	-178.068073719517	
900300000	-6.97897981722874	174.542116512218	-1.35114924928699	-89.5136006032081	-1.36600847958316	-89.3702583046455	-6.94709239035407	-178.117717616566	
902000000	-6.97413050493717	174.648048695367	-1.35785008563693	-89.5617978344936	-1.38171030287096	-89.5909317565242	-6.90761978845894	-178.261186151316	
903700000	-6.963491109446	174.565260594002	-1.34526310473055	-89.8658785987365	-1.36782939765331	-89.6493931800204	-6.86813298060598	-178.123881394118	
905400000	-6.91745782154721	174.184368627297	-1.36351870872956	-89.8437280616226	-1.38263511390357	-89.8131763804708	-6.8682162685585	-178.656527690282	
907100000	-6.95515607586365	173.94801537665	-1.35743108250187	-90.0756304539984	-1.36807230044195	-89.9404948125573	-6.85875269197504	-178.753347428233	
908800000	-6.94423357467967	173.915302483417	-1.34789662024215	-90.1862888309464	-1.35599876368707	-90.154140389975	-6.85864513370358	-178.974478283819	
910500000	-6.9525840406691	173.772440346376	-1.3498452459935	-90.2387997582485	-1.37401235884616	-90.3277548541922	-6.9019432239255	-178.985631829511	
912200000	-6.97478177016989	173.767407483223	-1.35884737741687	-90.4709459997292	-1.37770770968241	-90.5161443572754	-6.8736713970678	-179.200565589386	
913900000	-6.96820344463048	173.598566319465	-1.34394193537492	-90.7233923800798	-1.36237677652854	-90.6818225124644	-6.88174897791566	-179.148047818668	
915600000	-6.97375098046071	173.251482340195	-1.35616443247065	-90.8228294369235	-1.37577303584564	-90.6708431216719	-6.84421183009895	-179.347635456693	
917300000	-6.98463926663591	172.961507264544	-1.35912259076584	-90.9255080780657	-1.37001013144336	-90.9728250689551	-6.8979213140295	-179.446462423088	
919000000	-7.00236137412237	173.018579543438	-1.35472185901062	-91.0466976195085	-1.38488653366124	-91.0879363161835	-6.92420586699835	-179.417832599103	
920700000	-6.9928362159134	172.918551151774	-1.3421406930135	-91.1891105248556	-1.36507260737695	-91.2193648650803	-6.90355370753503	-179.668512154567	
922400000	-6.97683856869475	172.790549993579	-1.35671808124407	-91.2847430933702	-1.37608691487502	-91.4144001562172	-6.91121535433897	179.988701238933	
924100000	-6.96927558031374	172.618672459292	-1.34422624777134	-91.5088190647725	-1.37830287466329	-91.4296676512742	-6.87373961126486	179.759777094779	
925800000	-6.96768082864752	172.491151154667	-1.34841683654181	-91.7069200167089	-1.36881419166154	-91.6668664969397	-6.88617655715279	179.908388276367	
927500000	-6.99287914555898	172.224971818633	-1.36561818212782	-91.8317915281964	-1.36112549480955	-91.6604823851176	-6.89398629407335	179.558378785288	
929200000	-7.00255443362784	172.094701639076	-1.35867499731394	-92.0101649842364	-1.38784550790673	-91.9149759753303	-6.88873960937363	179.35887672261	
930900000	-7.01116075567539	171.797579375376	-1.37164849571849	-92.1038642313189	-1.3751616095355	-91.914576429992	-6.89310996862586	179.375712429258	
932600000	-6.99999776339101	171.923960992391	-1.35972135955215	-92.2563620886422	-1.3825947663966	-92.1840409554006	-6.90157778163629	179.427213259913	
934300000	-6.97772641612907	171.73549458302	-1.35221645678082	-92.3104792611913	-1.36910591843785	-92.3825093382	-6.91025476661966	179.05513348892	
936000000	-6.9988534629472	171.50507148105	-1.35506784341154	-92.5176680797982	-1.37458860122763	-92.5722060442485	-6.92576606898742	178.950193903836	
937700000	-6.99752521584394	171.240712183228	-1.34783662402204	-92.7495805979104	-1.37865291022136	-92.7084086030797	-6.89005707115852	178.962168782738	
939400000	-7.00873530106818	171.280596751389	-1.35502507255055	-92.8150125014158	-1.37059825172959	-92.8156688635806	-6.92390302192758	178.632942297161	
941100000	-6.99580665898105	171.19714866506	-1.35263926925672	-93.0388299988716	-1.37565108809988	-93.0125050687708	-6.88305113928228	178.544227540735	
942800000	-7.02162361433504	170.797280960574	-1.35809605356964	-93.2546728230586	-1.37780026176463	-93.1550234314633	-6.92127314208131	178.485639136046	
944500000	-6.98656926504976	170.996537537577	-1.36662529029601	-93.3624020661056	-1.37671567843066	-93.2627967986971	-6.92259230701962	178.226674796994	
946200000	-7.00214145500424	170.684908426951	-1.35767098165707	-93.4489604414792	-1.37326242343292	-93.4316168776113	-6.90763699998076	178.539703918419	
947900000	-7.03190207423458	170.511751669843	-1.35761076352432	-93.6633393005524	-1.37315135794165	-93.5461510147504	-6.90444897696911	177.944650582022	
949600000	-7.02728235990244	170.242377105672	-1.37296412376679	-93.695755555714	-1.36900415244114	-93.7240456253237	-6.89318231192178	177.68578009962	
951300000	-7.04050819012546	170.032503446017	-1.35474698066638	-93.7670962581021	-1.37495560781959	-93.9315660210593	-6.93210460675617	177.681837190552	
953000000	-7.01766899889444	170.055933418669	-1.36221007755362	-94.0631960820705	-1.36752824955682	-94.1125305624158	-6.93220385032999	177.533227499294	
954700000	-6.98190235392268	169.827322352862	-1.34401214901375	-94.1265296684001	-1.36399949457499	-94.0974501380327	-6.92501710857294	177.712471912968	
956400000	-7.01695144706732	169.723282504491	-1.35442157994552	-94.4361900781605	-1.3633195681884	-94.323722145394	-6.94774386773027	177.264886138155	
958100000	-7.02729662000383	169.478918858568	-1.35630643161401	-94.5504103851493	-1.38660599591485	-94.5788055225455	-6.93208538621056	177.189602860863	
959800000	-7.03653081782614	169.332193050143	-1.36207236271166	-94.6224879984062	-1.36528395548367	-94.6013140972827	-6.91005763482215	177.21439643296	
961500000	-7.02502285239912	169.359197469559	-1.36264223961654	-94.8014032351844	-1.38102310397598	-94.6956975285399	-6.91778527637086	177.016303274347	
963200000	-7.03693113516238	169.111302618126	-1.36973212454985	-94.9560845876201	-1.37232066664997	-94.9042487311597	-6.92808203976415	176.700368610023	
964900000	-7.03045574732112	168.786675560226	-1.36592850989053	-95.0419972974679	-1.36812776119326	-95.0682477856552	-6.951067116988	176.566390108503	
966600000	-7.05070529855453	168.945263145653	-1.35532495308477	-95.3147644586387	-1.37933825216015	-95.251015905637	-6.93552295405765	176.632398100054	
968300000	-7.04474194096053	168.782168184474	-1.34239328286913	-95.39157192012	-1.37257257355864	-95.3629921288331	-6.95993312720683	176.480163247884	
970000000	-7.07520138615322	168.659237385092	-1.34384500272604	-95.6111532175648	-1.37207969449391	-95.5511298878436	-6.95978095574185	176.366174588095	
971700000	-7.04671754530158	168.269042967589	-1.35421555457478	-95.6878245229256	-1.37632518327565	-95.7602799909219	-6.95732803768747	176.027927983407	
973400000	-7.0543265569698	168.151921720752	-1.3527827506154	-95.8189361935767	-1.37793784873194	-95.7250338748512	-6.96235106170761	175.901232595589	
975100000	-7.06307258837886	167.943618017978	-1.34946283736014	-96.0133981351907	-1.36841101658984	-95.8894305946194	-6.94659311831351	176.00216633399	
976800000	-7.04438466634025	167.975818902265	-1.33686759632458	-96.1204706456954	-1.36968159499337	-96.0998890468955	-6.9635967519281	175.956284229322	
978500000	-7.07051809773778	167.788306897262	-1.34819276156285	-96.2683690182822	-1.36181592641608	-96.2759939853931	-6.97674310919955	175.800947478033	
980200000	-7.06636960635958	167.626091632907	-1.34840769185934	-96.4451365166259	-1.355491420509	-96.3704817250023	-6.9519096670869	175.485379397537	
981900000	-7.07007107618142	167.40243609155	-1.35662623552391	-96.4510973881902	-1.36685152847142	-96.5692433721504	-6.97420552187926	175.116402638886	
983600000	-7.03508676076159	167.393069210888	-1.33859815367806	-96.7500216311849	-1.34956983807175	-96.6426862676846	-6.95837685814265	175.002652009148	
985300000	-7.04519382601	167.292339617595	-1.34881423472713	-96.9245493932315	-1.34775583444952	-96.8875762706967	-6.97232233592896	175.074672932439	
987000000	-7.08979595587034	166.908655891509	-1.33924134219765	-96.9648189892755	-1.36673570603791	-97.0939909679585	-7.01480790265078	174.824257535322	
988700000	-7.08481429814916	167.046601090165	-1.35180721300695	-97.051834745372	-1.36857249134182	-97.0992447242457	-7.03218185652748	174.87231214008	
990400000	-7.07846656156775	166.727205237581	-1.32690623293215	-97.3010250915806	-1.35477551991342	-97.3232568259153	-6.98957542191845	174.747005178481	
992100000	-7.05645771861837	166.389516769675	-1.34209064347285	-97.5722805610173	-1.36411531506084	-97.4196218248412	-6.9630299489817	174.300102123753	
993800000	-7.10031691873589	166.474141097865	-1.33648733016166	-97.6133767033579	-1.35736987489915	-97.6830127222163	-7.00002358678734	174.481530209082	
995500000	-7.09776150303929	166.193304137338	-1.33526560507977	-97.8570923516376	-1.35586813073554	-97.7158146269144	-6.9627760926118	174.064338721312	
997200000	-7.10423483188443	165.989184271661	-1.34798676316622	-97.9138663662933	-1.34627715753158	-97.8818849055092	-6.98704679568686	174.184887295565	
998900000	-7.07979131661595	166.109449379793	-1.33027494290532	-98.1043705119754	-1.36126844068674	-97.9849609293057	-6.99293428988117	174.192664772815	
1000600000	-7.10789835317919	165.822502038267	-1.32815477236271	-98.3336613188162	-1.35636544243358	-98.239148849909	-6.99810118888491	174.013071126039	
1002300000	-7.11122057855143	165.700903058513	-1.33253754498409	-98.3473899201969	-1.35206048134074	-98.3578170329651	-6.97447851176222	173.39922871169	
1004000000	-7.11666114909705	165.518241832395	-1.33081613956518	-98.5867536537788	-1.35637458835431	-98.5003465413881	-7.04483459706323	173.585397705401	
1005700000	-7.09417402617192	165.382036123331	-1.33234753886423	-98.6828471690823	-1.35908160560024	-98.6715560653348	-7.03404198236292	173.40261113501	
1007400000	-7.11405673000757	165.246761762097	-1.33823757641244	-98.894540745047	-1.33880558515533	-98.8621568369455	-7.04779103079546	173.380554444837	
1009100000	-7.13190785435083	165.102446292221	-1.3416117902798	-98.9458649122932	-1.37399078761518	-98.976355040715	-7.0120734268536	173.234346618578	
1010800000	-7.16005266394453	164.855274020657	-1.33846238660759	-99.1442390812762	-1.35375203520463	-99.1604785162436	-7.06476656898587	173.044852908787	
1012500000	-7.12400405728485	164.959215504979	-1.33368603284947	-99.2609091227645	-1.3528344273796	-99.2084755526518	-7.05212045789505	173.037162961895	
1014200000	-7.12843462678439	164.672136078207	-1.32643570892268	-99.4309411918412	-1.35106788584965	-99.3919928628384	-7.05631038295278	172.589168529934	
1015900000	-7.15520204720695	164.47015063948	-1.33666258016451	-99.6782366665033	-1.34073542876886	-99.6961954911547	-7.03780575817901	172.53435289359	
