!Keysight Technologies N9950B: A.12.38
!Date: Wednesday, 26 April 2023 19:44:13
!Timezone: (UTC-06:00) Central Time (US & Canada)
!Model: N9950B
!Serial: MY61131330
!GPS Latitude: 
!GPS Longitude: 
!GPS TimeStamp: 0001-01-01 00:00:00Z
!GPS Seconds Since Last Read: 0
!CHECKSUM:1334335433
!Correction: S11(ON U)S21(ON U)S12(ON U)S22(ON U)
!S2P File: Measurements:S11,S21,S12,S22:
# Hz S DB R 50
800000000	-8.73440033363612	-164.561932966959	-0.667451783568376	-73.2760920069675	-0.67603209294698	-73.1646693751053	-8.72177232456851	-162.168418125612	
801700000	-8.72862934195262	-164.541629113804	-0.667416491763582	-73.3936261207246	-0.676591871493752	-73.3085429599057	-8.71866455581807	-162.083674228421	
803400000	-8.72728739712297	-164.73555534865	-0.668912543646648	-73.4937993953507	-0.676037089160786	-73.4829614360506	-8.7160116174776	-162.295425503936	
805100000	-8.71945794113373	-164.8818983277	-0.669936667089875	-73.6414351444582	-0.676771111406861	-73.6243785906145	-8.7104164160606	-162.441185879024	
806800000	-8.71098628240197	-165.04045829514	-0.671590492742504	-73.7766205737149	-0.677388962955273	-73.7559113118007	-8.70551274874332	-162.617824831261	
808500000	-8.70422624256035	-165.211192561131	-0.672927546710332	-73.9186181619713	-0.677562718718568	-73.8952442850863	-8.69962882099743	-162.763501344528	
810200000	-8.6972493818737	-165.388388445491	-0.674257614935845	-74.0500833331753	-0.679097682629385	-74.0441797378922	-8.6944734277221	-162.925980075358	
811900000	-8.69054044462637	-165.554970457473	-0.675521997207206	-74.178137684007	-0.680124893067407	-74.1905011132573	-8.68842295866461	-163.079081915832	
813600000	-8.68334362996053	-165.707825449024	-0.677064833925977	-74.3117249401516	-0.680747582039094	-74.3387942092239	-8.68398344057662	-163.191351980362	
815300000	-8.67484625246781	-165.865689933211	-0.677943542132698	-74.4510194563632	-0.682368466109232	-74.486168993892	-8.67575002881663	-163.355983615975	
817000000	-8.67009588371562	-166.034256645647	-0.679379302365194	-74.5825022225908	-0.683002852471713	-74.6332928611714	-8.66841770546221	-163.493748082727	
818700000	-8.66339067199081	-166.167381926762	-0.679592054853932	-74.7197566450475	-0.683188334801402	-74.7723357669827	-8.66217022232881	-163.614099427649	
820400000	-8.65716813262377	-166.309668993908	-0.680162088484517	-74.8634607786219	-0.684108588125567	-74.9119018307886	-8.65507097827783	-163.756908732991	
822100000	-8.64674886964058	-166.450154318684	-0.680749028154313	-74.9941884863143	-0.684877307785436	-75.0504286966341	-8.64771769450504	-163.897696391093	
823800000	-8.64148732173546	-166.595844220743	-0.680614536955243	-75.1365494823524	-0.685855301231897	-75.1880533642149	-8.64345125835031	-164.040189962794	
825500000	-8.63470108845207	-166.759739106913	-0.681711407556654	-75.2801765191885	-0.686750215038881	-75.3325849020461	-8.6352355533319	-164.169460861331	
827200000	-8.6272558205091	-166.893635194959	-0.683204405401762	-75.4244844944857	-0.687845203381384	-75.4814637443726	-8.62584388334156	-164.291547857032	
828900000	-8.61771802267171	-167.034359414913	-0.682805804393846	-75.5597221118379	-0.690530610425083	-75.624382940896	-8.6192218511976	-164.43476554668	
830600000	-8.6133798470946	-167.149422227319	-0.683607479688993	-75.7033816892394	-0.691207722884833	-75.7664779487865	-8.61687215120103	-164.557053591598	
832300000	-8.61015924105847	-167.29100692226	-0.683297778095541	-75.8474378181423	-0.692676458813158	-75.906740268709	-8.6098530972094	-164.667967007417	
834000000	-8.60397626869547	-167.433530210528	-0.682467762660174	-75.9934230427278	-0.694222994702518	-76.0430177085439	-8.60056329255055	-164.793218894712	
835700000	-8.59782601447032	-167.559805103492	-0.68382184653469	-76.143405669357	-0.694766708569901	-76.1814323036876	-8.59575371474601	-164.939102113771	
837400000	-8.59104381991625	-167.696890996434	-0.684724442874128	-76.2873725322055	-0.694531778462725	-76.3197142157289	-8.59252105487223	-165.070106348596	
839100000	-8.58545470915777	-167.819997079679	-0.68525679019105	-76.426560898795	-0.695799372838543	-76.4564627462429	-8.58620466776311	-165.217581121426	
840800000	-8.58409516144107	-167.966595556074	-0.685985959626028	-76.5621938693752	-0.695621915590637	-76.5953126072192	-8.5798530250078	-165.353471345185	
842500000	-8.57768309366962	-168.099810211219	-0.687154956032942	-76.713197612929	-0.69675483114581	-76.7329262447965	-8.57209082013708	-165.50740529416	
844200000	-8.5733452048078	-168.25712395573	-0.687053232947819	-76.8662961752828	-0.69860493987121	-76.8706039074165	-8.56890292755554	-165.666872524349	
845900000	-8.56778691193382	-168.431223705105	-0.688617846582376	-77.0117676611319	-0.699549688880651	-77.0101961308224	-8.56036422871469	-165.808023831354	
847600000	-8.56679170554188	-168.584781999567	-0.689774075542877	-77.1592365354153	-0.700751302471889	-77.1502827839806	-8.5586341157972	-165.941659705069	
849300000	-8.56154274499461	-168.725198320664	-0.691087721246161	-77.297047539004	-0.701022669718587	-77.2963273567164	-8.54985252358447	-166.070058679257	
851000000	-8.55601128222333	-168.843843843371	-0.691018522408356	-77.4313855123134	-0.701346892393758	-77.439151195426	-8.54160205856604	-166.209318355001	
852700000	-8.5515208054143	-169.002507562205	-0.691715148344161	-77.5713858932051	-0.701552486158646	-77.5766866032728	-8.53576306822767	-166.35135983182	
854400000	-8.54787119052379	-169.141413389511	-0.692613228286288	-77.7115748940399	-0.701420539437842	-77.7192557687541	-8.53349197902959	-166.497792145421	
856100000	-8.5450620620123	-169.29355745545	-0.692903052011195	-77.8504994158308	-0.701836418631629	-77.865977321625	-8.52592133216797	-166.633731422209	
857800000	-8.5412786929244	-169.422643736946	-0.694602549339381	-77.98690904818	-0.702304387573277	-77.9963196047919	-8.52214591282106	-166.797522173815	
859500000	-8.53614616809105	-169.560261735751	-0.696905634809958	-78.1369603968401	-0.702143351153043	-78.1391364331092	-8.52233437725791	-166.926665585023	
861200000	-8.5313681709649	-169.708284659132	-0.696616451115214	-78.2765028197163	-0.702615489575649	-78.2888031170142	-8.515778337954	-167.040286419469	
862900000	-8.52818303837664	-169.851653280023	-0.697390312236484	-78.4236104475002	-0.703927126591221	-78.4320798100249	-8.50776364435256	-167.174285492538	
864600000	-8.52493295324016	-170.02291172042	-0.69796756821823	-78.5731989035707	-0.70455255310975	-78.5719903660786	-8.50121720262378	-167.325390858682	
866300000	-8.5197496268157	-170.172489300009	-0.699738784243229	-78.7163596111436	-0.70449875105931	-78.7125739871865	-8.49970324083328	-167.454602484718	
868000000	-8.51619540117238	-170.310299228842	-0.700118840864197	-78.8532460003918	-0.704417795519515	-78.855531462256	-8.49489600441732	-167.55904591702	
869700000	-8.51208824202405	-170.445504826612	-0.701013115837668	-78.9991838407052	-0.704993885716886	-78.996126923972	-8.48876764052414	-167.670626518782	
871400000	-8.50858219542989	-170.545137162182	-0.701290978611034	-79.1398139704825	-0.704697432750181	-79.1390136831733	-8.4841362190821	-167.782779620296	
873100000	-8.50177215779103	-170.690657182361	-0.701745596648659	-79.2792487299697	-0.705138715174079	-79.2871522583498	-8.47542653577525	-167.928907400832	
874800000	-8.50002418707643	-170.831509785281	-0.703162814503126	-79.425668804724	-0.705677611856779	-79.4267214496464	-8.47125447434058	-168.052083057656	
876500000	-8.49794605146876	-170.986342905678	-0.704098313297131	-79.5702497377684	-0.706152814917251	-79.5690096741925	-8.46917778023916	-168.188473459525	
878200000	-8.49789747918414	-171.090150556303	-0.704748370811712	-79.7112720608438	-0.70632189656274	-79.7163278189423	-8.46813960360348	-168.324495076057	
879900000	-8.49230074383407	-171.235834006871	-0.70554200795616	-79.8539802929171	-0.70743868978816	-79.8539175272058	-8.4597069472982	-168.440049886328	
881600000	-8.48969454483876	-171.375335428122	-0.706611403932424	-79.9981520565566	-0.708498804095143	-79.9945172515866	-8.45684189184433	-168.578418125131	
883300000	-8.48549059412546	-171.5030742716	-0.706381850885759	-80.1438269759253	-0.708299160744283	-80.1446544449984	-8.45095134918627	-168.714298269371	
885000000	-8.48508395886516	-171.63852893331	-0.707026970956307	-80.2784714992287	-0.709104978539064	-80.285693511009	-8.44495852318726	-168.83670731443	
886700000	-8.4817295873112	-171.767143679312	-0.708371324895718	-80.4250163672152	-0.709757915790228	-80.421227440602	-8.44254439225409	-168.967282067518	
888400000	-8.47836094482533	-171.913119997511	-0.708841266352761	-80.5637415883313	-0.710160856220588	-80.5620274168422	-8.43828196887855	-169.088572855043	
890100000	-8.47241530861898	-172.030341319062	-0.710353892982658	-80.7004464845936	-0.710831071823962	-80.7079068573117	-8.43290171857508	-169.19543341796	
891800000	-8.46998742352175	-172.172769362542	-0.710815625981366	-80.8443800114458	-0.712568906402087	-80.8442492274977	-8.4289211033598	-169.335306446144	
893500000	-8.46778958618513	-172.306939899513	-0.711425225682142	-80.9936203886747	-0.713562671329596	-80.9891606445605	-8.42819796788651	-169.484071272437	
895200000	-8.46515273919048	-172.457429562864	-0.713110488832853	-81.1199117951533	-0.714001968721897	-81.1366676216219	-8.42322736681557	-169.625889477789	
896900000	-8.46337508216002	-172.611340326922	-0.714643658798591	-81.264713374045	-0.715852636482874	-81.278916800653	-8.42209092352518	-169.777124332961	
898600000	-8.45870554562781	-172.740080129956	-0.716536786698336	-81.4073093844506	-0.716946445033144	-81.4189586925441	-8.42010263178481	-169.903345972281	
900300000	-8.45343066260093	-172.875697582232	-0.716655111034716	-81.5418541950185	-0.718092959098895	-81.5664911895519	-8.41745414387994	-170.052882286152	
902000000	-8.44872144594295	-172.99953810859	-0.717430605410807	-81.6867971933661	-0.718579357079641	-81.7095401464393	-8.41705725586798	-170.176213187956	
903700000	-8.44222938758663	-173.156861125366	-0.717376149523987	-81.8337855909929	-0.720624860246081	-81.8480517235274	-8.41527949069633	-170.287852922981	
905400000	-8.43878288753747	-173.310184263596	-0.718894489841315	-81.9792733966913	-0.721182176648099	-81.9858316603269	-8.41492390600973	-170.457956226826	
907100000	-8.43336769342203	-173.454232033135	-0.71961035250551	-82.1292811458458	-0.721284461272662	-82.1322926651341	-8.41064594462307	-170.598536239662	
908800000	-8.42919906913225	-173.587993565494	-0.720789705808508	-82.2698528351678	-0.723385411098529	-82.2762698114227	-8.40653526372295	-170.722948465195	
910500000	-8.42236344292988	-173.719376181021	-0.720232450317264	-82.4121759208697	-0.724098747393567	-82.4271499756453	-8.40300256546457	-170.876061763023	
912200000	-8.41543918696343	-173.872879430173	-0.720879472040051	-82.5522617092523	-0.724339239689124	-82.5636610808095	-8.39812794428563	-171.005649595877	
913900000	-8.41229174065704	-173.994077076422	-0.721508773106033	-82.6940823939988	-0.725010886200831	-82.698640810331	-8.39612732237229	-171.172240322421	
915600000	-8.40883326484577	-174.138200920082	-0.721715231355531	-82.8366232311684	-0.725865303689693	-82.8406745461482	-8.39463936079453	-171.356247648179	
917300000	-8.4021915040535	-174.27139803573	-0.722828133226438	-82.9739088750472	-0.726315869546975	-82.9939002337018	-8.39128198020975	-171.503688361996	
919000000	-8.39214216762342	-174.418488004574	-0.723310111087424	-83.1114944522998	-0.727779971140414	-83.1342738173489	-8.38576631035187	-171.658574438228	
920700000	-8.38748698301407	-174.547850509034	-0.724553795710553	-83.2559523909868	-0.728942050187097	-83.273076090767	-8.38475812472553	-171.782765616293	
922400000	-8.3840890222867	-174.679235367232	-0.725383790165229	-83.398814860141	-0.730266479287116	-83.412344890079	-8.38416808921098	-171.916285045693	
924100000	-8.38450865577888	-174.829990664709	-0.724411974093517	-83.5439412993301	-0.731597864495509	-83.5535872654886	-8.38422522834594	-172.073912752607	
925800000	-8.38187265411839	-174.970889973169	-0.724508437423782	-83.6894814622804	-0.732863364459024	-83.6903344564674	-8.38286090516801	-172.2146210167	
927500000	-8.37911000741278	-175.123046370168	-0.725868298708685	-83.8324651399785	-0.734336223859756	-83.8330476253167	-8.37780825593654	-172.363146449649	
929200000	-8.37698583279798	-175.291656342969	-0.727413037551749	-83.9729574875874	-0.73532405345074	-83.9773464581609	-8.37367565270321	-172.535722733335	
930900000	-8.37308778139383	-175.429195972395	-0.729434268047691	-84.1117185398649	-0.73674502483473	-84.1192849478278	-8.36724551068469	-172.656699807049	
932600000	-8.367256509992	-175.569090656205	-0.730745399867595	-84.2448267345709	-0.737677465817439	-84.2575276997626	-8.36622679710964	-172.796902833677	
934300000	-8.36367221864917	-175.738557540063	-0.731466231726751	-84.3863692115408	-0.738313227788846	-84.3939339585919	-8.36543850233995	-172.955671462762	
936000000	-8.36258809000348	-175.894682226876	-0.733917031099632	-84.5298785693641	-0.740089280619034	-84.5327165708324	-8.36281895066447	-173.117481845397	
937700000	-8.36237786989781	-176.037087078312	-0.734637383441013	-84.6736581995846	-0.741651369883331	-84.6789685429596	-8.35974430929129	-173.279626837818	
939400000	-8.35501567829585	-176.192769511693	-0.736072058575506	-84.8193867788696	-0.74432733729949	-84.8282040282576	-8.35516710043141	-173.419459351932	
941100000	-8.35206782834107	-176.330045505243	-0.7372652078515	-84.9538778595784	-0.745330287020392	-84.9628681357882	-8.3525060899405	-173.554397574245	
942800000	-8.34955665093253	-176.496106894396	-0.737134222032376	-85.0996391646036	-0.745850454378225	-85.0955086566636	-8.34818892287198	-173.693007731304	
944500000	-8.34762328544686	-176.636283221993	-0.738042388035147	-85.2383445539455	-0.745958830081522	-85.2371292548595	-8.34595328358445	-173.824992578962	
946200000	-8.3461423572772	-176.801581127648	-0.737442928551128	-85.3783399976251	-0.746931897690695	-85.3747761040184	-8.3426003857167	-173.975559809199	
947900000	-8.34317731544403	-176.957721604431	-0.737084579371093	-85.5188266321992	-0.746935857059455	-85.5190922392484	-8.33720389842124	-174.127743827009	
949600000	-8.33789782427142	-177.118304520027	-0.739303072100204	-85.6628704100651	-0.746510198622219	-85.66490017807	-8.33218463072282	-174.283154300764	
951300000	-8.33645142322146	-177.255302076798	-0.74024137331131	-85.8056788417482	-0.746196125300164	-85.8046401643784	-8.32953417713242	-174.411697383301	
953000000	-8.3329575048047	-177.420380690148	-0.740322226236297	-85.939931773115	-0.746649039108042	-85.9449713757641	-8.324661716377	-174.567721043029	
954700000	-8.32901836604758	-177.529908379507	-0.740829519111297	-86.0768294236302	-0.745724424500429	-86.0839805259576	-8.3190347768641	-174.690574587378	
956400000	-8.32550079060287	-177.664148502806	-0.73936130092381	-86.2198068695716	-0.745113612066325	-86.2263365158702	-8.31724442100114	-174.848816564036	
958100000	-8.32291527278158	-177.82012058522	-0.739544658890489	-86.3665594969474	-0.745772298639696	-86.3665862258543	-8.31113302932013	-174.993099691714	
959800000	-8.32168042026749	-177.953785807337	-0.739214021662782	-86.5048451476771	-0.746173509178691	-86.5120888483457	-8.30852126225345	-175.119178307627	
961500000	-8.3188540069484	-178.109101070822	-0.738623492301354	-86.6480876680039	-0.746204768068903	-86.6473937463576	-8.30763409724343	-175.249910333322	
963200000	-8.31694408874536	-178.250090224844	-0.739301566731649	-86.7751059136424	-0.745895363861621	-86.7880702317141	-8.30594270588105	-175.389358858662	
964900000	-8.3184116146661	-178.408154902625	-0.739362182012322	-86.9126173046352	-0.744970511914501	-86.9296043692314	-8.30350845588971	-175.528901530771	
966600000	-8.31663996840323	-178.553559971875	-0.738233819889299	-87.0603430872781	-0.744070865018933	-87.067914573763	-8.30260423715748	-175.674211385393	
968300000	-8.31742820900509	-178.689344276957	-0.738928980326081	-87.1961938795719	-0.745664883957669	-87.2094778857454	-8.29991127897122	-175.806682589834	
970000000	-8.31587047603379	-178.844746927313	-0.739466942120799	-87.3373902205544	-0.74575170983662	-87.3446550410429	-8.29939011637695	-175.962105512129	
971700000	-8.31365970162366	-178.983596401158	-0.739023201720048	-87.4766922308825	-0.745838559540541	-87.4889456901985	-8.29677111652419	-176.131410627411	
973400000	-8.30984595568074	-179.116279817195	-0.739325320481119	-87.6116528412622	-0.745951169089976	-87.6259908799856	-8.29418537380059	-176.245095846425	
975100000	-8.30907024307399	-179.236363907735	-0.73803590413717	-87.7523494658791	-0.747470264449224	-87.7609963715584	-8.28985392002326	-176.366409227415	
976800000	-8.30569673328721	-179.419441713798	-0.737720498740431	-87.8893022516425	-0.748238265708371	-87.9043957679637	-8.28855849412348	-176.511947018348	
978500000	-8.3029977440616	-179.573650341373	-0.738189215045276	-88.0368779341504	-0.747851451094455	-88.0337255536314	-8.28825715685444	-176.644554116559	
980200000	-8.30159170633801	-179.743728983471	-0.73898687639989	-88.1807823128318	-0.748058674694869	-88.1699926341292	-8.28832551068995	-176.789157801597	
981900000	-8.3011327120823	-179.932966430495	-0.739499257862751	-88.3249913601108	-0.749034152271035	-88.3103504145455	-8.28626534229557	-176.927493759645	
983600000	-8.30218945994776	179.925480936019	-0.738530601206921	-88.46427651905	-0.749162580015899	-88.4486286410765	-8.28438859098354	-177.065948927078	
985300000	-8.3005005882389	179.793161291042	-0.738417185757881	-88.6049857852041	-0.747852326282772	-88.5790730708731	-8.28242466231396	-177.196056761091	
987000000	-8.29878668915543	179.65795171588	-0.739201111953029	-88.7446715443204	-0.747440956292138	-88.7201939669088	-8.27838112168963	-177.326994445209	
988700000	-8.29887513245428	179.524655286152	-0.738301342192595	-88.8875160207963	-0.748872846156022	-88.8613764966033	-8.27629192276147	-177.455680110424	
990400000	-8.29658842430578	179.382247791278	-0.73758015545033	-89.02670322212	-0.749086410991767	-88.9980781623406	-8.2780416359252	-177.592217957707	
992100000	-8.29721869081669	179.24512052312	-0.739018144958101	-89.1683942438404	-0.749704797690346	-89.1428943939403	-8.27680992282647	-177.719773309415	
993800000	-8.29476426765878	179.120999830854	-0.738971432446669	-89.308385244944	-0.747743437451539	-89.2817113852222	-8.27464415152571	-177.861191226028	
995500000	-8.29625223555516	178.993941197933	-0.738958562021164	-89.4454214158713	-0.748068018762701	-89.4251009830753	-8.27220227557651	-177.965999022119	
997200000	-8.29472497427445	178.858268202601	-0.739425257702858	-89.5896569977424	-0.748465994725356	-89.5588426394397	-8.27188953199702	-178.066697388295	
998900000	-8.29474233372013	178.717050787778	-0.739035901063081	-89.7229089139454	-0.748269407526115	-89.6972091421001	-8.27215865674753	-178.198595208036	
1000600000	-8.29225990973583	178.561562508882	-0.738390478545465	-89.8622405582945	-0.746802492612817	-89.8359851704229	-8.2730230963479	-178.323418883369	
1002300000	-8.29305233795533	178.433293745397	-0.738700223582069	-90.0029506678778	-0.746160051535032	-89.972585870201	-8.27281206023707	-178.444700739727	
1004000000	-8.29393368486222	178.334528947024	-0.738812636373193	-90.1407799810685	-0.746229840771343	-90.1198758753153	-8.27421311212128	-178.557724088386	
1005700000	-8.29355898536474	178.198389175893	-0.738444510649391	-90.2798966284911	-0.747379188283094	-90.260994217926	-8.27589264530235	-178.68666751426	
1007400000	-8.2933983265004	178.108577535075	-0.738537812701297	-90.4138449616604	-0.747033342831672	-90.4077879658589	-8.27492169008989	-178.79157813711	
1009100000	-8.29084585804974	177.979255746242	-0.738866328046224	-90.553840818691	-0.747281500728807	-90.5496710198676	-8.27471016307946	-178.895185027274	
1010800000	-8.29100029829262	177.837953390667	-0.740037378212374	-90.6969846047464	-0.748375038595867	-90.6925981865047	-8.27592175260905	-179.014089017694	
