!Keysight Technologies N9950B: A.12.38
!Date: Wednesday, 26 April 2023 19:44:56
!Timezone: (UTC-06:00) Central Time (US & Canada)
!Model: N9950B
!Serial: MY61131330
!GPS Latitude: 
!GPS Longitude: 
!GPS TimeStamp: 0001-01-01 00:00:00Z
!GPS Seconds Since Last Read: 0
!CHECKSUM:1019755206
!Correction: S11(ON U)S21(ON U)S12(ON U)S22(ON U)
!S2P File: Measurements:S11,S21,S12,S22:
# Hz S DB R 50
800000000	-8.75089618171525	-164.47640273856	-0.656719498966063	-73.145486745037	-0.670475554516823	-73.1646083434255	-8.71709930125333	-162.109074684449	
801700000	-8.7327637872979	-164.252361251681	-0.664196963192312	-73.3382522650132	-0.670367520539518	-73.3384288258315	-8.75710465710143	-161.810415328896	
803400000	-8.73266967577679	-164.521542384212	-0.648557052025065	-73.4398007372491	-0.669210923525245	-73.4724671974291	-8.75025792531837	-162.270080740857	
805100000	-8.67607356631535	-164.883186461723	-0.667429069352044	-73.5822484826747	-0.680630013075073	-73.6694856320489	-8.70741831982668	-162.564657128055	
806800000	-8.69566818892086	-165.133059282711	-0.656208661149923	-73.7197968829656	-0.67124371608196	-73.8236540526544	-8.72905814658932	-162.605411730828	
808500000	-8.73811666886359	-165.042585790317	-0.662864179066285	-73.856166072993	-0.670657309194159	-73.9155945501982	-8.71435840831122	-162.637151724092	
810200000	-8.65342793337205	-165.318159938609	-0.671254337027383	-74.0597293352983	-0.671154643978443	-74.0885162040731	-8.66578954451803	-163.065847158631	
811900000	-8.70182280865802	-165.292057438993	-0.668894479118159	-74.0771956938986	-0.678567775037446	-74.1783462393507	-8.70173251882667	-163.091270216341	
813600000	-8.67811390688608	-165.708244618691	-0.667002826994678	-74.258071752819	-0.671286902178964	-74.2264883601751	-8.66286035313215	-163.39100368109	
815300000	-8.72101272241797	-165.610975279452	-0.671336862223517	-74.4624017327933	-0.660223478184976	-74.5933591254562	-8.6830625001633	-163.296006954096	
817000000	-8.64001153850437	-166.233494299643	-0.679578073385585	-74.4909903125743	-0.681012055299937	-74.5803580315458	-8.64316721797993	-163.678606684201	
818700000	-8.62394573357595	-166.392912041022	-0.688227875168605	-74.7348686421698	-0.689374391774771	-74.8234012574695	-8.65673102406851	-163.71790805141	
820400000	-8.65239526020649	-166.257305523341	-0.67780077392289	-74.7618978270781	-0.683814265312513	-74.8371963953064	-8.66830580838511	-163.988312035267	
822100000	-8.6377568338412	-166.731182374563	-0.677554866868011	-75.0079852436471	-0.696140986052993	-75.0222171455306	-8.64300430750707	-163.981965433938	
823800000	-8.64753730614557	-166.514975490951	-0.683790092660727	-75.139267725485	-0.685030486312447	-75.1644719947881	-8.63752380324368	-164.08393272485	
825500000	-8.64711147633213	-166.808559687571	-0.686344769828228	-75.2460151540179	-0.687378671641346	-75.2748251849687	-8.6701043624524	-163.699005500161	
827200000	-8.59814990453612	-166.780434259495	-0.671351323591622	-75.5048769098886	-0.700916281074915	-75.4918680675743	-8.62248915742164	-164.24522447322	
828900000	-8.65503006549336	-167.262206275643	-0.673292927942999	-75.5294034483047	-0.687962294493429	-75.5781068357537	-8.6422646550445	-164.261711460236	
830600000	-8.60698364472202	-166.924166051341	-0.69288858023957	-75.6778951968765	-0.671369736086727	-75.7328184758361	-8.59905196063103	-164.422134764748	
832300000	-8.59965036401964	-167.21325279556	-0.673956973287499	-75.8497263235648	-0.684325012815239	-75.8743798237765	-8.60126930357579	-164.810247281909	
834000000	-8.58780502956671	-167.320484381316	-0.680384907166616	-75.9625213784597	-0.690588387299734	-75.9938370119459	-8.58597509135693	-164.786816716555	
835700000	-8.59761745016934	-167.501891375573	-0.680849354537029	-76.1624668078292	-0.684002251549919	-76.1380625625164	-8.59820237016682	-165.141430643521	
837400000	-8.58396353023637	-167.815633860049	-0.675398881345624	-76.2588337734121	-0.689723625645881	-76.3590331242977	-8.5738606495336	-165.091134299145	
839100000	-8.54470053065859	-167.815796502851	-0.680627018199957	-76.4520411391041	-0.697807614940643	-76.4359150007	-8.53331704300896	-165.146959763151	
840800000	-8.59437888624706	-167.778274691651	-0.677786825056529	-76.5807291628285	-0.696037508156941	-76.6112212547453	-8.57388532281443	-165.238024713183	
842500000	-8.57006270456013	-167.980766235203	-0.691116583458779	-76.6851283591852	-0.686459903276646	-76.7114022374746	-8.60772574372356	-165.466761999566	
844200000	-8.58268064378738	-168.508767905391	-0.694879464638372	-76.8507913558156	-0.689839117647009	-76.8602133649688	-8.54222965633974	-165.266794679697	
845900000	-8.56883282910661	-168.492323402722	-0.675009873514839	-77.0494771799656	-0.701456075739287	-76.9200135868728	-8.50325706926565	-165.865695907265	
847600000	-8.5381754367423	-168.512375685331	-0.682106391041019	-77.1211423012995	-0.697068343105897	-77.0725707551355	-8.57095973313875	-166.14869622496	
849300000	-8.55579352089387	-168.591996899505	-0.69362610490043	-77.2216357699895	-0.680770399571383	-77.3371889685274	-8.58302924113091	-166.119249411741	
851000000	-8.55615466300802	-168.748025847106	-0.694783492714728	-77.3825724043073	-0.692402455098682	-77.4685958043152	-8.55505216199258	-166.140375560318	
852700000	-8.5706485785285	-169.036628231317	-0.689679882831083	-77.6682823315968	-0.688245853685354	-77.5841324456962	-8.52493707062104	-166.333681585928	
854400000	-8.5771353048904	-169.123976451384	-0.696477740841269	-77.6460535754756	-0.690206521964895	-77.7123707761279	-8.50482158251427	-166.594886326377	
856100000	-8.54998636160578	-169.254435615092	-0.702382094164797	-77.9482048593394	-0.697474968960774	-77.8460260269284	-8.55558947368591	-166.757861926223	
857800000	-8.51154724328944	-169.769726343242	-0.689994980507645	-77.9057728640746	-0.706776925251547	-77.9073274339854	-8.48721882896497	-166.864590126711	
859500000	-8.55796041317262	-169.406166843863	-0.686215618373378	-78.0098646464908	-0.688420745107422	-78.0952222198479	-8.55199571869127	-166.715900085188	
861200000	-8.50616144431133	-169.655678127342	-0.698662777673518	-78.290552979384	-0.710373321604384	-78.2372128588424	-8.47344198613695	-167.041887770558	
862900000	-8.51864326156839	-169.580877720979	-0.689926469227794	-78.3392859175547	-0.688639183939987	-78.4699968234768	-8.44766044845202	-167.075934948501	
864600000	-8.49050276500574	-170.077285823768	-0.700618038831724	-78.5538441348855	-0.703209886439877	-78.5745696084301	-8.46408516098826	-167.330413400164	
866300000	-8.54728809466082	-169.95490906663	-0.694180823025786	-78.757692274613	-0.69386165924952	-78.6783449464623	-8.55214575297119	-167.455310335255	
868000000	-8.51798135736457	-170.221019410931	-0.68833317855268	-78.7627771556932	-0.708842753430003	-78.8687399065769	-8.50130842110156	-167.504420657078	
869700000	-8.51433942018073	-170.505097229765	-0.696077039001734	-78.9388767345967	-0.694483229591421	-78.9119876626123	-8.48479412020632	-167.777723939744	
871400000	-8.48659031136869	-170.338662351631	-0.706933136439564	-79.1071565685971	-0.69320290469286	-79.0850291718823	-8.49606520984141	-167.764797419138	
873100000	-8.48868831072315	-170.751935901594	-0.697367240580928	-79.2402405340295	-0.702516666789875	-79.309672276875	-8.46837533293065	-167.894170147914	
874800000	-8.499137529362	-170.791271577128	-0.700574531044938	-79.5050485398079	-0.699418080229831	-79.4155818655552	-8.45770557867039	-168.012028966717	
876500000	-8.510299110543	-171.289176867624	-0.692994745158287	-79.5864901917209	-0.716881833549975	-79.5513790434328	-8.46098325865633	-168.305785681495	
878200000	-8.49329869425653	-171.169169690519	-0.704201098312928	-79.6335370006658	-0.69887695577645	-79.7076649182225	-8.51239641113785	-168.228327928864	
879900000	-8.52379855028843	-171.297716994844	-0.707128770467292	-79.8376953655979	-0.706004155488392	-79.8862951534291	-8.45246202322041	-168.125359734431	
881600000	-8.4702294949053	-171.20451115966	-0.701650302053895	-80.1046125113907	-0.700992962539166	-79.9577190731396	-8.45695987550564	-168.515450531399	
883300000	-8.46499753408652	-171.31201982263	-0.704311416110451	-80.1250598665686	-0.697756425482137	-80.1257905226853	-8.42453584698824	-168.670037673163	
885000000	-8.47319791759802	-171.569326281247	-0.701506400679418	-80.1603573664652	-0.69931195042287	-80.2879437400903	-8.42775599183457	-168.962024480681	
886700000	-8.47659252614212	-171.723757151052	-0.709593702452237	-80.4481659071165	-0.710011332333989	-80.3271606831057	-8.39876427595307	-168.801646072849	
888400000	-8.49892629917612	-172.033211502377	-0.704481139872696	-80.5780645116445	-0.709328819118419	-80.5728802221161	-8.44080348994853	-169.100606911558	
890100000	-8.48783224067398	-171.71875050975	-0.704734323772344	-80.7531047237786	-0.706982142092429	-80.7066950222515	-8.44887393752401	-169.323739775912	
891800000	-8.46338854753627	-172.058398076572	-0.709857898505002	-80.8227062094534	-0.707746724381846	-80.803961369061	-8.43236816012419	-169.31517197497	
893500000	-8.49016278625948	-172.284673263508	-0.709564817527325	-80.9510779627292	-0.699084152148564	-81.0217002575613	-8.43939120510581	-169.581932064195	
895200000	-8.46106363747057	-172.373067903072	-0.699987407654454	-81.1524707177655	-0.716733191712305	-81.0845884279261	-8.42285963339416	-169.763082996746	
896900000	-8.46961223231556	-172.590445454037	-0.70482221888799	-81.3215143031233	-0.716405276251437	-81.2477353068682	-8.42871454349906	-169.564861549012	
898600000	-8.44235522223321	-172.744156162587	-0.724225923615451	-81.4140331973933	-0.72254972613534	-81.4369563165921	-8.44726336286495	-169.867180996958	
900300000	-8.4642831375537	-172.824862993814	-0.706347306463395	-81.5091090267266	-0.71851263360755	-81.4811983296174	-8.4154071465187	-169.802700821511	
902000000	-8.44248629396602	-172.979889731382	-0.735114783761638	-81.6248238355844	-0.712393330866276	-81.7474904958048	-8.39077822627505	-169.855804783433	
903700000	-8.4595778495537	-173.144674614691	-0.720265023548955	-81.7707039288767	-0.708549371893979	-81.7988993905778	-8.44280841713371	-170.294291402149	
905400000	-8.47938055335354	-173.286072421702	-0.695673849342347	-82.0660683236421	-0.727942551012038	-82.0276130181037	-8.43987184490298	-170.355704169455	
907100000	-8.43670136834165	-173.571041031467	-0.715294460852761	-82.0609030314235	-0.73305946119538	-82.1374225395262	-8.40031515564688	-170.455627813933	
908800000	-8.42179096272443	-173.605570858762	-0.726247720266399	-82.2750531551935	-0.726382656444356	-82.1913283581526	-8.4188477419444	-170.707313663323	
910500000	-8.3953682428174	-173.615148954224	-0.733320695337454	-82.3105453689852	-0.723468125389622	-82.3928308237073	-8.41112060562842	-170.808788360271	
912200000	-8.40516061301582	-173.76356761782	-0.721000695920942	-82.4040398604793	-0.725608600518511	-82.6144316847999	-8.38884991768402	-171.095951498402	
913900000	-8.4266746384968	-173.809093552666	-0.717229231570644	-82.6758917539135	-0.712737904529857	-82.6160487046514	-8.41184301738541	-170.922101424853	
915600000	-8.40205512886045	-173.977874823535	-0.712581347456339	-82.8507334110141	-0.724923636437823	-82.8713255933434	-8.39882814301879	-171.112005318133	
917300000	-8.41069441032003	-174.297096368691	-0.727515007770425	-82.9476176289299	-0.72494123602884	-82.9558614294942	-8.41851691241243	-171.893508321464	
919000000	-8.42065028582223	-174.375371541125	-0.727624717022518	-83.1439715139618	-0.713956399304995	-83.0930571312092	-8.38457721940819	-171.558953623531	
920700000	-8.39546700868224	-174.455769659888	-0.733356562173628	-83.2601980403057	-0.730290466598957	-83.2376233552123	-8.32701229003216	-171.627896734072	
922400000	-8.38909191271935	-174.423750713698	-0.724936353008152	-83.3391006014841	-0.718054344676385	-83.4456413702422	-8.36062233865579	-171.848600671128	
924100000	-8.33828788581943	-174.988837348166	-0.736657792177803	-83.4868068411316	-0.718040651198891	-83.5316419332276	-8.35664525330106	-171.90676138637	
925800000	-8.4256818762658	-174.865765852887	-0.726672354519692	-83.7891281225863	-0.723916504620176	-83.5561303985163	-8.3745236150026	-172.27323019414	
927500000	-8.38295444831387	-175.260892899799	-0.732774304852279	-83.9300367361544	-0.745231967393227	-83.8820179185158	-8.37332175180547	-172.629234388742	
929200000	-8.35338972707602	-175.384148360601	-0.729627765534279	-83.9666911029365	-0.731293251935328	-84.0427970985709	-8.39784001745093	-172.591489523463	
930900000	-8.34887554939904	-175.556802775868	-0.724939994109818	-84.160084352739	-0.733492498628751	-84.1167227306402	-8.34174935171382	-172.702517513665	
932600000	-8.36535402611215	-175.533614301847	-0.73925389142242	-84.241554425837	-0.733381239764307	-84.2528062091513	-8.35935591522899	-172.481799627063	
934300000	-8.38715652381262	-175.541380915276	-0.732592057872157	-84.393621103486	-0.747601531727125	-84.3760834394753	-8.39880630636556	-172.868110787971	
936000000	-8.40466254980956	-175.895703668771	-0.721237286744981	-84.5305631305408	-0.74398625478927	-84.3832132420002	-8.40173745130133	-172.996402550703	
937700000	-8.36573863365988	-175.926230074381	-0.728829870864358	-84.674156918971	-0.723468524874064	-84.6816413485152	-8.33260837792971	-173.251368602127	
939400000	-8.38126498921481	-176.097558838165	-0.734870233882283	-84.8494324666208	-0.72897906708496	-84.8527311409141	-8.32471999825265	-173.20511129342	
941100000	-8.3424103623928	-176.480134805434	-0.722651355817623	-84.9250362525877	-0.740386782488632	-84.9498259616148	-8.3379953825165	-173.554274031331	
942800000	-8.32444984090971	-176.40188259971	-0.743299551703372	-85.0417725335952	-0.745215753796207	-85.0108089153928	-8.32452995042433	-173.599830700104	
944500000	-8.33360864819839	-176.708329149192	-0.74472298846492	-85.3000647663372	-0.715101022601869	-85.2214108167359	-8.36556462689079	-173.656894990727	
946200000	-8.34234502452203	-176.831579514253	-0.734350925614847	-85.2688948328682	-0.749467501053695	-85.3226586762604	-8.33113361996174	-174.106749981745	
947900000	-8.34169660677184	-176.802715239039	-0.73312493666721	-85.5066373425073	-0.736297559476838	-85.5069759655211	-8.31216875292721	-174.251540330988	
949600000	-8.31741149476734	-177.105849866929	-0.720007292261649	-85.6461278944366	-0.750828619652927	-85.7044193814913	-8.31938508425522	-174.353795032768	
951300000	-8.27258734309771	-177.146941428628	-0.727643808983137	-85.9137265301214	-0.745030266092999	-85.8040139524702	-8.28780222042102	-174.456578826976	
953000000	-8.33042993214817	-177.30427038425	-0.736257501549129	-85.8541686896363	-0.743768848710904	-85.9881184270715	-8.32613138418597	-174.828000933804	
954700000	-8.32932663504341	-177.759652086996	-0.741614141724428	-86.071171593272	-0.732526040843786	-86.017172946387	-8.31983636133316	-174.628037781287	
956400000	-8.3042389324151	-177.613624245374	-0.735758422270517	-86.1207463366619	-0.736434393865973	-86.2313934967656	-8.31009521046734	-174.740913783869	
958100000	-8.3376190628995	-177.995551639381	-0.726242026754884	-86.3038395241778	-0.752774992594816	-86.4463835774328	-8.31259389456483	-174.862348378635	
959800000	-8.34043149923681	-177.949671709434	-0.73195750222375	-86.5303924515595	-0.741371382667443	-86.5259396535555	-8.30200850795974	-175.07055185381	
961500000	-8.30443043262497	-178.20769346452	-0.742137409327884	-86.6421493122893	-0.728476821558202	-86.6182893632675	-8.32650647467558	-175.462466000193	
963200000	-8.33564900277835	-177.989126543091	-0.741476970639808	-86.7957782756459	-0.740083290421675	-86.747695455227	-8.31610197961932	-175.203603591798	
964900000	-8.32775071251982	-178.594114532854	-0.744696609756134	-86.8240532941226	-0.738498653624804	-86.9509915558992	-8.2798695368821	-175.547605504841	
966600000	-8.29039896678159	-178.206314939917	-0.728115345495049	-87.0742850334522	-0.73649377484131	-87.1044640917482	-8.26796577159573	-175.469839267495	
968300000	-8.30061968452811	-178.422823145578	-0.742237438473932	-87.1881235851628	-0.737685374142937	-87.1623876305774	-8.28993682364446	-175.999334038753	
970000000	-8.27966511340327	-178.928803978187	-0.73022989722254	-87.3748284436145	-0.728110782678709	-87.2553468135868	-8.28424046711308	-175.779420649607	
971700000	-8.32834991398327	-178.965842167258	-0.725673331290438	-87.4778391331058	-0.756864180232199	-87.4617279779335	-8.29976547866221	-175.945194592757	
973400000	-8.31188491418274	-179.070524094234	-0.730608950402646	-87.5866441960798	-0.744821740500697	-87.5098242197896	-8.29342435565806	-176.210444794113	
975100000	-8.29875292192872	-179.272834202586	-0.736864920830017	-87.6200590364637	-0.736724226672578	-87.7302108696623	-8.29739635014474	-176.300315223882	
976800000	-8.31738908660222	-179.420871885386	-0.743369631092778	-87.8894975109061	-0.735453401994656	-87.852466713689	-8.27603398206736	-176.59089253844	
978500000	-8.28735497512658	-179.376461045782	-0.726933977262541	-87.9698076058528	-0.726929695587242	-88.00351674765	-8.30689274259541	-176.891080455145	
980200000	-8.3248645107825	-179.84890884831	-0.737501118179162	-88.1081115737104	-0.754394457796191	-88.0501559572344	-8.28468495852933	-176.579670783323	
981900000	-8.2843874292363	179.988251557368	-0.751756321858319	-88.2931366663044	-0.746625330970561	-88.2782519402601	-8.32603678091497	-177.017942636445	
983600000	-8.30715692882465	179.931027530907	-0.723865031341776	-88.342522732697	-0.753435464268886	-88.4280843118013	-8.28073057231594	-177.258069721093	
985300000	-8.27643555416031	-179.960727918185	-0.741914533267451	-88.5937842513348	-0.744041321163229	-88.5591120423971	-8.27391684638432	-176.804552378504	
987000000	-8.31042434692797	179.884434705164	-0.720571377983607	-88.7717618467934	-0.745401180376831	-88.6849732400422	-8.24014094286915	-177.263446680652	
988700000	-8.28935684620097	179.366661578793	-0.734710887344592	-88.8593322757318	-0.741886435265425	-88.8489564809747	-8.28324447962224	-177.399437060668	
990400000	-8.27665583448069	179.10173642027	-0.737294424092843	-89.045611962977	-0.734116550937673	-88.873781672223	-8.25986521833974	-177.490158954331	
992100000	-8.26903265852473	179.297505737573	-0.739179863414367	-89.165120117479	-0.749444983943261	-89.123695784441	-8.27297779973226	-177.688632791943	
993800000	-8.28548079575183	178.803904262823	-0.734968998148565	-89.3110969156836	-0.750787473623992	-89.2888206337028	-8.26343192201929	-178.073257868958	
995500000	-8.30364017237877	178.932016583362	-0.736642430948512	-89.4613884282838	-0.756439213427228	-89.5305311698799	-8.26012995628304	-178.070653583782	
997200000	-8.28840120445753	179.009553153325	-0.728272331608203	-89.5552889137688	-0.743657333727313	-89.5266502705492	-8.26844021090361	-178.007999896095	
998900000	-8.27419136872963	178.793570130504	-0.731962189609306	-89.8072728454382	-0.737768458313105	-89.64998006907	-8.24803287447473	-178.124099465831	
1000600000	-8.30477276918061	178.640626442095	-0.735955620823819	-89.7548824815137	-0.752929197717702	-89.8149622853402	-8.25117545342338	-178.340679238604	
1002300000	-8.29548440704458	178.447599769007	-0.745678333953683	-89.9528326034651	-0.752185138577957	-90.0614963871689	-8.27964357102673	-178.684320514131	
1004000000	-8.30607110089834	178.576873553219	-0.741307136089833	-90.1157414164107	-0.745938790244959	-90.1494001006123	-8.3026949792033	-178.802266598337	
1005700000	-8.27571431774441	178.26754288154	-0.728609355914846	-90.1950212130768	-0.728325639457634	-90.2887086185601	-8.24284758773043	-178.791067744413	
1007400000	-8.29650523898301	178.185029570743	-0.732395728852972	-90.3481990357657	-0.736932789933682	-90.386201559066	-8.26075660307966	-178.611605648517	
1009100000	-8.28167617913996	177.953269027902	-0.738030763489219	-90.5323773637125	-0.741499849587078	-90.499723064374	-8.26275896536969	-178.78955008272	
1010800000	-8.28403593245861	177.841378878027	-0.732463347281011	-90.6400090663299	-0.749974099563309	-90.5627352336194	-8.28584692784753	-178.820817153812	
