!Keysight Technologies N9950B: A.12.38
!Date: Wednesday, 26 April 2023 18:48:57
!Timezone: (UTC-06:00) Central Time (US & Canada)
!Model: N9950B
!Serial: MY61131330
!GPS Latitude: 
!GPS Longitude: 
!GPS TimeStamp: 0001-01-01 00:00:00Z
!GPS Seconds Since Last Read: 0
!CHECKSUM:1229087673
!Correction: S11(ON U)S21(ON U)S12(ON U)S22(ON U)
!S2P File: Measurements:S11,S21,S12,S22:
# Hz S DB R 50
800000000	-50.0474116623342	-7.05614036335501	-0.001319667659007	-48.1201884598967	-0.00378489040080983	-48.0499610101508	-54.1290293027897	16.6801906968592	
801700000	-46.9639152788465	-28.6940320614502	-0.00685306555550708	-48.1733662225935	-0.00694597082586306	-48.1952284108419	-46.7477649453579	-7.15225226313021	
803400000	-48.2231293598144	-11.399734737093	-0.00437192885828353	-48.2600353486291	-0.0133989087868965	-48.2917716952915	-47.8176238139611	10.5504417251946	
805100000	-54.7660690616058	-50.5649362530142	-0.00624273403765035	-48.4246862429419	-0.0061741340602244	-48.4478725486882	-51.711508672297	-14.4962617583319	
806800000	-54.0558623801394	-31.6673024268154	0.0120727755077102	-48.5514030728882	-0.00681874868125347	-48.6058979481278	-48.3704870871009	17.5873693393196	
808500000	-46.6344507998971	-1.71272560521982	-0.0109915524773262	-48.6389188486937	-0.0194948074037709	-48.6254691991529	-48.8727973660819	-1.43043099791818	
810200000	-50.4161429224854	-48.7970206334271	-0.00349014191739519	-48.7464505169745	0.000854622000704308	-48.7219287474589	-55.3234826806019	6.67756820207505	
811900000	-49.4569291035095	-19.3064358530287	-0.0126906405473446	-48.6841067986668	-0.0117613842398704	-48.8306216446712	-49.6883495761344	22.9070525108325	
813600000	-52.0095934716277	4.47286334507461	0.00181576557583072	-48.9107494038905	0.00107130480028151	-48.876705762411	-55.8362022459927	26.6347317919184	
815300000	-45.4861867867003	-3.42961850337178	-0.0114694505439583	-49.1092677617461	0.00104885648242374	-49.0940740258318	-50.5495689204933	3.7640633565935	
817000000	-60.3646577824851	-48.5277514910811	-0.0100013628098182	-49.0968413226141	-0.00355880724966534	-49.1023540671672	-53.9584004135802	32.0146886933915	
818700000	-61.6428405381829	-108.570402169963	-0.0085949760446294	-49.2520490114673	-0.00256336655427301	-49.2409791799964	-51.1181425533963	10.0667709939309	
820400000	-53.1624464461799	-16.4734072573193	-0.0120453456795793	-49.2848515362772	-0.0023635962804183	-49.2936389374599	-53.4364508090898	52.8494345513209	
822100000	-61.3647834483497	18.6897668348233	0.00144693308816639	-49.4717362567955	-0.0134386196434799	-49.4141904290797	-53.4307396784632	25.6859477662414	
823800000	-51.3490183698958	-12.5653165086584	-0.0145439597319587	-49.5161460415105	-0.0138512680507193	-49.5556431972198	-52.5281949251212	21.9344609010371	
825500000	-54.5605862897684	13.463198716928	-0.015003287315379	-49.5862876464085	-0.00506896155741387	-49.6396620284625	-46.1660387266822	-6.09946577739422	
827200000	-49.6081475977993	-40.3550177957535	-0.011780188356436	-49.7126480294653	-0.0161120144358599	-49.7963965321265	-52.8333624119982	1.54672978910482	
828900000	-50.0767030512012	27.9904657677133	-0.0194650801479186	-49.8385088174042	-0.00240423269771749	-49.8778622207951	-48.1236110142549	-4.758845307753	
830600000	-49.9592248906865	-33.994300021831	-0.0117617274865117	-49.812470458109	-0.00160846395820462	-49.9356940263643	-52.39384673055	6.34604257764805	
832300000	-52.2532167758684	-26.9933572599156	-0.0050183319269843	-50.0679780650239	-0.00778785267670088	-50.0903499546232	-52.5052584512422	26.7095817404553	
834000000	-52.7821495747371	-46.5235727704163	-0.000138802538593386	-50.1071633378361	-0.0133441278431881	-50.2115560300788	-52.7746719704574	2.77929509771672	
835700000	-51.8887763326145	-11.6051085113181	-0.011266992338222	-50.2407900233839	-0.0133415636216093	-50.2752829995872	-53.9368044714506	31.9132126366834	
837400000	-53.0922079299419	-1.58443954449899	-0.0101401842634498	-50.331741343397	-0.0169792504205214	-50.3879864274884	-52.5594825182331	-8.35751440780962	
839100000	-52.3365750760788	-36.1759897003032	-0.00470831060970298	-50.4099079060465	-0.000870923776963867	-50.4748318063924	-54.844447799458	-22.9218158863656	
840800000	-50.2992946816458	-26.7466499584345	-0.00470015610819883	-50.4888791849088	-0.0229119266038627	-50.5354366423363	-49.6448888436424	2.04904097369972	
842500000	-51.7697146556868	-43.3846738586704	-0.0112382804708428	-50.7184035827044	-0.00432692103788582	-50.5999524533973	-48.3138783114392	17.8043568597083	
844200000	-58.8897908315406	34.1478475434018	-0.0011724328475628	-50.7895897805024	-0.00523888140653927	-50.7629033960007	-48.5178108642244	-26.0185931267851	
845900000	-54.4638374718984	0.7310132072842	0.00999713370806114	-50.9611234560655	0.00120497135174384	-50.7497492670045	-59.8623467969634	-31.8365788335835	
847600000	-52.4869144211498	-37.6744468588278	0.000639874155058056	-51.0143676729326	-0.0171704991347244	-51.0005093264898	-52.3890650478507	58.518580449449	
849300000	-51.6893208974057	-13.9376004040686	-0.0210939280013717	-51.0917410012363	-0.00139141854281919	-51.0396383959955	-49.1308550276226	26.2976494362634	
851000000	-49.9471276991646	-18.5545659584465	-0.00184241342065611	-51.135283275494	-0.0184494081527722	-51.1901131429377	-50.822357908459	24.059830278617	
852700000	-50.1557911467225	-0.918243034110811	-0.00184136755170591	-51.2465345725859	-0.000668801607051031	-51.2168204446281	-51.8970813899401	2.61593479063664	
854400000	-51.6658727306706	18.3330635983115	-0.00172809222645346	-51.3670492522946	-0.00604741941201696	-51.3238607240672	-55.1367130014932	24.8246210784924	
856100000	-51.2732146973909	-24.4253952812866	-0.0205493131640831	-51.6052783610034	-0.0133289818820994	-51.5338274847095	-49.3021058908487	37.1796427174655	
857800000	-56.271122740502	97.8766773473626	-0.00197177105602902	-51.4901186794013	-0.00694870132293859	-51.4746409657585	-57.2231874931351	2.69881569749105	
859500000	-50.4867384502761	24.37797195188	-0.0128109907818175	-51.689642661075	-0.000980236050552765	-51.6766682026396	-48.0044274018219	6.46880405746613	
861200000	-56.4078606639361	1.87139074352259	-0.0128347922965212	-51.7626811079536	-0.00732135764405718	-51.7621802049753	-57.3624988610399	-33.6277594879407	
862900000	-50.7971982483108	-15.8167951075035	0.00662107858682895	-51.8149892560077	-0.00809099066750964	-51.931757474302	-57.7902255118982	-68.4308795633351	
864600000	-58.4525565382468	24.5924925065752	0.0161012619050739	-51.9676329445122	-0.00226907116721882	-51.9368756975308	-59.8198981086962	-30.5704696301853	
866300000	-47.5530081872425	-13.5976967548899	0.00604152150428985	-52.1569677690942	-0.010144770633085	-52.0401987450148	-49.2966272959666	33.0644217838185	
868000000	-51.5672817358426	19.2923993090806	-0.00473878359874367	-52.1317539080099	-0.00597340063658939	-52.2051190770669	-53.0370291657028	5.21569199134445	
869700000	-50.8896132944271	25.1804095361035	-0.0077291947855067	-52.3612018219392	0.00639612972193263	-52.2469454659579	-55.2730792592693	11.332504790727	
871400000	-52.1864781522351	-26.5753882066661	-0.00566702856752444	-52.4635559970201	0.00053907355756563	-52.2931251932226	-50.7780712650742	17.7051829829601	
873100000	-55.0241414490028	17.2980276113023	-0.00198123620044295	-52.4107950708804	-0.0118169442003432	-52.5451194716969	-54.5334963815813	-18.7359219847684	
874800000	-52.1587518476911	12.5364459590333	-0.00483924569984011	-52.5960119828774	-0.0122241911242825	-52.5887296015304	-53.1357438891708	-23.2681558496541	
876500000	-49.9305320041118	46.5303474121494	0.000364846852271271	-52.7425060445323	-0.00436642851002827	-52.7158751534003	-55.4296809781417	18.5681142682267	
878200000	-52.5472463043159	15.4894562591251	-0.0178777799124599	-52.8373384483673	0.00252670174164554	-52.8338284362083	-47.6861342847437	7.32961585511121	
879900000	-49.59871298007	25.412061728007	-0.0201891766645407	-52.9071227165069	-0.0106447231010875	-52.9146679929969	-51.2786691970343	-26.6822860610256	
881600000	-49.7075152357711	-18.6301263373239	-0.00802019966708879	-53.0951641659855	-0.00772805144482154	-53.0110764506312	-52.6037205071866	-11.6497685071318	
883300000	-51.5359573627579	-16.8830871738174	-0.0157746090597021	-53.0900624637533	-0.000459162401469686	-53.0892406467039	-52.0042939694085	-26.8625950059188	
885000000	-53.5357561155898	18.1567825668435	-0.0200472906440274	-53.2660891928927	-0.00613923041694761	-53.2648435527	-58.585405441763	-17.2889823457636	
886700000	-53.0820948108007	13.3118168949842	-0.0170530576531659	-53.3035943162719	-0.0173307076404124	-53.257179947585	-50.323133438807	-48.5288674269477	
888400000	-48.7743322688396	26.2843198991218	0.0127972730000681	-53.4385125788969	-0.0117279539566867	-53.4283508297702	-51.3560883276789	-19.4284309490692	
890100000	-46.586573448864	-12.7201089274174	-0.00266036177761334	-53.4855596271512	-0.00594252723386414	-53.5394323277164	-52.349338048135	10.2926726675554	
891800000	-51.1824957551644	5.52955899124319	-0.00409922624553436	-53.6679906103942	-0.00287436510833129	-53.6453569721497	-50.4524890159456	-15.777083568862	
893500000	-47.9541941392897	20.1241188467777	-0.00306182044493523	-53.653599413561	-0.00329377098655819	-53.7640773123563	-51.1438514401508	-0.89014158423518	
895200000	-48.3146872628421	2.23556070146595	0.00112891352886143	-53.8490571707331	-0.00356668811366947	-53.9145964957289	-54.3132465685149	-1.35798371903952	
896900000	-47.9546497349677	8.0469067316549	-0.0218949097762342	-53.9835160219782	-0.00538663403311592	-53.9609251196564	-50.0008178814633	-21.9444373887749	
898600000	-53.0903710261977	-1.25249987624831	-0.0111716335093877	-54.0678023092702	-0.00322705792924793	-54.0116098804914	-48.3758147550213	5.39168207425556	
900300000	-49.8441642924431	15.0285834641215	-0.0168952947376321	-54.1665575027223	-0.0125464171392962	-54.1645717074979	-48.4755612149487	-28.5634024056964	
902000000	-53.1223074290497	-22.2831963545661	-0.00851191656848439	-54.2082387498103	0.002163201960781	-54.2017072513262	-48.5318803663159	-35.7755469522139	
903700000	-48.7753200608447	23.5710401187781	-0.0157330671581646	-54.2546803825545	0.00179165686545653	-54.3213606416391	-48.8580366959441	-11.676855628159	
905400000	-45.4693170040316	15.4660765115983	0.00732617273828259	-54.5100824006158	-0.00481825182403875	-54.4607006334323	-48.4452863155135	-19.1028615209024	
907100000	-51.0257564644331	24.3873135194843	0.0014016401314762	-54.5632450504484	-0.014467241410611	-54.5477311260842	-48.9796438948715	-32.7145204397804	
908800000	-51.3864277716973	14.1489872500266	-0.0140949547256649	-54.6066944780352	-0.00129233548787068	-54.644039992242	-49.3137258834345	-10.9511071005959	
910500000	-53.2941302484566	-30.7596952061466	-0.00874254319601815	-54.6930429112102	0.00452987364171068	-54.6822918308356	-49.8229484009025	-15.9968419056	
912200000	-49.9804685102719	-3.04554779749536	-0.00314403074924227	-54.8234381160803	-0.005021291930572	-54.899234378856	-52.9150653773415	-18.4845106964893	
913900000	-46.6704789546063	-12.1176649248871	-0.0113782212129354	-54.975016255199	0.000776777767728681	-54.9688439379224	-46.2299372421887	-8.06275779271976	
915600000	-48.5668177572168	-30.6112564182223	-0.000674956576442393	-55.0762269591951	-0.0106034253216617	-54.9875267731077	-45.8597087416878	-16.4099293683597	
917300000	-51.0577110573951	3.32467895294004	-0.00993496352548213	-55.1220716441559	-0.00323399726988201	-55.168672144057	-49.5362072609489	34.2815327794059	
919000000	-48.3374501805534	2.30755402289459	-0.0120054470380266	-55.3045904755518	0.00643366719318501	-55.2555331858555	-48.0349255037094	-16.3352358645763	
920700000	-47.7019776969192	-11.1703869919093	-0.008709384716117	-55.3239299288017	-0.00277495308575192	-55.3329825840288	-49.7339744986651	-67.5693825240403	
922400000	-46.9256534887988	-24.2905045310816	0.00452333657898222	-55.4927835257093	0.00122786523209916	-55.5402795195393	-49.2559552408698	-20.7749282990537	
924100000	-58.0338009411023	-65.4901818991403	0.00418333046894771	-55.5361655400569	0.0121890238708248	-55.5410668483418	-48.4249281253056	-14.6495081632205	
925800000	-45.3386420187112	2.31674492317905	-0.00780472569445929	-55.723596609619	-0.00311923668880314	-55.5714825706166	-50.8636143012141	-1.47960226477593	
927500000	-50.8743521570187	-1.11960114272652	-0.00362097405855376	-55.8215523213978	-0.0175871392856769	-55.693818107038	-52.9381373522089	2.99367485756375	
929200000	-50.6947043558424	-11.6356344424911	-0.00685170221375101	-55.8183587081817	-0.00193355647278493	-55.9872212493814	-48.3375800266088	2.84231671057124	
930900000	-52.8527757106435	-9.2201506232639	0.000999427609168467	-55.9792401057928	0.00178209498557318	-55.9528546357005	-51.2197585093202	-15.9913119421501	
932600000	-49.3291693570842	-18.4955658572314	-0.0155248551485922	-56.0394500943924	-0.0100553993844818	-56.0495503222728	-46.7950068507772	-30.3514737660589	
934300000	-48.1351648247874	-10.027286346478	-0.017799326574673	-56.1591797405848	-0.0104115589929768	-56.0908841834149	-46.4574167792882	-9.64099126524989	
936000000	-46.7654660545747	11.7603921963402	-0.000849312989117144	-56.3076652786924	-0.00786033385650178	-56.1622078435525	-48.3433844040575	4.73673712109836	
937700000	-46.1074839371828	-15.2881700540844	0.00304372368472416	-56.3411647230604	-0.0156529510993013	-56.437851858054	-52.1275269220721	4.02415650862132	
939400000	-47.6782344126693	-13.3007957126706	-0.00696463224663057	-56.4520862121617	-0.0033351623755417	-56.4896852443907	-47.7896854801909	-28.7743929976686	
941100000	-50.8881473691523	14.5940516052459	0.00272560921127334	-56.6326189810534	-0.0213557835520878	-56.5194314480937	-49.8515517680697	-14.051586026692	
942800000	-51.8178048037893	-33.9763861269439	-0.0156432280179696	-56.6974920865716	-0.0106927678125957	-56.615272675019	-52.2071783607298	-16.2339037939183	
944500000	-50.309307214915	-31.4828273548365	-0.00756349939116252	-56.7847362727007	-0.0102985536540754	-56.7769950965746	-46.5451754136053	6.36341164068377	
946200000	-52.2192104110443	-4.08512709266106	0.00424517193087628	-56.8244044780073	-0.0168829232850193	-56.9270456600259	-51.7014193181231	12.5725537385568	
947900000	-48.7818437976155	-19.0659959146505	-0.0162230246865777	-57.0355138158133	-0.0160479820033308	-56.9164168051581	-53.6389258046696	3.0221935518076	
949600000	-50.9487036722546	-13.9264883654511	0.00313790361687732	-57.097628389633	-0.0162009546159715	-57.1276603514412	-51.2749672921894	-11.8166982028083	
951300000	-49.1904733526626	-59.2708687789202	-0.00362136244965894	-57.2693755623405	-0.0164996085349603	-57.145173543674	-54.6233754710138	-26.6016848411106	
953000000	-48.7235645542535	-21.2225044265954	0.00545576777457198	-57.2467853513182	-0.00969946340426742	-57.2144039032928	-54.0090997644359	38.9487552050533	
954700000	-55.5808578166635	-0.61094137264391	-0.0133292535795513	-57.410985339071	0.0019286775995868	-57.3471165893204	-49.4483035856677	0.644299300541918	
956400000	-51.9413445544648	-40.0052146842999	-0.0065180235450127	-57.4334847926178	-0.00408693319067738	-57.535638860676	-49.1551338223768	-4.31483751434442	
958100000	-50.2858745680484	14.793683767267	-0.00959605746228501	-57.5249003754041	-0.0227955862116048	-57.6181867495327	-49.9089605118261	-12.6349886033449	
959800000	-47.8980716162514	-2.25966704603646	-0.00549585898592225	-57.711807116771	-0.00939271796879033	-57.7508546264374	-50.6348407975309	-27.3286713375263	
961500000	-51.0576193637193	-14.5505668518163	-0.00821473256753626	-57.7725667683441	0.0081416888152321	-57.8671424212363	-50.391920630872	32.0402972978631	
963200000	-46.8359732759277	-9.38436048586371	-0.0139103564312428	-57.9270697833112	-0.00264579660440558	-57.8771984847695	-48.8015222915749	-17.9271604676349	
964900000	-49.8822656910391	25.2746512170081	-0.00179341155725111	-57.99053151026	0.0107154581244027	-58.0991680423286	-53.7426585514677	-41.0914224679093	
966600000	-46.4431620165774	-37.6929771425749	0.00828966210067781	-58.0208112465174	0.00815801670163646	-58.1306947823832	-50.5538828008602	-34.1256981283681	
968300000	-47.1942419794192	-42.4350388229531	0.00521507856706356	-58.1906976178206	-0.0121104916074538	-58.1852808240222	-53.5800349091911	29.5650583416811	
970000000	-51.4947107858303	-32.9262243733792	0.0082375668789183	-58.3792323111565	0.000456711578857615	-58.247220975959	-51.832345476339	-3.49134352579053	
971700000	-48.8435693117041	9.25588750996004	-0.00972077232324097	-58.4095515126561	-0.0075086523772474	-58.4470797472823	-47.4718995844297	-23.9177743609083	
973400000	-50.8873882077064	-13.5835286021722	-0.000925771158385244	-58.4826837052253	-0.0067730934225813	-58.5317067081174	-52.3427799083269	2.32005487530105	
975100000	-51.751915347293	-10.1520661547739	0.00146048328279658	-58.5255723383952	-0.00759828732727439	-58.6903127456441	-52.8132542695133	-3.1360821470242	
976800000	-52.0482491529128	-7.6611878238637	-0.0168493619019932	-58.9164624575951	-0.00523890971867196	-58.7303996559992	-53.6173626933357	8.42577152850343	
978500000	-50.2380308789018	-18.0943987945366	0.0123943076300846	-58.8475803116423	-0.00182238528669837	-58.8438459574415	-48.0796282240193	40.1752314784222	
980200000	-50.797893891675	23.6092619183583	-0.00455384308857128	-58.8711627129862	-0.0230133474574388	-58.8993662866903	-51.9298632510794	-25.7264584389202	
981900000	-57.8219002242429	-42.9684723727072	0.00349630870521881	-59.0490817926452	-0.0182807118902439	-59.0713133343409	-49.1442816318982	29.2570397047973	
983600000	-55.064089738475	16.3358430324194	0.00607799365148361	-59.1651936627083	-0.00796708493275149	-59.2095585061816	-52.419636857891	38.5558458907966	
985300000	-52.9638915174288	-36.1487346491187	0.00718299586715348	-59.2509988926474	0.00177798723824781	-59.1857234352508	-47.7523088252506	-26.1647161038722	
987000000	-48.1421131316777	-20.4166515743073	0.00425205942696059	-59.4017038910293	-0.00594779560620309	-59.356832882368	-61.2247539899041	-41.2810639352735	
988700000	-57.2306436857683	38.0303205041324	-0.0105675779855881	-59.4807061355729	-0.0163035609102139	-59.4407476207681	-50.1027839302193	13.0780871675897	
990400000	-59.2141130032086	58.9731871624696	-0.00847215309529083	-59.5721071467088	-0.00976871951759007	-59.4952484414601	-56.3102255784945	19.8360218962297	
992100000	-57.2220837515546	-29.805465746816	-0.0136568538166172	-59.7309548246	0.000150569658039865	-59.7002196081115	-52.6754050821965	5.44374904132849	
993800000	-54.1858937790267	58.3391212832264	-0.0110982416409172	-59.7977173629433	-0.0169603986468739	-59.717301338007	-57.3769199317711	34.6160901578176	
995500000	-51.8667330026319	-4.57244211588368	-0.000120487082558697	-59.9570138028808	-0.00149352977686182	-59.902396754234	-54.6897999105348	8.69622873183458	
997200000	-49.5726780674031	-17.2323064630667	0.0115327050337709	-59.8875161318567	-0.00662543625172586	-59.9362029415198	-55.3553885691063	7.31067585731061	
998900000	-50.8327692784255	-25.9928842826109	-0.0107931778919756	-60.0607855712817	2.58939795534924E-05	-60.0794845440807	-59.1911434435198	17.7724678926351	
1000600000	-53.0845548245596	12.1787572328429	-0.00850384761256951	-60.1638827184932	-0.020815105631498	-60.1256006686576	-59.4766039624359	-12.7809618222833	
1002300000	-51.3568705336478	0.255073591390968	-0.00221109843463218	-60.2343807631701	-0.0227477622400518	-60.2844372458042	-52.884685509636	37.4452750326994	
1004000000	-48.4821647315388	-18.1978795839356	-0.00682938924220624	-60.3974322082558	-0.013809427932452	-60.3862636072933	-52.4766327587338	43.9051198153502	
1005700000	-50.2618713037089	-7.26365306959742	-0.00812180397307033	-60.3562754789971	0.0119657936207879	-60.4977156235684	-57.8118360889607	26.4367006722808	
1007400000	-49.5676354383458	1.06267737992585	0.00142511381153966	-60.5487463690461	0.00122587500687449	-60.5562589007785	-50.7296588617896	-27.4940643176097	
