!Keysight Technologies N9950B: A.12.38
!Date: Wednesday, 26 April 2023 20:16:39
!Timezone: (UTC-06:00) Central Time (US & Canada)
!Model: N9950B
!Serial: MY61131330
!GPS Latitude: 
!GPS Longitude: 
!GPS TimeStamp: 0001-01-01 00:00:00Z
!GPS Seconds Since Last Read: 0
!CHECKSUM:0202876496
!Correction: S11(ON U)S21(ON U)S12(ON U)S22(ON U)
!S2P File: Measurements:S11,S21,S12,S22:
# Hz S DB R 50
800000000	-7.02455015624598	-177.779699914754	-1.45990668869108	-80.9337550134285	-1.47244454735188	-80.9618045885501	-7.00812778258243	-172.656188514357	
801700000	-7.00962970080735	-177.868522731832	-1.45725627617884	-81.1871293646007	-1.47899995546899	-81.1881817414598	-7.03695343724921	-172.435322734068	
803400000	-7.03042443041753	-178.00091692974	-1.46138268031112	-81.2567290226442	-1.47923465532777	-81.283781564504	-7.02377770604902	-172.736622131703	
805100000	-6.98791007029942	-178.329731163859	-1.47012573640143	-81.5144642494266	-1.48100338367859	-81.4590742156546	-7.00376270647792	-173.058622064299	
806800000	-6.99136200654556	-178.512380815362	-1.46637466788167	-81.5224879957661	-1.47899959040171	-81.6600016453345	-7.02419634858159	-173.161107479344	
808500000	-7.04116336904668	-178.477221608935	-1.46981940606512	-81.7431707156784	-1.49305558466399	-81.678244743597	-7.03180088935826	-173.068300019568	
810200000	-6.97955192725984	-178.635236905858	-1.47768712065469	-81.8586271319962	-1.49204587593137	-81.8575633452252	-6.99321271194657	-173.483632469889	
811900000	-7.00582579452689	-178.638869931948	-1.46708589911962	-81.8790177839506	-1.47451502991555	-81.9520397686255	-7.01269567440991	-173.494510533747	
813600000	-7.02036131578875	-179.101909520648	-1.48940890746805	-82.1428037128078	-1.48171112463843	-82.0916248918187	-6.98896859086348	-173.75032962049	
815300000	-7.03067248645736	-179.120393562605	-1.47240928029911	-82.3946516592799	-1.47344185264834	-82.3589037348857	-7.0158760454006	-173.699708025638	
817000000	-6.96108231710738	-179.552385123888	-1.47822595262427	-82.3706648718507	-1.49259370011764	-82.3937088832467	-6.98819120284797	-174.000338180757	
818700000	-6.97284218088919	-179.655196424144	-1.4838563191678	-82.6138614069092	-1.49490285224782	-82.5762177305497	-6.99704423616407	-174.020382449326	
820400000	-6.99444000024377	-179.620872268739	-1.48746125318743	-82.5988411169024	-1.47925777118231	-82.6857642005329	-6.99000757781486	-174.321750170205	
822100000	-6.98516944891885	-179.99154873163	-1.48431008077448	-82.8945439079348	-1.50043123911373	-82.854659965916	-6.99445247623432	-174.391432712643	
823800000	-6.98853619721716	-179.863786483223	-1.47214019274997	-83.0096425695422	-1.48691924912824	-83.065033459788	-6.99999748730557	-174.485826059137	
825500000	-7.00541673518421	179.828727850605	-1.48791713221807	-83.1966196225945	-1.48234889116556	-83.2387296796963	-7.02206985361431	-174.284334927083	
827200000	-6.96801699650245	179.962535477301	-1.46800297749386	-83.3190562545201	-1.50135911704639	-83.414042630468	-6.97940686762815	-174.644207492183	
828900000	-7.03680085149843	179.551852788711	-1.49039633230331	-83.3466203329343	-1.48726803940748	-83.5159406954889	-7.00378181476196	-174.638390256152	
830600000	-6.97602406185028	179.63452276785	-1.48724797142613	-83.5976327005169	-1.48847456848195	-83.6805810558253	-6.98267569486785	-174.816027346557	
832300000	-6.97503614688052	179.376763992662	-1.4713291830232	-83.8139367872985	-1.48664720389013	-83.7757829157411	-6.99010428699921	-175.086496821541	
834000000	-6.97563492067269	179.416549521981	-1.47878357210809	-83.8784256879917	-1.48883071009802	-83.9518912917684	-6.9716972505831	-175.116252607033	
835700000	-6.97989404069275	179.147137436086	-1.47985741423337	-84.1518403937114	-1.48703509134876	-84.0454513103076	-6.99491932285586	-175.466447136034	
837400000	-6.98972135861838	178.900284190442	-1.49424837847618	-84.2401761338683	-1.50238747852717	-84.2826361319515	-6.986410889212	-175.470571780403	
839100000	-6.95667551270381	178.818780843123	-1.49415066787256	-84.3908480702464	-1.49332829245604	-84.3589411352198	-6.95327732482799	-175.484917885126	
840800000	-6.98162209845269	178.764572891509	-1.47728607752895	-84.582139339408	-1.49282593544508	-84.5338155412762	-6.98565472579132	-175.590594939725	
842500000	-6.98162406738401	178.626049862639	-1.48525098466741	-84.6702528645822	-1.48218988365404	-84.6720171418798	-7.00300632920119	-175.797313384017	
844200000	-6.98550753564605	178.24595222246	-1.47576574634745	-84.8205612881824	-1.49836357794084	-84.840428423455	-6.97004773113151	-175.741690991952	
845900000	-6.98277431769656	178.258877022458	-1.4757792869258	-84.9560394226461	-1.4993446961759	-84.8850521487254	-6.9523834639366	-176.123538771575	
847600000	-6.98033258158609	178.12983172745	-1.49361925047687	-85.0526085347873	-1.4899445405858	-85.1085236488873	-6.9889870661434	-176.449594954184	
849300000	-6.96811525055853	177.997969558877	-1.47905814715099	-85.2951718074547	-1.48307780482624	-85.2878647144753	-7.00928841678636	-176.418462588676	
851000000	-6.99401394018681	177.959259758736	-1.48325277002922	-85.324629177564	-1.50494697091741	-85.4729499699719	-7.00571867273334	-176.441790708396	
852700000	-7.01291834376898	177.68003041243	-1.49328774707928	-85.6165603081648	-1.48934466886417	-85.5958953434851	-6.97347319824182	-176.703921289563	
854400000	-6.99277547661897	177.466504786484	-1.48177458198161	-85.7133252983869	-1.49018282169537	-85.6547512752461	-6.96513260759764	-176.857019980872	
856100000	-6.99213370823967	177.473155072794	-1.48716152881617	-85.8940725435353	-1.49594022203434	-85.9289401465362	-7.0061854745329	-177.092118841682	
857800000	-6.95506113874243	176.971088257754	-1.48399887130702	-85.9882702273343	-1.51095951876454	-85.942951251432	-6.97296893797702	-177.118043566749	
859500000	-7.01022464297247	177.17353539869	-1.48669807195455	-86.157080633773	-1.49193369940123	-86.1501266540869	-7.01809086636256	-177.078183963802	
861200000	-6.97510321363072	176.964132312879	-1.49833694102061	-86.3630743034225	-1.50147790374847	-86.3311275858753	-6.95858601140476	-177.405654833293	
862900000	-6.97592362094587	176.887175348458	-1.47751835800579	-86.4996693721693	-1.49942078102713	-86.4701662405053	-6.94913918659261	-177.400066566735	
864600000	-6.95212338044602	176.641216562812	-1.48037669867482	-86.5526998996112	-1.49749579321364	-86.6310775066236	-6.95178672265104	-177.673490950258	
866300000	-7.00339991971179	176.702995012427	-1.47753453152512	-86.7690891315624	-1.50141593978021	-86.7409817486658	-7.0337938008194	-177.768135559377	
868000000	-7.00103449012695	176.388734213464	-1.48767338180621	-86.8733292117126	-1.49572772789024	-86.9549340959506	-6.99591402349533	-177.869961342319	
869700000	-6.98448185666662	176.190253231258	-1.48320590498831	-87.0394228583668	-1.49621452955332	-86.9274162782888	-6.98981710150854	-178.008523773886	
871400000	-6.9799078048911	176.230699653525	-1.49897735115811	-87.2411042373213	-1.48055424148113	-87.1800906211995	-6.9941667801435	-178.117792712397	
873100000	-6.9715146346391	175.840947243755	-1.48575719439643	-87.3018791957322	-1.49210494803381	-87.3855801952832	-6.96973399282782	-178.198376034195	
874800000	-6.98914154366985	175.803564991232	-1.49027375728113	-87.5877932126057	-1.506180669559	-87.4780541040341	-6.9911923832557	-178.357211657171	
876500000	-6.99632986000952	175.418960599323	-1.48426698904713	-87.6809824716656	-1.50663442471514	-87.6176885611143	-6.99935323275773	-178.629521697524	
878200000	-7.00379397141873	175.391536451299	-1.501587852444	-87.8008076473613	-1.48990584888079	-87.829841951296	-7.03016187627543	-178.571629410124	
879900000	-7.01973220616774	175.251970669603	-1.49725781809791	-88.0078467902941	-1.49357283397055	-88.0660216961369	-6.97622261125225	-178.600285222101	
881600000	-6.97812004954377	175.32828445568	-1.48912674427378	-88.1831096296261	-1.50011084629613	-88.117444110052	-6.99466843051052	-178.900724382272	
883300000	-6.99558519910778	175.26357736922	-1.49724476981246	-88.2449519433618	-1.50499791737726	-88.233745200329	-6.98860234301124	-178.933869726253	
885000000	-6.98617396927083	174.940232440163	-1.48957018353229	-88.3377157874087	-1.49495892331692	-88.4231059792689	-6.97521086115349	-179.238611876012	
886700000	-6.99783722577145	174.817251503076	-1.48972079761057	-88.5564826127044	-1.49615398552284	-88.5977224617865	-6.96522680175784	-179.257362433941	
888400000	-7.00898656517792	174.649080992102	-1.48502914784699	-88.6898052044031	-1.49476070050565	-88.6622444077317	-6.99019301732563	-179.405617663783	
890100000	-7.02741890835244	174.772287550139	-1.49164440217982	-88.8669899153163	-1.50635686663264	-88.8872122504045	-7.01246367407374	-179.604577425624	
891800000	-6.9869737433267	174.430346397475	-1.48196978912074	-88.9967097410137	-1.48966996328432	-88.9763129116662	-6.98372648184561	-179.602501711584	
893500000	-7.01597762272119	174.25478130664	-1.48762499315155	-89.1146039030109	-1.48010132220689	-89.2058763591186	-7.00476643976331	-179.919608369899	
895200000	-7.01070563004418	174.116534485788	-1.49135331715415	-89.3246776504019	-1.49433127251192	-89.3292003643392	-6.99120971773498	179.974092053243	
896900000	-7.01955126191767	173.929475952031	-1.49136151554375	-89.4924089828087	-1.49737977055796	-89.5027239346184	-7.01183985624239	179.946873120203	
898600000	-6.9969552940522	173.694467516883	-1.49323653135522	-89.7141119242355	-1.50416912715276	-89.6622093078272	-7.0244166862926	179.678246537398	
900300000	-7.01340161295535	173.646250678527	-1.49102676572878	-89.7652516824001	-1.50051438718429	-89.7607111913056	-7.0144730807237	179.737463672588	
902000000	-6.98040355336197	173.54453930592	-1.49033866714622	-89.856816127731	-1.50905535213043	-89.9834503984564	-6.97959205069037	179.706261972274	
903700000	-7.02617309090979	173.332548902024	-1.50058887162795	-90.0283240416904	-1.48888169492786	-90.0300647440017	-7.02190776190407	179.32123523433	
905400000	-7.05121207967227	173.15475692747	-1.47965199889334	-90.2968397405432	-1.50061212956342	-90.3116325818179	-7.03926417701992	179.235013740671	
907100000	-7.01066565211457	172.906788280642	-1.49069469868164	-90.3256821470101	-1.50290677955779	-90.4044731091091	-6.9926475543275	179.134731202087	
908800000	-7.01159000849544	172.844502679525	-1.50611251865447	-90.4924345806192	-1.50429944251441	-90.5159357126808	-7.02001679293588	178.921122538403	
910500000	-6.98706679289915	172.779446015738	-1.50040006259548	-90.7244070043326	-1.50332572263187	-90.6726966351955	-7.00589710752677	178.87906089443	
912200000	-6.99093658308659	172.549756944232	-1.48914150516055	-90.8097723566984	-1.50720934218526	-90.8234501970327	-7.00001832039868	178.668996098399	
913900000	-7.03563023278358	172.614066309981	-1.49648587686036	-91.0022438455004	-1.49868226873823	-91.0042059240612	-7.03838103279086	178.642031022909	
915600000	-7.0126304073197	172.397585707653	-1.48583390461637	-91.1746319350355	-1.51188240597982	-91.1045071595385	-7.03432104146754	178.656684223198	
917300000	-7.02624699526397	172.124364392879	-1.50683749364986	-91.3641096852548	-1.50371385409892	-91.2661556424946	-7.03920795325062	177.820141304942	
919000000	-7.02338826002866	172.03100473338	-1.49013416091446	-91.4769381946	-1.49996093549101	-91.4188114006732	-7.02508467646737	178.104923610678	
920700000	-7.02734940709437	171.948894595986	-1.49887907391164	-91.5805233475806	-1.51108774492837	-91.6084081368825	-6.99110520334638	177.959453694842	
922400000	-7.0143903654368	172.040729096956	-1.47773628320842	-91.5459744309168	-1.50871561229996	-91.8066180945601	-7.02726425074153	177.859226665712	
924100000	-6.97496324812634	171.531147231224	-1.50236745778873	-91.8184149698103	-1.507069107563	-91.8982087482616	-7.02706471545446	177.730299723785	
925800000	-7.04370789177632	171.662710620367	-1.48940123263402	-92.0355207280492	-1.50552238926678	-91.9606271906144	-7.04992808183301	177.380053369979	
927500000	-7.01873134313727	171.24687268669	-1.49525592857523	-92.2785500900517	-1.52297274747052	-92.2246492255654	-7.04258132549165	177.110679455345	
929200000	-7.02187588330458	171.098275047095	-1.50387851749352	-92.3170543368627	-1.50167788710611	-92.3982428013418	-7.05445923033777	177.200493499864	
930900000	-7.01929328296939	171.052510818295	-1.50086888282861	-92.4599339997105	-1.51868378245115	-92.4699813507521	-7.03702260004099	177.101037212041	
932600000	-7.03391087146516	170.881105627637	-1.50428512765523	-92.6417519520839	-1.51066934192684	-92.7246803188662	-7.04718463830729	177.096828480962	
934300000	-7.05780816239022	170.795160393427	-1.5009610231173	-92.8409243608493	-1.51485144562374	-92.7789407923254	-7.0708316095046	176.875150549062	
936000000	-7.07990922078676	170.515991430789	-1.4940253256666	-92.9001425601174	-1.49997424796148	-92.874910369267	-7.05922927732972	176.742898528381	
937700000	-7.05848546215958	170.540966991589	-1.505864399184	-93.0266786158937	-1.51222208343699	-93.0972461006397	-7.04624477665098	176.523752942086	
939400000	-7.05683160333558	170.368809305187	-1.4914687629752	-93.2402083685772	-1.50728764944098	-93.2201272995821	-7.04069454232899	176.607140015852	
941100000	-7.04343235501582	170.005158508451	-1.49103975303678	-93.3726506759653	-1.50867583145231	-93.4069093689857	-7.04802226770121	176.227770810074	
942800000	-7.039863288523	170.098071303767	-1.50656198936891	-93.5059295706666	-1.51574052550136	-93.4689285802066	-7.0272028631641	176.197626300284	
944500000	-7.03893497693777	169.753716499627	-1.49737481798787	-93.7361474561837	-1.49859463249853	-93.7387902715091	-7.07619631732019	176.065449863146	
946200000	-7.05158472088625	169.605810320478	-1.49286013802627	-93.7894956636894	-1.52353045441702	-93.8741697671639	-7.05912560401979	175.67126106981	
947900000	-7.06708752571945	169.644605531999	-1.50008018773117	-93.9700805914971	-1.50359251203346	-94.0126720490796	-7.04465065257953	175.577146436878	
949600000	-7.03725500451674	169.35917079659	-1.48093217353986	-94.1380128419038	-1.51179601550439	-94.1791003167984	-7.0407311256374	175.544818624031	
951300000	-7.0362334930711	169.426760965467	-1.50535153616781	-94.3048321056916	-1.51798231096868	-94.2999667072004	-7.03666055841199	175.382377828897	
953000000	-7.065246771488	169.176607780237	-1.50345666908059	-94.3314914281977	-1.49856719879992	-94.4488474189342	-7.05513124807948	175.134619372857	
954700000	-7.07454066642346	168.818235531422	-1.50873214285799	-94.5822011429151	-1.50472846174394	-94.5500897613865	-7.07047249853531	175.190038345047	
956400000	-7.05645388988439	168.843112754957	-1.49132139023908	-94.7227076997523	-1.50974786282848	-94.750703412828	-7.07525441012696	175.160840815085	
958100000	-7.09699906586495	168.565090434837	-1.49281105369584	-94.8808326239919	-1.51162881064187	-94.9323612775338	-7.07557558669934	175.070448366111	
959800000	-7.09814369046374	168.538965266798	-1.48768194992134	-95.0495745801092	-1.50221599114305	-95.0800636846193	-7.06802944376408	174.818454010379	
961500000	-7.08162784275623	168.292529211119	-1.49080537368544	-95.1655453692617	-1.4954397896301	-95.2201408967495	-7.09489208086984	174.500505045031	
963200000	-7.12156348310836	168.360340221072	-1.49998601124641	-95.446965593138	-1.50074458060055	-95.3222871845348	-7.09560756581342	174.675316059458	
964900000	-7.1069440028228	167.853557354835	-1.49917344117567	-95.4804991839459	-1.498850372384	-95.4710428972266	-7.06936747287547	174.420957649117	
966600000	-7.08896888433104	168.285814081411	-1.49079293465033	-95.6048225469814	-1.49428198829074	-95.7334330546263	-7.07004077698326	174.399260840023	
968300000	-7.08768335636028	168.007074856319	-1.49396616038319	-95.8068206599999	-1.50230993745779	-95.7227474692912	-7.09329687597511	174.042631785795	
970000000	-7.07470087221736	167.593109652125	-1.47587148712457	-95.973192431479	-1.48849436415968	-95.9433458252878	-7.07612381952327	174.039647294268	
971700000	-7.1079966585498	167.486325381867	-1.4648242241858	-96.1698514046009	-1.50028365547716	-96.0310978534091	-7.09775134460038	174.06516471044	
973400000	-7.11035790509742	167.439021861904	-1.47285428559282	-96.2452427351949	-1.5008262017559	-96.2327916995354	-7.11866423870605	173.645197587305	
975100000	-7.12100137313002	167.235986941922	-1.49797119939987	-96.2491921175948	-1.49416196429573	-96.3905141581498	-7.10773199258109	173.684083623262	
976800000	-7.13682509866294	167.046255032536	-1.49383683571184	-96.5596564806491	-1.49651342342293	-96.5442704095708	-7.10620917855334	173.391198948366	
978500000	-7.11302509834875	167.010317024531	-1.4769456973427	-96.7185807593816	-1.48304133464872	-96.630181836615	-7.1340638570347	173.16034475649	
980200000	-7.15173042930582	166.647303637501	-1.4855442914493	-96.769978736476	-1.50102538893818	-96.7079292880063	-7.12646241657196	173.358056733296	
981900000	-7.12714462302727	166.608715035373	-1.48159258708162	-96.9658251311741	-1.50194799432356	-96.9159001916244	-7.16274478036441	173.009860299969	
983600000	-7.1488451391286	166.425035508063	-1.48018175208014	-97.1108125561343	-1.49457868944549	-97.1396987560677	-7.12558604526657	172.759572329499	
985300000	-7.13016308136478	166.580404317368	-1.47875016328624	-97.2326384734595	-1.51055662971147	-97.2728389719743	-7.15506772653763	173.055571675671	
987000000	-7.16902382269442	166.385133111538	-1.47791334185708	-97.4504989532455	-1.49350083466614	-97.425270367928	-7.117942990096	172.676932121084	
988700000	-7.15184978026716	165.804292371594	-1.48087255697502	-97.6616239961435	-1.50261976252107	-97.6143053902672	-7.14738054259462	172.522093250871	
990400000	-7.14806240872419	165.630826347384	-1.48853754485823	-97.7855243311969	-1.48690041502692	-97.7394517415151	-7.14574892864797	172.37852610117	
992100000	-7.14631277452215	165.833607527717	-1.4798845120993	-97.9148929525893	-1.4836014183181	-97.8355078143539	-7.15514454467925	172.345964933767	
993800000	-7.16875996156773	165.328112035432	-1.48880660742391	-98.0969139404073	-1.49362911324733	-98.0274311470342	-7.15212790969917	171.9880362905	
995500000	-7.18014658995585	165.454870978487	-1.48036243089492	-98.2655120031396	-1.4819145170694	-98.2296522628442	-7.15124839003178	171.952489361215	
997200000	-7.18038700789689	165.393652245476	-1.46752823468016	-98.3960217744645	-1.4873378727973	-98.2795993553373	-7.17826078523792	172.031541666564	
998900000	-7.18477686702037	165.27147589672	-1.47852621235591	-98.5696868163992	-1.47400509095325	-98.4897597749103	-7.15528282509252	171.776475572899	
1000600000	-7.19429632801563	165.076714947324	-1.46973375876571	-98.6544574582176	-1.48860548227249	-98.6846119545271	-7.16494343875886	171.678575892799	
1002300000	-7.21324129983956	164.911139313091	-1.48966653868466	-98.8713417658892	-1.48088885235968	-98.8609646012302	-7.20554983207321	171.297354759839	
1004000000	-7.22464631740758	164.938537665062	-1.48818082014082	-99.0320234721832	-1.47542054056912	-98.9543832551317	-7.20718450481716	171.228959825752	
1005700000	-7.19952410309194	164.763535064012	-1.47139648566621	-99.0014338952068	-1.46430151203877	-99.1663051969688	-7.1879838788579	171.179444433259	
1007400000	-7.22503168102239	164.661307015754	-1.47853249542902	-99.1822676434338	-1.47193646804145	-99.2292401574017	-7.21042133513216	171.296991930074	
1009100000	-7.22194358094456	164.388420465732	-1.47276494836968	-99.4196050856962	-1.48913533524476	-99.3228030686526	-7.21621697352682	171.167566527766	
1010800000	-7.21666088560427	164.249638189516	-1.45885990451869	-99.5312985116085	-1.48386749952157	-99.5511547645081	-7.2388055019261	171.106245159435	
1012500000	-7.20729428304003	163.99475695685	-1.45813701121193	-99.7674164514458	-1.46915779460081	-99.7358785767329	-7.23773553062622	170.7443577815	
1014200000	-7.23529527348484	163.816374749076	-1.45675947856056	-99.889299578975	-1.46977907721186	-99.9922230072375	-7.24584371922082	170.571845287782	
1015900000	-7.25385001864926	163.914527312282	-1.47240135941227	-100.082341734169	-1.47410303761319	-100.100963186426	-7.24768814753227	170.564564210577	
