!Keysight Technologies N9950B: A.12.38
!Date: Wednesday, 26 April 2023 18:50:18
!Timezone: (UTC-06:00) Central Time (US & Canada)
!Model: N9950B
!Serial: MY61131330
!GPS Latitude: 
!GPS Longitude: 
!GPS TimeStamp: 0001-01-01 00:00:00Z
!GPS Seconds Since Last Read: 0
!CHECKSUM:0372557894
!Correction: S11(ON U)S21(ON U)S12(ON U)S22(ON U)
!S2P File: Measurements:S11,S21,S12,S22:
# Hz S DB R 50
800000000	-50.0597194803314	-7.05614036335501	-0.00287497527719018	-48.1201884598967	-0.00626789701357687	-48.0499610101508	-52.1042832375902	16.6801906968592	
801700000	-50.190531600951	-15.7166357206328	-0.00266594639486766	-48.1845300103731	-0.00594415066683745	-48.1789870387614	-52.2180947671371	6.69279338630784	
803400000	-49.8864499425754	-25.8764291683456	-0.00334259858719775	-48.3059358693899	-0.00562190087462188	-48.3181463226201	-51.979464074984	4.63389754798224	
805100000	-50.5742663505855	-25.6988417257678	-0.0039213782639185	-48.416435530374	-0.00560682866454558	-48.4197327942446	-51.9680888157033	4.05951784915258	
806800000	-51.3472949423087	-21.6361627320365	-0.00440639882295999	-48.5011005461306	-0.00552539374144313	-48.5161618851994	-51.7673630324104	8.66204547186877	
808500000	-51.5549639278984	-22.4257122347983	-0.00512144402433148	-48.6105467272305	-0.00543064080008369	-48.6219895508903	-51.7211911328304	10.3397419360731	
810200000	-52.3094553802994	-28.5943572315434	-0.00493700397451992	-48.7117626574831	-0.00607422274959503	-48.721269475173	-51.6746384912087	13.588720526312	
811900000	-52.3962291608035	-24.3734795789266	-0.00581862344605003	-48.816053123039	-0.00674531459292233	-48.8230891202366	-51.5679161993641	14.9515850339556	
813600000	-52.6971074692992	-23.0055236402411	-0.00673086475647483	-48.9137930688065	-0.00683091933669593	-48.929069188124	-51.0370501609569	13.4329412690054	
815300000	-52.873389623896	-23.7829226891947	-0.00705933960987009	-49.0164118559313	-0.00744198891069572	-49.035813729543	-51.442756658733	14.0128734058211	
817000000	-52.9969612033218	-21.1569093222076	-0.00806554969584576	-49.1216434205163	-0.00670901050475045	-49.1415530979099	-51.4631558054192	12.9922542702912	
818700000	-52.6765049252605	-20.0522002401287	-0.00843348259243652	-49.2141623681941	-0.00640463249794913	-49.2407411964217	-51.5086450093028	14.3817412260232	
820400000	-52.5563285516425	-19.7406038956687	-0.00957288975474949	-49.3152673676698	-0.00646923943097896	-49.3397046635214	-51.7842964335788	14.9898887194323	
822100000	-52.9661751366318	-22.7279937066818	-0.0088493730921673	-49.4131503336126	-0.0060591941269401	-49.4454437855831	-52.0444214072039	15.2705371258079	
823800000	-53.0643506973071	-20.2485328985412	-0.00936782978688909	-49.5127729673733	-0.00700560650176101	-49.549000735725	-51.9519761932604	16.9529134214485	
825500000	-53.3067026190692	-19.0670664779726	-0.00919779936796277	-49.6226152703553	-0.00735346424713774	-49.6528250545795	-52.143385056067	14.8686089602057	
827200000	-53.3285013926993	-21.7769900143311	-0.00963273778033168	-49.722559170499	-0.00748294615228743	-49.7593667908449	-52.0772680929647	11.5648391149867	
828900000	-53.6493752523623	-23.3314587780019	-0.00918145148461438	-49.8145332653765	-0.0090803316913732	-49.8554576319452	-52.0169560878413	11.4505042894605	
830600000	-53.0763790439091	-22.9885869358412	-0.00926391266201602	-49.9226374160492	-0.00913153927725456	-49.9552975243605	-51.6406546143653	10.5031488338816	
832300000	-52.8928423967996	-13.4740369549502	-0.00876907644887825	-50.0251401339849	-0.00930990693407232	-50.0567591387608	-51.4672991684205	8.09745789250055	
834000000	-52.9796017985142	-12.3270755906433	-0.00729957782303555	-50.1368915953041	-0.00907200242526151	-50.1538331607304	-51.8956922342787	2.45172366684025	
835700000	-52.3877438633675	-16.0846898368867	-0.00735338175190944	-50.2397336897132	-0.00932079439134447	-50.2595877538911	-51.8262472589045	4.64056584572076	
837400000	-52.4104306985349	-16.176175429914	-0.00779004630320364	-50.344773353695	-0.00849013775748446	-50.3585207671428	-51.5997579324046	4.93144508140252	
839100000	-52.1028667924946	-18.310693074939	-0.00691265471022212	-50.4480397289673	-0.00938216753050835	-50.4618841747745	-51.9101792111897	6.94206481846993	
840800000	-52.1393763624228	-15.6815747574962	-0.00625006665657345	-50.550298831842	-0.00835262000858776	-50.5565791022746	-51.8477604763859	7.01334515190539	
842500000	-52.2453210077208	-16.3254015687896	-0.00506760079514244	-50.6522015275014	-0.00859549912287439	-50.6529790024928	-52.3153006088684	8.98557624432175	
844200000	-52.3329203281677	-15.6874745860867	-0.00565343984031387	-50.771722054361	-0.00937686698446738	-50.7595212330491	-52.1091845528883	11.0411495869762	
845900000	-52.60078072581	-7.36280561226811	-0.00545033578225018	-50.8665314286529	-0.00932092356088323	-50.8518073004581	-52.4237131556812	9.44043185077863	
847600000	-52.4477533175126	-2.63603596411502	-0.00629514833179846	-50.9720300502021	-0.00849666410804087	-50.9494814452955	-52.1056968511055	9.68639911476192	
849300000	-52.7490256062674	-1.73760268045898	-0.00639966832901841	-51.0734894558401	-0.00809531704287073	-51.0486079256547	-52.3340764770781	5.31700097312031	
851000000	-52.5960249608253	-2.68642638465928	-0.00528225080566649	-51.1723726500141	-0.00750276639266995	-51.1515259954423	-52.6827926766558	1.31210996275195	
852700000	-53.0037570583031	1.36480576246595	-0.00389494597134803	-51.2762209859119	-0.00759597621868695	-51.2489955881849	-53.0144893639383	0.802199713163965	
854400000	-52.8206712920096	2.24140264270225	-0.00317883413051545	-51.3874268915242	-0.00674483248730177	-51.3493130616967	-52.9912719274266	2.86989176717189	
856100000	-52.80717576402	6.41987418721899	-0.00274553433904218	-51.4816502465446	-0.006854597793882	-51.4563241699414	-53.3061486510442	2.03064744261429	
857800000	-52.2738305948791	5.82204498673243	-0.00318265180157177	-51.5864243826404	-0.00607893038531721	-51.5552603079385	-53.7564998773805	4.5207206371151	
859500000	-52.1220066402349	4.00161822580241	-0.00422692928661081	-51.6865865520373	-0.00612332357159576	-51.6581520363531	-53.1508815085879	7.82350475821801	
861200000	-52.2911551087584	7.66644985714442	-0.00440166997697754	-51.7796817119005	-0.00576641990930368	-51.7611260460336	-53.2938435975033	2.67320459593685	
862900000	-52.3224505054441	9.43138628135121	-0.00331802449020877	-51.8799664440099	-0.0064886047480679	-51.8643987930692	-53.5608361882731	-0.63118242312432	
864600000	-52.3213441257739	13.7703805060576	-0.00317087380534694	-51.9871146286125	-0.00554973943855164	-51.9661162604334	-53.8679910595853	-0.997296823817005	
866300000	-52.4807744696135	14.8642271256067	-0.00423996796273054	-52.0931682203312	-0.00533670588197187	-52.0739167932054	-53.5872612525722	-0.683051419518702	
868000000	-52.3429638195734	15.336160334253	-0.00547070692526969	-52.1958397846121	-0.00564319279457657	-52.179970611134	-53.330058332275	-4.1168452288199	
869700000	-52.2385838554654	15.7225115971839	-0.00463543269213674	-52.2951655049442	-0.00526979743209138	-52.2784538755288	-53.5501659733642	-7.37213931045973	
871400000	-51.9229061636158	8.07186062910521	-0.00555562189238161	-52.401828423901	-0.00483716150399345	-52.3860938542585	-53.2022397384491	-9.34290002402038	
873100000	-52.1261740079701	7.65711467010277	-0.0060380418831956	-52.5069248593555	-0.00518109446175311	-52.4919722109292	-53.9076382744451	-10.9267524509024	
874800000	-51.9044562844277	8.41980974686688	-0.00631925957363858	-52.6096524065767	-0.00584838446151012	-52.5916388604365	-53.4383472462963	-11.9201596468362	
876500000	-51.769598552463	11.2265507473086	-0.00590751327942264	-52.7178872947693	-0.00609084868078859	-52.6914117508011	-53.0094047673483	-8.65332973921844	
878200000	-50.9785330131708	8.73904398504239	-0.00715828819160179	-52.8190824069453	-0.00633574575189828	-52.7982488594801	-52.5113674299776	-5.92912025270239	
879900000	-51.2204988510322	10.0141943681179	-0.00783433804159007	-52.9198172630319	-0.00585105205024803	-52.9052594079558	-52.5884248779762	-9.18522060954776	
881600000	-50.9796263445954	10.0696423372977	-0.00772254049800284	-53.0212736300687	-0.00567241007357928	-53.0091899569751	-52.462213029606	-9.59227618125307	
883300000	-50.8079646091564	8.5399857483219	-0.00713199994371163	-53.1204639866549	-0.00633659792928609	-53.1203666922931	-52.3982241835558	-10.4383087485708	
885000000	-50.5258427146719	10.84813874421	-0.00821385869095895	-53.2217946549855	-0.00673164510199819	-53.2315533540554	-52.346407291315	-13.0816167733532	
886700000	-50.3969246864849	9.61143691170659	-0.0088265518448886	-53.3322618042115	-0.0061589860172585	-53.3293193813083	-51.9358951828777	-11.4731098360849	
888400000	-50.2426188494683	9.7775794120458	-0.00963028844740807	-53.4369648388678	-0.00618046775159275	-53.4343755217062	-51.6252163379296	-11.8261262731544	
890100000	-50.4554038777975	5.19000982759811	-0.0102220726754584	-53.534680352553	-0.0057451590535388	-53.5334309949012	-51.1653629638078	-15.4490370211838	
891800000	-50.2039421282328	5.72878208490831	-0.0100790918251721	-53.6291698148322	-0.00579416204528473	-53.6325998085966	-51.2434897912212	-16.7161351200685	
893500000	-49.9286490631636	5.06571640381439	-0.0082447351983172	-53.7360337937728	-0.00540573062681482	-53.7356686512923	-51.0545975991198	-16.2108401507269	
895200000	-50.016531811741	7.9335457276016	-0.00761661254507953	-53.833905852737	-0.00585500995786745	-53.8381122963225	-50.8129924916321	-17.6151569462368	
896900000	-50.006563172337	10.0023506891912	-0.00750463558947705	-53.9350146536891	-0.00591055483029418	-53.9417655860251	-50.6336212859005	-16.554391085882	
898600000	-49.9904547811948	6.74125217099186	-0.00675098575960977	-54.0301449015769	-0.00519928122638363	-54.0362621379008	-50.0494574831765	-16.468248389871	
900300000	-49.7836796944928	5.65076119149322	-0.0058237172993482	-54.1314678215641	-0.00437865351239427	-54.1457324333188	-50.2222529457455	-14.4652912745072	
902000000	-49.6434228068773	3.09062886989263	-0.00743541691354843	-54.2339013999843	-0.00354500473076658	-54.2484319738623	-49.8805095400461	-13.7075797307505	
903700000	-49.7754390941008	1.89788570383898	-0.0073030565668037	-54.3399458887872	-0.00385573126995308	-54.3449716035551	-49.4478675862829	-15.4877531998115	
905400000	-49.7671201142495	1.75089370128543	-0.00769210571880022	-54.4368846243713	-0.0038797067473898	-54.4465259483489	-49.3867821359498	-12.150512109927	
907100000	-49.7926705170004	0.56312271302656	-0.00828834749167298	-54.5469506951707	-0.00323121086874025	-54.5459563399155	-49.1795204068537	-13.1801850619497	
908800000	-49.7518232126056	-0.330607133198458	-0.0089442340413382	-54.6452755457086	-0.00317842853354575	-54.6405154124688	-48.8742356021971	-17.5942783156165	
910500000	-49.683223462861	-2.48643455071423	-0.00718301761765711	-54.7458933792907	-0.00273746191586474	-54.7458057057944	-48.8245780928242	-17.5163110429684	
912200000	-50.012785457188	-6.76894668557369	-0.00615935335243474	-54.8437842613431	-0.00170972312919323	-54.8477695036511	-48.8278523175098	-18.8523903921334	
913900000	-49.7124173056058	-7.61640258830319	-0.00555331541622322	-54.9475868684696	-0.00108124443249369	-54.9415635611923	-48.9870558565942	-17.0468037160721	
915600000	-49.5625536208038	-6.20549624084722	-0.00522725258222785	-55.0551411065754	-0.00239793384892422	-55.0410376182398	-49.2808063223204	-14.4621889287536	
917300000	-49.6905125738036	-8.55260787826516	-0.00463516158593361	-55.1593863282839	-0.00264628140480698	-55.1520949920892	-49.2461092110314	-13.4942441061715	
919000000	-50.1827431542444	-10.1983563539226	-0.00505694459454122	-55.2573301752957	-0.00220625828416619	-55.2515719255738	-49.4310740239518	-13.2868074675881	
920700000	-50.0696373470878	-13.057214979037	-0.00618537761321244	-55.355743844892	-0.00191213548242424	-55.3516932053197	-49.2854315543455	-13.1292710226733	
922400000	-49.8528864839605	-14.6689665521373	-0.00643233573647965	-55.4592428623953	-0.00252008371609798	-55.4481494847312	-49.0950109474024	-13.0419299669836	
924100000	-49.4176422043684	-11.8342940586382	-0.00590612038935292	-55.5668843535607	-0.00334609754931214	-55.5468105522457	-48.9963733476128	-11.6596913652037	
925800000	-49.1594432328291	-12.6504688757441	-0.00549360342708849	-55.6680661273594	-0.00405487482722743	-55.6493850508589	-48.9438707839282	-10.1591135515296	
927500000	-49.2266269300333	-12.7293442615964	-0.00519936416266817	-55.7665374578236	-0.00432900417011212	-55.7507744712901	-49.047853999795	-11.5398892318595	
929200000	-49.3813822374956	-9.71565706003182	-0.00497265977682045	-55.8702969259475	-0.00504582805214053	-55.8529014496225	-49.3139768682204	-11.382666342415	
930900000	-49.4320551539219	-12.2023947320241	-0.00535321074298629	-55.9753249554418	-0.00554307942165477	-55.94934148502	-49.4920416082058	-14.75036211397	
932600000	-49.563512289546	-14.4550868238728	-0.00505708089986201	-56.0740013419184	-0.00665856081147213	-56.0507722790679	-49.3927249355322	-13.2371189469526	
934300000	-49.8646611371544	-13.9827361639229	-0.00419344379006246	-56.1740329785321	-0.00759909215808996	-56.157043150801	-49.5238879234961	-7.89432319611285	
936000000	-49.9884071577421	-13.6344355894942	-0.00557653454109979	-56.2768816645391	-0.00875081530711863	-56.248785636509	-49.8160859610827	-6.30784840605542	
937700000	-49.516067339819	-10.1968560205816	-0.00564622966457115	-56.3809791878441	-0.0106434805395717	-56.3545585367156	-50.0060885722083	-6.11899440869461	
939400000	-49.7728560954157	-14.3026969340549	-0.00536733878158446	-56.4840311180256	-0.0115355053293155	-56.4594712682527	-50.2567393168616	-7.79379991378359	
941100000	-49.6294702552314	-15.6428904863128	-0.00476222265937608	-56.5790466533536	-0.0110096602705549	-56.5608436546697	-50.3281368110101	-5.39679455728428	
942800000	-49.9552138192861	-14.907910948323	-0.00519405941709609	-56.6852217620796	-0.0107521779990634	-56.651503343999	-50.4021850482807	-5.54332905128624	
944500000	-49.8944517422076	-16.960248552392	-0.00569522282737484	-56.7821714078679	-0.0111434465441468	-56.7570222923307	-50.2645434024845	-4.76489742276586	
946200000	-49.9582320896052	-14.7409652440921	-0.00529996964828769	-56.881201426602	-0.0119927923326217	-56.861598054148	-50.4721403132211	-3.58379841191826	
947900000	-49.9424258757028	-14.223123957396	-0.00447973847570431	-56.9847099183478	-0.0119248695976759	-56.9722627503495	-50.7506352477706	-4.76297708340336	
949600000	-50.2285694296457	-15.9771878939398	-0.00497076644759892	-57.0823700176579	-0.010858068086227	-57.0859250555284	-50.8872043295582	-2.94273973828571	
951300000	-50.2771353855621	-15.5836005893918	-0.00610103845533004	-57.1880970216746	-0.00999092445323394	-57.1818814973095	-50.6654706875251	-4.40616087003612	
953000000	-50.4240708041201	-13.0119041274132	-0.00575629040937141	-57.2906600415478	-0.00905421641990431	-57.2891803505053	-51.0623355589435	-5.22729616805216	
954700000	-50.1277384472817	-16.4977060439346	-0.00538535355007778	-57.3832061925787	-0.0070866297363227	-57.3965979061246	-51.1091576277962	-6.5655703081639	
956400000	-49.8195009256571	-17.0616162236685	-0.00399479977774224	-57.4827532279953	-0.0071811446559799	-57.5012651160582	-51.2006813976936	-3.51230616579061	
958100000	-49.8985278303848	-17.1578426915714	-0.00294139535973685	-57.5890529638924	-0.00646412697378437	-57.5992801746838	-51.5531594018759	-4.16928984355556	
959800000	-49.6734850904287	-16.2684417180633	-0.00387245831001133	-57.694729432869	-0.00583917557993291	-57.7006157805009	-51.2711914196297	-6.6019783835199	
961500000	-49.8138547177681	-15.9029438972314	-0.00285264140813183	-57.7912074254964	-0.00522084967454961	-57.8083017740315	-51.1847816932068	-6.64878762862034	
963200000	-49.8674021627707	-15.6513157498529	-0.00296446943040388	-57.8864036887473	-0.0046473385219698	-57.9124786003117	-51.2873341583617	-6.07007989156806	
964900000	-50.057920549454	-12.2106703528492	-0.0038463360605595	-57.9962094817642	-0.00389662526755058	-58.0181603411334	-51.2202666398499	-3.7349161335938	
966600000	-50.1588849710973	-12.0021299773786	-0.00338376673685865	-58.1029291457858	-0.00337148672637931	-58.12678981141	-50.8249685371554	-3.65315104870254	
968300000	-49.8400207094314	-10.3874497579784	-0.00279873937079332	-58.2002743040469	-0.00503428839684768	-58.230273124568	-50.9904058481829	-5.41120156466668	
970000000	-50.2320577540832	-10.5850002705389	-0.00213111722077789	-58.3079807707153	-0.00598054031015212	-58.3326514228123	-50.9896823688176	-3.1730764167239	
971700000	-50.5506054321117	-10.4821896528621	-0.00108618047985998	-58.4173336565356	-0.00499197355822856	-58.4387428732556	-51.1570607918886	0.239645882885541	
973400000	-50.8883267588568	-12.7414608264009	-0.000240923489654931	-58.5199464415941	-0.00424725987775935	-58.5344007938431	-50.9648919937366	0.317242898462478	
975100000	-50.6939596767207	-13.1325331412336	0.000590195976644859	-58.6285555831064	-0.00518655883918837	-58.6337134912519	-51.6870808843387	-4.57084785041329	
976800000	-51.3869377040434	-9.97155440856723	0.000813047873021837	-58.7321313399239	-0.00609707645957559	-58.7379501003185	-51.7738316602484	-2.50383134139833	
978500000	-52.0090608581881	-7.72498534553647	0.000367798437152523	-58.8375697156871	-0.00746268830237511	-58.8310221269272	-51.9450027953835	1.55799828287761	
980200000	-52.7276556405199	-7.19915125248588	-0.00109530262400048	-58.9515792875593	-0.00799651810528155	-58.9356571153091	-52.0864376141392	4.19596142752405	
981900000	-53.1937657604937	-0.480873912073915	-0.00218285730453253	-59.0587139372341	-0.00831984524124288	-59.0377918162415	-52.3395632823112	4.53269688193315	
983600000	-53.2185672416138	1.40937823842578	-0.00274006090196433	-59.1638993700157	-0.00844986133162418	-59.1481368681264	-52.5300602445909	5.34520169910816	
985300000	-53.2671744919937	-0.356501359776	-0.00132316241149687	-59.2624303446291	-0.00839098025658941	-59.2474117477423	-53.0556261769027	7.42709838032275	
987000000	-53.2635332300417	-1.18379173847191	-0.00198098952706956	-59.3676371356995	-0.00793771442978043	-59.3505969368065	-53.5121837459156	8.45725924814503	
988700000	-53.3523758618595	0.304929820702535	-0.0026452782534273	-59.4768578277061	-0.008818835650062	-59.4462827983408	-53.9564070587771	7.81426726979442	
990400000	-53.3062839539085	0.832680581719514	-0.0016693940222699	-59.5647190480778	-0.00998609248482065	-59.5498853043278	-53.9075619131971	9.74890083674081	
992100000	-53.1892262107509	0.825781862426242	-0.00295097381375596	-59.668042507852	-0.0107852286612042	-59.6527131476512	-54.2006955488448	9.99756005920268	
993800000	-53.1534913715532	-1.23241247010414	-0.00318883787272256	-59.767050025586	-0.00845328592265578	-59.7592697701097	-54.5928270713702	13.4751039999494	
995500000	-52.6032070524934	1.70299751340473	-0.00332691753230117	-59.8670276640128	-0.00715284679618122	-59.8582661412056	-54.6985188866963	9.69169706512227	
997200000	-52.5471263299235	1.29364693220856	-0.00406034753963073	-59.9648258986932	-0.00764338371415128	-59.9507873444638	-54.6121545982154	4.76706351698102	
998900000	-52.5305573270858	3.58352680599506	-0.00398746946716312	-60.0637081630506	-0.00794127748319044	-60.0521955052979	-54.8262362880114	5.55693984310012	
1000600000	-52.8921739374563	5.24489497482879	-0.00412539062889517	-60.1648556809563	-0.0075909712757832	-60.1570021706071	-54.1079560650017	7.26252342413977	
1002300000	-52.8094723163486	4.30797862943099	-0.00329852875411235	-60.2684606339681	-0.00761325126698309	-60.2624995646615	-54.0310255373478	6.24318721547523	
1004000000	-52.1245300927137	-0.678499705480738	-0.00394543583812861	-60.3702845075015	-0.00758720875453962	-60.3707714408341	-53.5861180417522	3.61988768120894	
1005700000	-52.034624932053	0.758123565435072	-0.00416437269440877	-60.4707037323539	-0.00914606677680098	-60.4727920689801	-53.6296229175182	3.6499569464667	
