!Keysight Technologies N9950B: A.12.38
!Date: Friday, 12 May 2023 12:14:17
!Timezone: (UTC-06:00) Central Time (US & Canada)
!Model: N9950B
!Serial: MY61131330
!GPS Latitude: 
!GPS Longitude: 
!GPS TimeStamp: 0001-01-01 00:00:00Z
!GPS Seconds Since Last Read: 0
!CHECKSUM:1885597699
!Correction: S11(ON U)S21(ON U)S12(ON U)S22(ON U)
!S2P File: Measurements:S11,S21,S12,S22:
# Hz S DB R 50
800000000	-9.59741521260861	-156.382019191789	-0.535605001271342	-69.8070861871493	-0.575179763804347	-69.8010183822933	-9.64700739008703	-162.654410669177	
801700000	-9.60541008058508	-156.340816341075	-0.5560173871002	-69.9322729038213	-0.573530896160195	-69.9780827657108	-9.59636857847045	-162.710567794839	
803400000	-9.59099855275388	-156.48573907882	-0.558048646645091	-70.1381194027926	-0.561259837199724	-70.1298395911165	-9.63659114828603	-163.09216823243	
805100000	-9.55589350743418	-156.328114869171	-0.551696017769988	-70.2815493701444	-0.558331759309819	-70.309738258923	-9.61490371991151	-163.126232074418	
806800000	-9.52590039159454	-156.750306130803	-0.54943333053696	-70.4189034921777	-0.570120361884853	-70.4697147984755	-9.58185193968883	-163.355740411834	
808500000	-9.55781305483496	-156.457103959687	-0.561401938623721	-70.6613471099774	-0.562988990130288	-70.6060275746936	-9.64432886467348	-163.326736442838	
810200000	-9.55758309690118	-156.689108732596	-0.558183761403801	-70.7435137683629	-0.576642505699801	-70.6472049147183	-9.65594678773617	-163.608073384158	
811900000	-9.50826503060497	-156.897770717974	-0.564289992506602	-70.7678555735706	-0.568221802970608	-70.7927753410338	-9.62924787494997	-163.75455387278	
813600000	-9.52953991122983	-157.092485457686	-0.560386657409311	-71.094038412108	-0.566805301302578	-71.0322163297477	-9.59820879297843	-164.016940631799	
815300000	-9.52564901903284	-157.181952431479	-0.56993829654	-71.1823759385062	-0.578969851648729	-71.0902386420953	-9.58262251130001	-164.422642932081	
817000000	-9.481360815187	-157.262716204194	-0.565721769667512	-71.2456066106884	-0.583135893399597	-71.2677456373837	-9.61433451274308	-164.268807095255	
818700000	-9.47826649052374	-157.280057049111	-0.578013623860161	-71.3757585112969	-0.590559581266812	-71.3856494992732	-9.59045422227762	-164.550739380858	
820400000	-9.42928282705148	-157.430210227626	-0.574926668292683	-71.4620273812241	-0.590711294671385	-71.565809338376	-9.56730896818129	-164.458320233777	
822100000	-9.40216545907017	-157.600246669386	-0.551507257624985	-71.607707522975	-0.575880682764378	-71.6343682824779	-9.54298022164135	-164.790927131616	
823800000	-9.41627165307638	-157.831999216781	-0.572611166016294	-71.8578173875562	-0.596485167803924	-71.8406270390022	-9.59501392459326	-164.924332805835	
825500000	-9.38078056794198	-158.043682374947	-0.577863055431806	-71.9198943503064	-0.57451432972197	-71.8957902283234	-9.58566559201576	-165.109448527578	
827200000	-9.34653888321267	-158.170695799165	-0.590235968611953	-72.1102087200828	-0.585436441831755	-72.1382088958363	-9.56551662047934	-165.471364179876	
828900000	-9.39295636279671	-158.266764320391	-0.574745183729791	-72.2514571820745	-0.589390158414203	-72.2630296808399	-9.53868978458646	-165.474378670702	
830600000	-9.34793590824167	-158.339217939885	-0.590551458600293	-72.4454369083267	-0.602484391365034	-72.4566655361037	-9.51057144135276	-165.753265058851	
832300000	-9.31999481557399	-158.730520570595	-0.581552405603512	-72.4799166201396	-0.611164595191907	-72.5326467846751	-9.52352925019006	-166.162009245059	
834000000	-9.35581430580829	-158.585871668653	-0.591660935719611	-72.6213721130474	-0.604262058434016	-72.5726099462495	-9.55508672047318	-166.142110503996	
835700000	-9.35968879960256	-158.515209408571	-0.587669668698097	-72.7666197575616	-0.614077054465683	-72.630068349899	-9.50606632529431	-166.265079289046	
837400000	-9.32847000580267	-158.911547523524	-0.598498750993411	-72.9184637582177	-0.612593757615585	-72.8396190177174	-9.52124815347393	-166.478349523046	
839100000	-9.30687148017535	-159.021624073261	-0.588522051555462	-73.0761735714152	-0.616375405172791	-73.0294190694038	-9.49837809358902	-166.648387189879	
840800000	-9.31349396455381	-159.172159156907	-0.606191006993932	-73.1861911002003	-0.60458288950015	-73.2378344892043	-9.51559819005779	-167.06636980293	
842500000	-9.25064934958758	-159.161189948169	-0.614770507139916	-73.3554371012684	-0.615992699416431	-73.3057437319403	-9.44375102353504	-167.269222786105	
844200000	-9.25600403646828	-159.263027896915	-0.598788342802347	-73.5013595416373	-0.622066654231185	-73.5230723035338	-9.43398187228849	-167.427127984059	
845900000	-9.26915369270845	-159.548111174684	-0.607483789056757	-73.642503845397	-0.616422106800035	-73.5467691419265	-9.43398579053471	-167.441356807994	
847600000	-9.23655032552812	-159.557990575589	-0.600804276163924	-73.7593482894178	-0.621943038904831	-73.6231252334759	-9.4495611137785	-167.735822024786	
849300000	-9.22143106327537	-160.067358413407	-0.606383302564773	-73.8765348508657	-0.628239264718934	-73.8669357735184	-9.47696646362147	-167.955219346918	
851000000	-9.21809138122529	-159.952438217142	-0.615831156462149	-74.1283537371464	-0.620673740435228	-74.0497303855004	-9.39046118669817	-167.825502256285	
852700000	-9.20820181935389	-160.120808355714	-0.611243014267191	-74.164308221584	-0.616899086472641	-74.1593662809374	-9.39071794179181	-168.311626937529	
854400000	-9.20714243234954	-160.247506471337	-0.623833182479891	-74.2683893409975	-0.614463223683278	-74.3123073928448	-9.36200567008343	-168.201922896314	
856100000	-9.14793833814257	-160.448841896821	-0.606330886025881	-74.4809199013708	-0.63391459711173	-74.3673959097372	-9.32749954455472	-168.671863991692	
857800000	-9.13265588192131	-160.574192112377	-0.601944911258392	-74.603524993031	-0.637124250093185	-74.5359702682008	-9.35500579781539	-168.945161756295	
859500000	-9.17034195585047	-160.779605087102	-0.615266599709871	-74.5904247147162	-0.626958068243177	-74.6753888885087	-9.3325855753117	-168.864424702672	
861200000	-9.17433691411229	-160.86127440044	-0.626402119049653	-74.796858439481	-0.630411236025479	-74.8348549858686	-9.34112355960052	-168.673963660508	
862900000	-9.14524492085284	-161.058640890485	-0.606209533445554	-75.0069988454226	-0.636588894543509	-74.955714302096	-9.31052144734475	-169.088456889248	
864600000	-9.14088301193253	-161.136095183288	-0.60964628016507	-75.1190968879336	-0.627943712306159	-75.125686047995	-9.30790179615877	-169.208309865997	
866300000	-9.15896092973845	-161.489996909395	-0.636444643352111	-75.139111650744	-0.637647575961951	-75.1949045663742	-9.33052129867615	-169.379073185667	
868000000	-9.15433302100966	-161.571282423754	-0.618596704227624	-75.2338924879504	-0.625489830606188	-75.4196340922556	-9.25916096940564	-169.323085362141	
869700000	-9.16026851812299	-161.72208447476	-0.629487499440893	-75.5285480104332	-0.646699602068873	-75.5472398889897	-9.23158947658224	-169.724986210035	
871400000	-9.13254127074198	-161.925255532289	-0.619697211443274	-75.7377593223525	-0.645147241501603	-75.6519220496069	-9.20970453847488	-169.723474443441	
873100000	-9.11067819703475	-161.80558401081	-0.612578069684594	-75.8263154925585	-0.640026181426628	-75.8042753831477	-9.18942973263948	-169.815703338983	
874800000	-9.12547718982548	-162.163363446311	-0.62839788517023	-75.7961609037405	-0.629837164492389	-75.9767307937968	-9.19498972426661	-170.004109642263	
876500000	-9.08771693157393	-162.284979606505	-0.62359579052891	-76.0473079842351	-0.641107358133431	-76.0559534194622	-9.19410368655216	-170.153082633199	
878200000	-9.08530130984582	-162.652461880954	-0.641185252490448	-76.1591694453051	-0.644492227111829	-76.2007749771061	-9.19552895384346	-170.347233824634	
879900000	-9.1054977421888	-162.40575007787	-0.625565337178958	-76.3176781230336	-0.649122051047499	-76.1493110221454	-9.15120969609691	-170.126492201059	
881600000	-9.15407043992446	-162.618682196083	-0.618421278022915	-76.4762243142616	-0.636910182408547	-76.2893231171135	-9.1365467926381	-170.214021973475	
883300000	-9.10131138272486	-162.837338575343	-0.629528578457018	-76.6714884270039	-0.646711333034228	-76.5446686715697	-9.13695834571008	-170.43622945155	
885000000	-9.10400882760334	-163.005441642405	-0.640498192710421	-76.6305124745417	-0.646543258515761	-76.6535677936522	-9.16445525847094	-170.510247695512	
886700000	-9.02842890675938	-162.951843408756	-0.622087412824144	-76.8628278542728	-0.633478901987453	-76.8185538669011	-9.08020352597125	-170.541872483072	
888400000	-9.07008030199232	-163.423850884149	-0.636541493978691	-77.0392135553399	-0.635186392972546	-76.8887746068544	-9.16582200940303	-171.154029464304	
890100000	-9.0949703998865	-163.342957789094	-0.637110189004465	-77.154389499589	-0.638397897087114	-77.1210283835897	-9.13089614436374	-171.01660176477	
891800000	-9.0614793200431	-163.48222326658	-0.624979138147893	-77.3194066275846	-0.640392399952149	-77.2342466015247	-9.08730920714968	-171.328994209357	
893500000	-9.07128961184621	-163.58757085567	-0.643796565109264	-77.4545069969385	-0.652139551365073	-77.483565301655	-9.08813172411444	-170.886842138093	
895200000	-9.04140142698424	-163.597235107568	-0.62910970876592	-77.5778787358809	-0.640818108880097	-77.4821075596142	-9.09492415700723	-171.019219330999	
896900000	-9.0529970037212	-163.961101657904	-0.647472827160914	-77.6752945111462	-0.655420213132157	-77.661184591252	-9.11180282133115	-171.522854592652	
898600000	-9.06229810000865	-163.790384361761	-0.626518631409149	-77.9108268669878	-0.657889565036235	-77.7272801680568	-9.08614502380311	-171.341772998147	
900300000	-9.05543541598065	-164.152255748597	-0.631400714544437	-77.9535150416032	-0.651750221144607	-78.0873593061653	-9.0711816380003	-171.327615352961	
902000000	-9.01017720331704	-163.982744684766	-0.621324339001983	-78.1810460076463	-0.649847634058648	-78.034683742954	-9.05325363153226	-171.561992327299	
903700000	-9.04543885916231	-164.381488850747	-0.636602743936414	-78.2668739368006	-0.630500122448443	-78.2356247193437	-9.043166253708	-172.184906421354	
905400000	-9.04350221626104	-164.669364000329	-0.634433953544763	-78.3378494788112	-0.659234594070506	-78.4162311487314	-9.06834640629572	-171.762089029339	
907100000	-9.0692460180251	-164.657329394511	-0.637513071712311	-78.4921063112563	-0.654871740282007	-78.5996363730651	-9.07305174263902	-171.955132688695	
908800000	-8.98644391792534	-165.038373600233	-0.640207428035557	-78.756533175326	-0.64645011143238	-78.6478410613671	-9.00188674770558	-172.232210171598	
910500000	-9.00291763607908	-164.771949611725	-0.626931320456119	-78.9086739889808	-0.654029269500926	-78.7576570141671	-9.06386268303268	-172.484423160813	
912200000	-8.99856870891187	-165.080688970054	-0.634990071476503	-78.8984100234263	-0.655300463115263	-78.9808351332162	-9.0165198932456	-172.262242343396	
913900000	-8.9985511217195	-164.851060248152	-0.634956760221169	-79.1458570426407	-0.656111608496122	-79.1240010331092	-9.01694500545281	-172.327440994941	
915600000	-9.02697925566355	-165.170553922655	-0.635133992986772	-79.2120604012395	-0.66689249900183	-79.2175373993144	-9.03672383047844	-172.747202000993	
917300000	-8.96434922077577	-165.252658245642	-0.625593608033174	-79.4074472546724	-0.652200078626974	-79.3474414335604	-9.05638560657422	-172.841421658714	
919000000	-8.96793996469125	-165.498371331877	-0.645300906020028	-79.6064964299143	-0.656033484125008	-79.5107744201027	-8.98848598702286	-172.896709516251	
920700000	-8.93682415733097	-165.605615961918	-0.652971394938037	-79.6802586554357	-0.662745966185266	-79.5930368868322	-9.05588486086729	-173.402149871993	
922400000	-8.95631828921359	-165.639601979737	-0.65453880235905	-79.7493886238493	-0.67463952517124	-79.8548076240729	-9.03130588359462	-173.413913141983	
924100000	-8.95846410506527	-165.556182476295	-0.643654088066104	-79.9753436666612	-0.662599175405541	-79.8799248091944	-8.9782668530067	-173.37337706001	
925800000	-8.9143796472908	-165.813531644042	-0.639113471531116	-80.077062727087	-0.659863085627001	-80.0569237812017	-9.0806568573967	-173.686556168785	
927500000	-8.92819100972044	-165.830555753005	-0.661795281443919	-80.2385580810213	-0.667445990702346	-80.2613344037845	-9.03760036578488	-173.777327902912	
929200000	-8.92828297099732	-166.189877384185	-0.660655988997116	-80.4654461440229	-0.654217973929678	-80.3101755793828	-9.02454198072749	-173.796288098322	
930900000	-8.937758686906	-166.290171684484	-0.647659517696557	-80.6396500107463	-0.672350941131274	-80.4914049504392	-9.06637361065428	-174.013202101426	
932600000	-8.89843164116606	-166.235973088874	-0.666841804890483	-80.6394035625652	-0.653724376612002	-80.6547578463508	-9.00046768898104	-174.186946462667	
934300000	-8.88072053261887	-166.631470275775	-0.647825409488718	-80.7526613472316	-0.673096452382267	-80.7719773636779	-9.06910151911109	-174.627677311555	
936000000	-8.88153085042262	-166.693663587303	-0.646176871421172	-81.048782564218	-0.679976142857274	-80.8947893294471	-9.06427857056989	-174.667621642424	
937700000	-8.89284377173016	-166.673144948482	-0.667748719627455	-81.0840273620924	-0.681357471270842	-81.1430584983862	-9.03675638388749	-174.770954875639	
939400000	-8.84665023782662	-166.687554632667	-0.674713233852142	-81.2360003017155	-0.681807358367307	-81.1756534867579	-9.05594754236863	-175.037990846817	
941100000	-8.78625121295827	-166.767932670457	-0.658014849060918	-81.425319033203	-0.680084176429449	-81.361192589665	-9.01874726978776	-175.068279722021	
942800000	-8.83252970125001	-167.031726855109	-0.68061749814532	-81.4752158253719	-0.678000973289674	-81.4413889195	-9.00699899932231	-174.971080427137	
944500000	-8.84365381100513	-167.282661318482	-0.681880833787931	-81.5131208537385	-0.671937050222771	-81.592038239083	-9.005106397189	-175.74692336817	
946200000	-8.80587106613021	-167.516716009628	-0.676522446438467	-81.7611342307722	-0.682913127264985	-81.7543554240634	-9.03614457213588	-175.687490233624	
947900000	-8.76421693947565	-167.553146514716	-0.665053570464062	-81.9092485143725	-0.668830875499241	-81.9076764477081	-8.97681149819354	-175.574137212074	
949600000	-8.80346298021515	-167.219432214136	-0.686570421320145	-82.019814710875	-0.688568698474991	-81.9233144541469	-9.02137420060069	-175.79337373934	
951300000	-8.77042247934338	-167.93211527357	-0.667633481301286	-82.1613624094141	-0.696536032280188	-82.1380385096529	-8.9894675159113	-176.277019888175	
953000000	-8.75371665592048	-167.881473699246	-0.659564662224746	-82.3126825789433	-0.696530115525839	-82.2533989377515	-8.9901262248716	-176.381953156738	
954700000	-8.74939356252866	-167.955434710013	-0.676905106908485	-82.4246445010411	-0.696736840051871	-82.4485138069365	-8.96274566702585	-176.486465761951	
956400000	-8.73970363712246	-168.227601399006	-0.673463544261719	-82.5970447780193	-0.707648507395071	-82.5733452933165	-8.96281996269468	-176.705016310161	
958100000	-8.71693109771997	-168.357135002788	-0.679525991742323	-82.7622810561664	-0.694051033545861	-82.6894284430371	-8.91650481892963	-176.978490608978	
959800000	-8.74196219686557	-168.214906033756	-0.673789138997524	-82.8675816097471	-0.698676113427752	-82.8249514110229	-8.94630520592716	-177.254113083398	
961500000	-8.73073878923087	-168.512856180443	-0.683057930727959	-82.9456235039744	-0.704759158552485	-82.9007657407231	-8.96087687856179	-177.138230310225	
963200000	-8.69985613968599	-168.797617075524	-0.682886336874775	-83.0485168989928	-0.704249697267326	-83.0900155050202	-8.96619181184004	-177.346006956816	
964900000	-8.72050083124808	-168.861624759393	-0.689721565375112	-83.2254482454533	-0.702612717187234	-83.149634836813	-8.95018342802327	-177.422456734194	
966600000	-8.67249654837481	-168.771834537188	-0.691262166297345	-83.3672432948072	-0.700342689529161	-83.2573946492117	-8.88984845468845	-177.744724759389	
968300000	-8.66321112178123	-169.104352617015	-0.684490709159285	-83.3945106389347	-0.716585426885334	-83.4101247374032	-8.90032033629601	-177.757892117309	
970000000	-8.6394524254401	-169.31049934511	-0.697151030067358	-83.660070157501	-0.704846215980745	-83.5372690359492	-8.86498213663345	-178.052491130328	
971700000	-8.68747386012074	-169.736892237583	-0.69560523676695	-83.7290645854724	-0.712716218140368	-83.6766924729167	-8.87031190927719	-178.29179983352	
973400000	-8.61485698836675	-169.545245597399	-0.711760874889034	-83.7909637197629	-0.703663951698748	-83.9668456796874	-8.85476473814173	-178.371326414834	
975100000	-8.67160918758741	-169.746649418495	-0.702426427131622	-84.0180405261598	-0.704495919034242	-84.0144516254304	-8.8891095280883	-178.362949843998	
976800000	-8.67440207751569	-169.705115472642	-0.694354607925279	-84.1231080565984	-0.71015515964876	-84.0527172640462	-8.83788393936816	-178.996091542003	
978500000	-8.6862470605163	-170.010164230184	-0.705162429470621	-84.2496436820709	-0.7156147504492	-84.174095090605	-8.8647348990146	-179.073135137837	
980200000	-8.62847543644163	-170.297075201443	-0.707067024259137	-84.39913995047	-0.7122287279168	-84.3416429029983	-8.82550019474856	-179.134844796521	
981900000	-8.63546915404754	-170.381827830956	-0.697784268162229	-84.5721574414813	-0.700639483045134	-84.5112628375873	-8.81821825814826	-179.329252934828	
983600000	-8.63448493670194	-170.499402485353	-0.700264809763858	-84.697112349311	-0.705105565847304	-84.7231423196008	-8.86790349515487	-179.519701194399	
985300000	-8.61839942729964	-170.992722974947	-0.722410988755766	-84.8822392364032	-0.732885200134495	-84.7980783953296	-8.74804447201645	-179.948544974401	
987000000	-8.64592803959078	-170.984987300419	-0.711600345903676	-84.9838065406591	-0.717090576669749	-84.8312476649564	-8.7337116799067	-179.650382335829	
988700000	-8.63224139287619	-170.553529058884	-0.709679521034023	-84.9356430317747	-0.717528494991136	-85.0027370278775	-8.75803890099325	-179.990597885675	
990400000	-8.65238053251308	-170.922089013033	-0.70912093271857	-85.235608919509	-0.72112229700562	-85.194063632147	-8.73593803638234	-179.98344446907	
992100000	-8.62012055067624	-171.200745389886	-0.693189647939011	-85.3675062622151	-0.72458097214011	-85.2921324078174	-8.70607794619542	-179.795875725702	
993800000	-8.62409323513218	-171.360922887923	-0.729389742597057	-85.4497967469641	-0.74324903394049	-85.48872046243	-8.67780015705854	179.954809636126	
995500000	-8.63245757459232	-171.623062036998	-0.709556697134935	-85.5852907835296	-0.727326628866506	-85.5867370755697	-8.695857957899	179.978700405715	
997200000	-8.62176833262358	-171.770056735132	-0.716091850721526	-85.7056665176443	-0.711836788452447	-85.6457256833714	-8.71683798524197	179.680096997582	
998900000	-8.66775546736508	-171.799377128472	-0.703563652640584	-85.8385395902028	-0.726418789120416	-85.7682763212967	-8.69084018638039	179.538326709922	
1000600000	-8.66456257847642	-172.151368795092	-0.716942825437525	-86.0986599592419	-0.733158497939925	-85.9490024656644	-8.63352382068588	179.484038101316	
1002300000	-8.61348614458189	-172.346954775182	-0.698343131022962	-86.1635301515265	-0.721707702072237	-86.135551532292	-8.68454401761529	179.402741403811	
1004000000	-8.62334783367982	-172.069173228321	-0.711411135588807	-86.208757625586	-0.724371854385244	-86.1835365768011	-8.67647680561929	179.311579404738	
1005700000	-8.6196288062165	-172.190735373895	-0.713949505065872	-86.3739306599066	-0.707483887109065	-86.3734407481219	-8.65440462911628	179.249733100881	
1007400000	-8.61122220868556	-172.532573691482	-0.697961532679628	-86.5031448626483	-0.723703826203188	-86.5468573629599	-8.66862150931991	179.091581826219	
1009100000	-8.60874089698237	-172.456105199396	-0.708075852423544	-86.58997502858	-0.720314612516704	-86.6690347458382	-8.66216055793099	178.62448290524	
1010800000	-8.632412125624	-172.902531279416	-0.689183910301538	-86.8193178523992	-0.70989313272311	-86.7548036446652	-8.66669427805031	178.780447078382	
