!Keysight Technologies N9950B: A.12.38
!Date: Friday, 12 May 2023 16:36:27
!Timezone: (UTC-06:00) Central Time (US & Canada)
!Model: N9950B
!Serial: MY61131330
!GPS Latitude: 
!GPS Longitude: 
!GPS TimeStamp: 0001-01-01 00:00:00Z
!GPS Seconds Since Last Read: 0
!CHECKSUM:1997282899
!Correction: S11(ON U)S21(ON U)S12(ON U)S22(ON U)
!S2P File: Measurements:S11,S21,S12,S22:
# Hz S DB R 50
800000000	-18.4407992516183	-93.5905261456764	-0.210232222074242	-55.6226278854058	-0.242300304871599	-55.5828906128266	-18.7118619956758	149.071185247623	
801700000	-18.3571947695324	-93.0150090070568	-0.198188738702257	-55.769229099856	-0.226921343042193	-55.7448995486539	-18.6933311889536	149.022736459559	
803400000	-18.4297615146689	-92.5635628871041	-0.210368103449035	-55.8766697861445	-0.227743569104889	-55.8369118936759	-18.6887863364986	149.254363242321	
805100000	-18.377902985255	-93.4945148528891	-0.20164860048981	-55.9427704052761	-0.229500865966706	-55.9950029207409	-18.726597830586	148.868823900071	
806800000	-18.4749609530983	-93.9648686664686	-0.201656798182604	-56.1371630141474	-0.2358300225417	-56.0387438762529	-18.5462197010069	148.113617889808	
808500000	-18.2598712847794	-93.3453486455872	-0.20661749962046	-56.2928298240133	-0.223647765918213	-56.1114253864584	-18.4715449623438	148.856706755396	
810200000	-18.3851916529528	-92.5854121827171	-0.225654430010163	-56.4824974624972	-0.226757858672631	-56.3647667977399	-18.5703410262914	147.118588163117	
811900000	-18.3501183444706	-93.1919373658157	-0.210229874857115	-56.4549436077757	-0.24297600398331	-56.4857413421564	-18.4247007131336	147.397502013775	
813600000	-18.2903715363445	-92.9122125633143	-0.211024957148535	-56.5168201885632	-0.235269685972441	-56.5615058757751	-18.4988174895559	147.541383771426	
815300000	-18.2870170389648	-93.9807085524007	-0.204041817595361	-56.5690758417847	-0.238749768970915	-56.7034847704182	-18.3231748840248	147.672869464871	
817000000	-18.2302314190597	-93.6919075958609	-0.208253124325235	-56.7514116303383	-0.223043919992234	-56.7512281057024	-18.4722828702764	147.199383894082	
818700000	-18.3349098213802	-93.1971700206779	-0.215789671517315	-56.9953850743664	-0.223305622285283	-56.8257966918767	-18.4035368160462	146.953476741111	
820400000	-18.2834002087388	-92.7420137238813	-0.215643092032183	-57.0850875034642	-0.246853532748356	-57.0664092509333	-18.4113383644984	146.710462692577	
822100000	-18.299305869897	-93.5126524199634	-0.204891318326316	-57.1606781039462	-0.238048396821808	-57.1734891407555	-18.402981295307	146.18676454567	
823800000	-18.1614140770554	-92.8034518879827	-0.206349090928221	-57.1518112722385	-0.241742263416385	-57.2153035741977	-18.4521660312238	146.982226126572	
825500000	-18.0690508854037	-92.8290385999972	-0.226108193498353	-57.4211001797623	-0.219235531560617	-57.3746125513017	-18.2306224937598	145.874541892598	
827200000	-18.1298260095918	-93.5848310699343	-0.218623032640739	-57.5663703246522	-0.233260907491018	-57.4666564604241	-18.3927754492482	146.275527506113	
828900000	-18.1045258783489	-93.2506996910692	-0.21849170202355	-57.5955644710739	-0.242050383896033	-57.587375270141	-18.3694080212677	145.520990965949	
830600000	-18.248214988076	-92.415206756583	-0.214934151941813	-57.6977159326444	-0.23891826976247	-57.7041633893116	-18.1970407082106	145.642359104904	
832300000	-18.1362026796864	-92.3620959983766	-0.207977540536489	-57.8897624316036	-0.241064082677188	-57.7557004472713	-18.1887912147923	144.881920396222	
834000000	-18.1051264204904	-92.8942125050763	-0.21966820196479	-57.915407837309	-0.231246429068546	-57.9406868893245	-18.3065320809332	144.776430199728	
835700000	-18.0351242307718	-92.8000123521735	-0.212598013302296	-58.047411477574	-0.235510876391472	-58.0391783861953	-18.1377162208227	144.607937539131	
837400000	-18.1554614782022	-92.5757581913578	-0.209114776221455	-58.1512925942172	-0.238667299360401	-58.1551970036077	-18.0732146469603	144.141816508944	
839100000	-18.0175701944331	-92.1847397137398	-0.203641171674687	-58.214820581717	-0.240430744077347	-58.2212031120279	-18.1398795870822	143.928000711274	
840800000	-18.0867200200073	-93.1352772806693	-0.218384235479855	-58.4344761626389	-0.237521449153603	-58.3301415381202	-18.1531606039898	144.1944942812	
842500000	-18.0058718261347	-92.7836357718579	-0.231553370454387	-58.5200690011224	-0.253507472571986	-58.4939773958002	-18.0212211837189	143.418210463722	
844200000	-17.9979572436687	-92.4296757342418	-0.224762541665033	-58.6146668367226	-0.242538497633367	-58.6341069101511	-18.1849180312224	143.112732158169	
845900000	-18.0707976269816	-92.5555464624418	-0.205258339727039	-58.8463722297355	-0.249022977010989	-58.7379070394801	-18.1118054450676	142.797858391443	
847600000	-18.0853255014248	-93.019521598229	-0.22484273041904	-58.9329825354066	-0.249407460083091	-58.9076142459261	-18.2619058036097	142.749183429211	
849300000	-18.0470253158888	-92.8586718236739	-0.209625263884058	-58.9619880320528	-0.260879261674317	-58.9771960707842	-18.0744542860219	142.368272478657	
851000000	-17.9437252282953	-92.6092164849722	-0.211096809249531	-59.1142036342347	-0.254602262287203	-59.0747824500663	-18.0864488425834	141.922505198565	
852700000	-17.9120964959853	-92.6778687680732	-0.218482165001842	-59.2579093810641	-0.23441967944114	-59.2960898569481	-18.2079837871106	141.58386876031	
854400000	-17.8759046570617	-92.420505650086	-0.227659796833719	-59.336963112437	-0.252541557450069	-59.3055572020868	-18.0103299423124	141.614974524286	
856100000	-17.9421649204518	-92.650555522667	-0.213168841848301	-59.5412996440943	-0.239601642621405	-59.4194912949549	-18.0448421873277	141.084100446165	
857800000	-17.8951833820286	-92.6589721380958	-0.220448206160272	-59.6107109880936	-0.245298475944033	-59.5662564031421	-18.06312724839	141.481743135788	
859500000	-17.9200999310021	-92.3108862162768	-0.214053372460911	-59.65063394833	-0.222190359158944	-59.5595053756867	-17.9663667377129	141.225983232395	
861200000	-17.8965201343359	-92.5711947760257	-0.236680870923028	-59.7819811682053	-0.247076715106092	-59.739605468151	-17.9675553421051	140.718045570607	
862900000	-17.8481371890186	-92.0168986477667	-0.223393309828745	-59.863209973303	-0.251777433181586	-59.9900118144991	-17.9045596070536	140.3788396365	
864600000	-17.9126845801547	-92.5072478686676	-0.220882297820669	-60.0364059478654	-0.237230671845225	-59.9935105281795	-17.9861193734372	140.478705128435	
866300000	-17.8807519874318	-93.4030988999486	-0.235719715951413	-60.1650512046817	-0.256311070226976	-59.9905205412825	-17.8745638344922	139.447103516009	
868000000	-17.8490370473301	-92.7523943003951	-0.247326740004754	-60.2685626499667	-0.24231483584629	-60.2114554006045	-17.9636297880034	140.455760570546	
869700000	-17.6654700964991	-92.3255252017671	-0.243013101203247	-60.3604632474138	-0.253202670731395	-60.3162972321172	-17.8460765422533	139.548264970907	
871400000	-17.7405996750581	-92.9838529880698	-0.227759324942059	-60.5310510052071	-0.251152727076324	-60.5528037485789	-17.8128526380617	138.338237653358	
873100000	-17.8033186641972	-92.0027731586756	-0.234624112759239	-60.5689046751864	-0.25012111376438	-60.538801188408	-17.9196599404024	138.522336708521	
874800000	-17.7914060521637	-92.8882182256196	-0.220622636476267	-60.6645495767012	-0.253740683363833	-60.6960717954927	-17.9200170505288	138.932495123821	
876500000	-17.7509910239108	-92.5721672900512	-0.227748839483511	-60.8617002389822	-0.254805379594029	-60.833041716387	-17.9065837801214	137.738801070049	
878200000	-17.7646095239534	-91.6954518338975	-0.244448235462232	-60.9507872801413	-0.239562841228635	-61.0847203209704	-17.8717688551451	138.342154187392	
879900000	-17.8087316037032	-92.5499290421959	-0.232610182090648	-61.0513837868005	-0.246496042406784	-61.0532485181349	-17.8619834812034	137.948707051233	
881600000	-17.7486220744872	-92.0913692805253	-0.232466848921104	-61.2011575980527	-0.242159466885314	-61.2362483895962	-17.668473349604	137.312474301198	
883300000	-17.6732287053167	-92.7415453976384	-0.224050499974675	-61.2599854834744	-0.246063877321738	-61.35785591716	-17.8697019385414	137.916397993259	
885000000	-17.6971914435763	-92.4665921685125	-0.225452353046625	-61.3525849991773	-0.259347792830239	-61.3588777422522	-17.7359019632903	137.846379278339	
886700000	-17.6533402533887	-92.8889594365251	-0.23560653569833	-61.509450405489	-0.253358539899651	-61.4790108574809	-17.7977449488126	137.170434419113	
888400000	-17.7206180695719	-92.9341988471578	-0.224154695429513	-61.6696433767115	-0.252964015312328	-61.5798737189517	-17.7849118311894	137.652330494652	
890100000	-17.5671984681506	-92.2102072590284	-0.228666704984238	-61.7661254040689	-0.249306085660751	-61.7300818938273	-17.7501169586247	137.960744028336	
891800000	-17.5810738974221	-92.6428254169209	-0.246980972822168	-61.867421752622	-0.254869866466498	-61.8403332977391	-17.7893822156887	136.929994992398	
893500000	-17.6334840339446	-92.4326398529814	-0.227240830069126	-61.9511006203481	-0.256147283460411	-61.9800828045698	-17.7117287872391	136.385342778663	
895200000	-17.6831483963387	-93.4523941977954	-0.244558030037713	-62.1880716022886	-0.252496852952482	-62.1172141383271	-17.7307549326354	136.006078053843	
896900000	-17.5347308996352	-92.8563383174452	-0.222976955055805	-62.2327066922771	-0.256641331535299	-62.1691649070576	-17.7496482496383	136.053622893172	
898600000	-17.6353569701174	-92.4020070381126	-0.241284274314487	-62.303888736816	-0.2534098320684	-62.3781592297321	-17.7318220703815	135.474726519789	
900300000	-17.5596126681034	-93.5934933677702	-0.23008222145123	-62.4637206824521	-0.252282073361153	-62.3908007714488	-17.7040228304859	135.95618561777	
902000000	-17.4948310569979	-93.5149185522489	-0.231038700455489	-62.6444443200045	-0.248207903601142	-62.6489523118574	-17.771013491295	135.015711898914	
903700000	-17.4342069281964	-93.5324599808765	-0.247567022825361	-62.7876274724326	-0.263730184854417	-62.745311086867	-17.6693666841475	134.527754909165	
905400000	-17.5947434954621	-92.826726121535	-0.230367285876197	-62.7832653686241	-0.256586848969144	-62.8740972545589	-17.76101517533	135.140709248204	
907100000	-17.4796310835092	-92.6140562116841	-0.237267766152645	-62.9788077738008	-0.258931180798013	-62.931469336202	-17.6713345610655	134.291866821262	
908800000	-17.4350652835251	-93.3708251716463	-0.236115057139474	-63.1195983530194	-0.26696742471274	-63.1218128181486	-17.6021277416882	134.734349324301	
910500000	-17.5839655732726	-92.8760866379668	-0.25771744342737	-63.1970326471145	-0.263263898916178	-63.1200626501428	-17.7103396059955	133.994233479334	
912200000	-17.6067263766137	-93.130854715768	-0.233371728969757	-63.2624330967008	-0.254502153066612	-63.291226337977	-17.6317684803705	134.537880959569	
913900000	-17.4579922066885	-92.8661899001771	-0.229664902438753	-63.5022057006435	-0.252784363159764	-63.324350700217	-17.5973333941331	134.709192869311	
915600000	-17.4904624664523	-93.2044472968887	-0.229254198611505	-63.5150270682758	-0.263131438836898	-63.4123828328958	-17.6010097100682	134.024346686967	
917300000	-17.44119236294	-92.7204780121958	-0.235877780659184	-63.6187491118831	-0.251538513214264	-63.6028048236279	-17.540800431776	133.611288386335	
919000000	-17.4049650363039	-93.2983422597348	-0.24710065013301	-63.7365836748302	-0.272608293077833	-63.7586372587856	-17.545544558032	132.501025937685	
920700000	-17.4428747438365	-92.9759193853843	-0.242280358239362	-63.9145251568103	-0.254630093459922	-63.9555999734463	-17.4819040739708	133.145666698422	
922400000	-17.3032606994117	-93.8610487717578	-0.2355798454844	-64.1440850609801	-0.270465770750412	-64.0146312761348	-17.4682226868579	133.161378389581	
924100000	-17.4105756673685	-93.2398225244631	-0.221084608391422	-64.091807396569	-0.265407130019668	-64.0081092950387	-17.5721357037158	133.228914672704	
925800000	-17.4718363010631	-93.6621100383398	-0.25156746171253	-64.2700061231538	-0.250092778447865	-64.2122174699906	-17.4858432333181	131.858757871339	
927500000	-17.3782774467128	-93.5822336256329	-0.243948246874307	-64.3322314336058	-0.247994876445305	-64.3127355352587	-17.3919635339339	132.857057463662	
929200000	-17.4636048852581	-93.3826944683606	-0.235180956424587	-64.4372629738259	-0.282549580406074	-64.4620806503087	-17.4288878540201	132.101457780202	
930900000	-17.3421197458558	-93.6273643183894	-0.244599856020519	-64.6945699022085	-0.263351364273062	-64.5571581023794	-17.4715537011746	132.595656463156	
932600000	-17.4007784945152	-93.253962656222	-0.239586525427482	-64.7059845545801	-0.269847717196486	-64.6912275409117	-17.3570681756069	131.828860653247	
934300000	-17.3694750687402	-94.0584226570263	-0.243973229626037	-64.8923264658222	-0.257175607168073	-64.7919569476148	-17.4738248283436	131.286611792713	
936000000	-17.3460892770785	-94.3343775132559	-0.252791009998831	-64.9322778853949	-0.257435262124664	-64.9387131770546	-17.2466554191115	131.054948066954	
937700000	-17.1393356323185	-93.675205036111	-0.242755905892893	-65.0530786067755	-0.267002057956143	-65.1054098858154	-17.3022606973987	130.98308078522	
939400000	-17.3214624017579	-94.3028859094238	-0.250889015924436	-65.0505563026589	-0.275120747465295	-65.1753034101696	-17.3903383723417	130.652333816824	
941100000	-17.2349291780353	-93.9381715496019	-0.24119175985504	-65.3063486430308	-0.261647491397883	-65.2303821124617	-17.3201298714765	131.082119153403	
942800000	-17.2990496380861	-94.016472303483	-0.243944966828493	-65.3894230633434	-0.274728999941586	-65.4283572059366	-17.3808183508854	130.112122774915	
944500000	-17.2310398353268	-94.0456551163995	-0.238951850678699	-65.5510986006528	-0.263706651596357	-65.4095535790229	-17.5087444957683	130.437753384367	
946200000	-17.2214300079967	-94.7037001946411	-0.253889235153109	-65.5540452973618	-0.279996177867118	-65.6156358009601	-17.3419064598563	130.572576627624	
947900000	-17.2484778118666	-93.9631052033588	-0.258984011906656	-65.7498614273871	-0.286431309567979	-65.8010701985268	-17.414525328879	130.903296387677	
949600000	-17.1678912209528	-94.1584253197664	-0.264105555994608	-65.8435219304988	-0.271510527978533	-65.773023834248	-17.3232405419483	130.085323935556	
951300000	-17.1458652391171	-93.5467025697761	-0.254302611916884	-65.9249153738761	-0.272058595661614	-66.0405705415336	-17.3347847463941	129.667661223162	
953000000	-17.1779922787423	-95.2395314856311	-0.240696746647363	-66.1168251143684	-0.276257395320047	-66.0900749503724	-17.2692428092551	129.106582155869	
954700000	-17.159401532646	-94.5114294333819	-0.247985121637513	-66.1771101051407	-0.275900705323076	-66.1298360864067	-17.3701200249093	127.900898379413	
956400000	-17.0013831733955	-94.75910919924	-0.239910791278538	-66.3917195806174	-0.27515422375975	-66.2992759675512	-17.1785409271759	129.166981186944	
958100000	-17.0188359348095	-94.4712333692569	-0.237327838659512	-66.4105205851472	-0.274384074737111	-66.386050042803	-17.1870862153456	129.061956938052	
959800000	-17.025163025445	-94.0018229581107	-0.258196142585402	-66.604517920687	-0.280772649843765	-66.5586707331339	-17.2246491197494	128.795957696379	
961500000	-17.1152951721025	-94.589096001925	-0.255228318827807	-66.6966831982239	-0.266669836926456	-66.713460086274	-17.1324519476443	128.46901163569	
963200000	-16.9863835962103	-94.7760634471941	-0.24658701772402	-66.742438621493	-0.276023719887485	-66.7169346430999	-17.1856366831788	128.715349468132	
964900000	-17.0512740829347	-94.7837491212733	-0.261120278466561	-66.8656665753752	-0.263605401041294	-66.9241341696135	-17.1347727561887	128.67007063134	
966600000	-17.0062103479349	-94.5984534031729	-0.257032794272205	-67.0620701997363	-0.283115892611803	-67.0570854317367	-17.1258810513272	128.376350232049	
968300000	-16.999505861173	-94.3544233450953	-0.246795008754251	-67.1539292743056	-0.286677039696232	-67.2077063309133	-17.0942724538485	128.216888522491	
970000000	-16.9826150022567	-95.1401762825297	-0.250586637449168	-67.2469333608068	-0.28107746338236	-67.3208844726965	-17.062782980217	128.093569470346	
971700000	-16.922245183044	-94.3308063620085	-0.25221981403897	-67.4371102743349	-0.278803492373123	-67.4742080941465	-17.1216706170585	128.22831784862	
973400000	-16.9726685624528	-94.5967434454447	-0.246852816164798	-67.537453756387	-0.280891574439823	-67.4545113868655	-17.1159843281461	127.269968424273	
975100000	-16.8477976962888	-95.288908892704	-0.251764029416041	-67.6001857485073	-0.288231786366069	-67.6026525212487	-17.0459293290932	126.723093606205	
976800000	-16.73358941005	-94.9559041927106	-0.254934694898223	-67.7451575900458	-0.269189447770978	-67.709732839792	-17.0218788485553	126.862136144138	
978500000	-16.9153421267277	-95.3617010173967	-0.266828136424923	-67.9046875198786	-0.280874151398337	-67.7156572512187	-16.9975409049525	127.0478121733	
980200000	-16.8382220244951	-94.9480185075898	-0.272575739055493	-68.0898129187089	-0.285531472055755	-67.9444150042953	-16.9119347286389	127.401355750403	
981900000	-16.9101695982626	-94.7608493508767	-0.25863938441026	-68.0897306362101	-0.282545015417893	-68.1348896533807	-17.022783599957	126.379056392656	
983600000	-16.741555823684	-95.350443477805	-0.256404199373769	-68.2641198947904	-0.292218023853289	-68.1581426163573	-17.005675435307	126.385066981353	
985300000	-16.7799580400506	-95.7272593720056	-0.256934314469575	-68.3141546231606	-0.281765018492431	-68.3288814897789	-16.9638081939203	125.749592382054	
987000000	-16.778536672248	-95.0568978731881	-0.266066337804905	-68.4027914452332	-0.28176198686769	-68.2988532022854	-16.9199177287756	125.466752002115	
988700000	-16.8407260123358	-95.4304338275092	-0.279195263613973	-68.5322548652644	-0.278364670331509	-68.5072943058799	-16.9236991151686	125.652060417505	
990400000	-16.7056899981178	-95.4569776343748	-0.270838289598783	-68.6280229685438	-0.287604231078834	-68.638198731765	-16.7892491885527	125.038318055794	
992100000	-16.6678559389118	-95.4428618813316	-0.26185869491046	-68.7252183517259	-0.299338080335289	-68.7561487759662	-16.778839659352	125.53984983214	
993800000	-16.6534175950565	-95.7381982622878	-0.279532665498496	-68.8615630181927	-0.298317758964235	-68.8362979355173	-16.7756094270644	124.666065496689	
995500000	-16.6131698707247	-96.0451339547109	-0.277949611355367	-69.1042727321801	-0.297943050689223	-68.9604978821072	-16.8072914067189	124.679261949945	
997200000	-16.5544731500169	-95.4453266630323	-0.255051102795832	-69.1341518111809	-0.293216766529368	-69.0422408398167	-16.8677248084683	124.690683552086	
998900000	-16.6695242673811	-95.6824015453659	-0.275184612245192	-69.1547338317054	-0.288099960443475	-69.2605577894147	-16.7595953136524	124.974321465347	
1000600000	-16.6255154413667	-95.4643792579927	-0.249286605995612	-69.3310416660708	-0.289783584850086	-69.3962403937681	-16.704417318255	124.393073291332	
1002300000	-16.5082061251224	-94.8346950728368	-0.272658112346641	-69.4517857702723	-0.289981171542835	-69.4040073191832	-16.7096796392094	124.036632570468	
1004000000	-16.57038949012	-96.0551662888383	-0.269233468821903	-69.5381532411912	-0.30019812202022	-69.5611868689124	-16.6670002504164	124.465618789097	
1005700000	-16.4774543201316	-95.6911726513635	-0.255375151483913	-69.6461169424393	-0.300662638031025	-69.6441407950147	-16.6097071669494	124.472381266733	
1007400000	-16.5089994239509	-95.6951257755699	-0.25668386508614	-69.9261751228764	-0.290840451945163	-69.7889876372611	-16.7295731230055	123.351994097791	
1009100000	-16.390094488658	-95.5761377384094	-0.27658250285462	-69.9623051705125	-0.292405546460385	-69.9892761719399	-16.7446223455655	123.323515604793	
1010800000	-16.3703689547377	-95.6304449714707	-0.26556971146481	-70.0741100006367	-0.298602013990997	-69.9421034200174	-16.6277090461569	123.166600766928	
1012500000	-16.4050920843141	-95.6091011624373	-0.269147591733889	-70.2947349657248	-0.2986187134314	-70.1632730425643	-16.6404307554786	123.485918876304	
