!Keysight Technologies N9950B: A.12.38
!Date: Friday, 12 May 2023 16:43:37
!Timezone: (UTC-06:00) Central Time (US & Canada)
!Model: N9950B
!Serial: MY61131330
!GPS Latitude: 
!GPS Longitude: 
!GPS TimeStamp: 0001-01-01 00:00:00Z
!GPS Seconds Since Last Read: 0
!CHECKSUM:0881228792
!Correction: S11(ON U)S21(ON U)S12(ON U)S22(ON U)
!S2P File: Measurements:S11,S21,S12,S22:
# Hz S DB R 50
800000000	-7.54578866389526	-149.281553843864	-1.33169810836649	-75.286997301436	-1.36567592773627	-75.216016853174	-7.64683139662074	167.730232951699	
801700000	-7.5466370659422	-149.181554080991	-1.32972841793992	-75.3515791056771	-1.35695544893258	-75.4250889188146	-7.63345398518811	167.619541900647	
803400000	-7.55116174960981	-149.154910042203	-1.32737617484777	-75.5223801598386	-1.35687221989185	-75.4741131368258	-7.6184030557598	167.625910450059	
805100000	-7.52018582126251	-149.533814159279	-1.31730126818031	-75.6412009650841	-1.35972797358036	-75.751555544283	-7.62674045959588	167.423718774383	
806800000	-7.53762122727086	-149.850983587398	-1.34135251913605	-75.889849232956	-1.35688996853031	-75.7146155362402	-7.57493269730364	166.975856239024	
808500000	-7.48568406337955	-149.631806375868	-1.33757287386199	-76.0666282560891	-1.36534912837247	-75.9426466287973	-7.55211914464299	166.91008835962	
810200000	-7.54878520552946	-149.672288192528	-1.34024502155406	-76.2173756553908	-1.36277146804429	-76.0481307028816	-7.61406810953326	166.537782335496	
811900000	-7.51995048138463	-149.845812407133	-1.34923043759066	-76.172156213454	-1.38226870686892	-76.2240379793867	-7.57189335094085	166.318069783013	
813600000	-7.49626996269815	-149.888584244056	-1.34149852377302	-76.3915025607575	-1.37625003821206	-76.2819301276673	-7.58733648239855	166.394240286008	
815300000	-7.46750856082864	-150.207111002634	-1.34249275770837	-76.4605595109841	-1.37231265089039	-76.5358526763895	-7.50344868765319	166.136335398477	
817000000	-7.45286422449994	-150.189278129164	-1.3518496946162	-76.6898297277033	-1.37411089535518	-76.6205925796003	-7.55393740604146	166.007412489717	
818700000	-7.49306294429094	-150.28868287881	-1.34694528102302	-76.8482903979455	-1.37852269854293	-76.642655801965	-7.53907155505163	165.79940110268	
820400000	-7.49426141829785	-150.296674822296	-1.35290993736898	-76.9775270442595	-1.38931029390021	-76.9688891672385	-7.54416285921324	165.569893370259	
822100000	-7.47616546609806	-150.518399326924	-1.35301747757632	-77.0319631840681	-1.3777555824335	-77.0605219696483	-7.55175912589951	165.421677239195	
823800000	-7.46392248063099	-150.28548478941	-1.35281651319374	-77.1496919669013	-1.39225409555209	-77.1774787152881	-7.52219382015417	165.540715842309	
825500000	-7.43000222682726	-150.399644818542	-1.36883851207149	-77.4557334836273	-1.36480928648612	-77.3387784555314	-7.48958291139172	165.051390418275	
827200000	-7.43258047287107	-150.682541717084	-1.35891323176286	-77.4937967870056	-1.38233535456635	-77.5913462948642	-7.50221925142378	165.050830498701	
828900000	-7.4294792531634	-150.76943393136	-1.35878111011809	-77.6712554470551	-1.38196780460357	-77.6782939077072	-7.51530187761328	164.714511441621	
830600000	-7.47519017455375	-150.790701927721	-1.35491687619671	-77.6777966500435	-1.38562566851392	-77.7407962686067	-7.46844021078705	164.512852235339	
832300000	-7.44935191365651	-150.760548409226	-1.35486188191059	-77.9521670727626	-1.40039571497562	-77.9576617118265	-7.49144397461279	164.098644989363	
834000000	-7.4320482036758	-150.871084207552	-1.35986688723666	-77.9627994182409	-1.36845968609518	-78.0705567893096	-7.49389303595069	164.217420461978	
835700000	-7.40435811079609	-151.005956793782	-1.3582334363727	-78.2266995662411	-1.39039589714833	-78.1622144694243	-7.47381392288955	163.908573727886	
837400000	-7.44752356987432	-151.256821968415	-1.3530122244342	-78.3712695379701	-1.39453624230974	-78.2837010937745	-7.45881936486948	163.645176387885	
839100000	-7.41414232353402	-151.13365516406	-1.36575285671491	-78.4844730156762	-1.38082135363047	-78.4119234767453	-7.45870866612642	163.64785874111	
840800000	-7.40903538012354	-151.358597539478	-1.37056175552254	-78.5654331631187	-1.39282697189797	-78.5425411095675	-7.44423706070112	163.420807349762	
842500000	-7.41602856609478	-151.423522990999	-1.3807502874592	-78.6962628710768	-1.40900242660484	-78.6699555115882	-7.4353620297876	163.15012973638	
844200000	-7.38658579889937	-151.41535091683	-1.36706252795926	-78.8768275070877	-1.39180281733786	-78.7770204365542	-7.48466371313993	163.226228584655	
845900000	-7.41691814177994	-151.66019258353	-1.35864336746746	-79.0758808956464	-1.4030480278037	-78.9363376785977	-7.45469254958091	162.772887876176	
847600000	-7.39774012727793	-151.894074085938	-1.36491923086301	-79.2015330781501	-1.40033279178912	-79.2066457537172	-7.46719624165165	162.800218612047	
849300000	-7.398552048748	-151.870754599969	-1.37060667857245	-79.2621623178686	-1.41727422351799	-79.2635984561253	-7.43661306340214	162.426375002718	
851000000	-7.39285876418051	-151.772155417839	-1.38177286198534	-79.4596432351833	-1.41045384911312	-79.4261302160208	-7.45347362313428	162.305614752864	
852700000	-7.37959598151148	-151.975675063748	-1.38299338702746	-79.6296472748139	-1.38647177115792	-79.5537442558994	-7.46431365342628	162.300458884594	
854400000	-7.37684241979305	-152.090226224909	-1.39430731559442	-79.8295892183588	-1.42562680006441	-79.6711446627443	-7.44894251893759	161.98336881394	
856100000	-7.39185564156681	-152.217489838025	-1.40248885850476	-79.8917990596536	-1.4007447428914	-79.766285636595	-7.44296363777454	161.743601104597	
857800000	-7.35982532276414	-152.247020224516	-1.37641531565078	-80.1078510883675	-1.4169918655537	-79.9617785984752	-7.42457803924949	161.845001306132	
859500000	-7.35792257570844	-152.277279742903	-1.36629284477894	-80.1595672239814	-1.41234939920208	-80.0755867274429	-7.40759855073144	161.517524961666	
861200000	-7.37577903164808	-152.376558041755	-1.40724599099593	-80.2198635246621	-1.40310903077196	-80.2617182508433	-7.40579250012766	161.301290762346	
862900000	-7.35471883302208	-152.479879197712	-1.39579790289928	-80.4018414709488	-1.41107132248066	-80.3825309761834	-7.41694236641622	161.055160483878	
864600000	-7.36014223542209	-152.630885298716	-1.38726017247379	-80.6180912425756	-1.42016116111201	-80.5299164395747	-7.40243482683562	160.941840979	
866300000	-7.36020276549857	-152.949276987148	-1.41556799381574	-80.7264077245735	-1.42965351865193	-80.6714293923055	-7.41064004549681	160.599403897792	
868000000	-7.33221488673478	-152.816545949763	-1.40604620967055	-80.920420146344	-1.42446564245178	-80.8796053976732	-7.39327622202944	160.698140457763	
869700000	-7.33564991211439	-152.792054645101	-1.4277612191669	-81.0560944565461	-1.43242553954935	-80.9845806726871	-7.39139681449542	160.306275172542	
871400000	-7.3397770761092	-153.105155419163	-1.42477173780444	-81.1436549364955	-1.43018091835502	-81.1038875705052	-7.39818389951029	159.9276731046	
873100000	-7.34683776608711	-152.989854411713	-1.39993033412617	-81.2607466308027	-1.41058817023153	-81.1887460554401	-7.39919394385842	160.018253370399	
874800000	-7.32049516418089	-153.299830883457	-1.40052655946337	-81.3849769411862	-1.41705663412245	-81.4236024417863	-7.37694131223371	159.913795912953	
876500000	-7.32425046140408	-153.392801795388	-1.39314054978232	-81.6249810672673	-1.43185782877105	-81.4979655234331	-7.40732022825984	159.621605061188	
878200000	-7.32088139884833	-153.246528643685	-1.40547969558583	-81.7653723938164	-1.41731508783617	-81.7570642171827	-7.38736425956118	159.509207387463	
879900000	-7.33985579184342	-153.427390048718	-1.40883608036003	-81.7429890666148	-1.41787195524938	-81.8052165728572	-7.3834905839251	159.333313864442	
881600000	-7.33488759463974	-153.662807736795	-1.41714064310193	-82.0816428803658	-1.43169141353651	-82.0002666118565	-7.35519763215193	158.753259552216	
883300000	-7.28373267958839	-153.553901310433	-1.39639327899321	-82.0144762967943	-1.43082198208765	-82.1927804869492	-7.35626472553108	159.036093307437	
885000000	-7.30196844533327	-153.696457778666	-1.40156914064233	-82.1968883382211	-1.45459207857587	-82.2167041890675	-7.32854486988445	158.911782672434	
886700000	-7.29686665157157	-153.846987889269	-1.4206949524096	-82.3389649271903	-1.44849223426056	-82.3603890524508	-7.37730810212469	158.610167196827	
888400000	-7.29124096492678	-154.005850447295	-1.41174924314995	-82.5076935879156	-1.44545903984728	-82.49090103612	-7.34349352319759	158.529447289829	
890100000	-7.28687982013001	-153.908729931954	-1.41629738346928	-82.7557018756404	-1.43598482455622	-82.7470627936184	-7.31903132170474	158.398530376898	
891800000	-7.26129152843467	-153.946336905928	-1.42777520541132	-82.7159373458197	-1.43852063103988	-82.8322301967854	-7.34045189231583	158.213572761062	
893500000	-7.28667633267527	-154.168429244954	-1.41892429529248	-83.0071325525349	-1.4380183441027	-83.0424753308284	-7.34335477342184	157.698906948926	
895200000	-7.26523309641158	-154.504491039598	-1.42015775278795	-83.1078082913676	-1.43939191008075	-83.1501319223746	-7.32447935130198	157.576928968879	
896900000	-7.25643043045182	-154.462684192471	-1.41526435279355	-83.3185407073319	-1.44629737296575	-83.2365116897791	-7.32972311163224	157.624693026617	
898600000	-7.29075308147217	-154.421818085654	-1.4300059504054	-83.292153825382	-1.44547457693565	-83.3783865333868	-7.35107369342794	157.374449797851	
900300000	-7.22966183777764	-154.773930990718	-1.42164900494981	-83.4973828910919	-1.43845542550396	-83.5526520696021	-7.29841498839417	157.225852382602	
902000000	-7.23449461748338	-154.894853014456	-1.43406709181754	-83.7001625337226	-1.43726625988166	-83.7126096875562	-7.32149393132212	157.115678074846	
903700000	-7.21453059513784	-154.753691416459	-1.43608658410878	-83.7684864921974	-1.45163193771709	-83.82663524287	-7.33338125808915	156.814624000914	
905400000	-7.26277767453637	-154.819450761097	-1.42908740500552	-83.9074546521644	-1.45329401543736	-84.0291561057445	-7.32650310134564	156.652059408734	
907100000	-7.24105678671089	-154.78388701932	-1.42993245189157	-84.0859615816936	-1.45070194502359	-84.0775632289747	-7.32201982006176	156.3568850753	
908800000	-7.22235377346749	-155.250263915193	-1.43740477470283	-84.3363764696107	-1.4509786684664	-84.2850790995905	-7.27099852856621	156.218735633529	
910500000	-7.26510864521738	-155.195455313201	-1.44071264347992	-84.3603315680976	-1.44751918781558	-84.3373348274706	-7.31575085706525	156.223537943088	
912200000	-7.23519393437766	-155.353503172003	-1.43182854448639	-84.4657268611039	-1.45593034368397	-84.5717385543815	-7.27825897121405	155.965789907796	
913900000	-7.22082040267248	-155.334666260732	-1.43127063612194	-84.7023196328396	-1.46489889903738	-84.6739233433894	-7.28183034249527	155.990341830758	
915600000	-7.22768927230867	-155.473408504974	-1.43532661958103	-84.7592671840126	-1.45802912174064	-84.8251014641578	-7.26316356550581	155.653729790306	
917300000	-7.21621215647115	-155.500216441685	-1.44880333880504	-84.8863070439867	-1.46526632291069	-84.9444008353264	-7.27852987018683	155.377657883861	
919000000	-7.19695126312165	-155.725520136493	-1.44550909520274	-85.0788922676633	-1.46948070769657	-85.0915824132164	-7.30723623312234	155.088406820448	
920700000	-7.21143559382236	-155.675921778933	-1.44048613036242	-85.2120241035761	-1.46647330177798	-85.2378075089538	-7.24707560259703	155.094692311184	
922400000	-7.16977859816811	-155.892142380045	-1.44647594063273	-85.4821735407611	-1.46286342969315	-85.361030025762	-7.22832014839532	154.808568004851	
924100000	-7.20413689901929	-155.906649526615	-1.44581714575772	-85.5014284158183	-1.46152791351268	-85.537584074322	-7.24221823017564	154.849597236989	
925800000	-7.21006973133451	-156.253136742399	-1.43832454298783	-85.691106490479	-1.4692256958279	-85.6382704921155	-7.2683488330338	154.367954813513	
927500000	-7.20850164143321	-156.207792973571	-1.46359709043799	-85.7585063158414	-1.46933816527462	-85.7487764829977	-7.2115051622228	154.384284433597	
929200000	-7.20745514750564	-156.330681864184	-1.44324341534753	-85.9054704902478	-1.48690388607723	-85.9113761033675	-7.23891726022848	154.162953090693	
930900000	-7.16915191795602	-156.434952900024	-1.44955234004833	-86.1260729631989	-1.48006176069039	-86.1160153422357	-7.23571575101872	154.156766206088	
932600000	-7.18721029179956	-156.64061133789	-1.44534930973455	-86.326628761115	-1.48393302018928	-86.2162670568701	-7.21862953227414	153.81675214621	
934300000	-7.16142694494497	-156.622344982783	-1.44616756953348	-86.3218268794977	-1.47226948173146	-86.2278418774174	-7.24528746245006	153.805169506785	
936000000	-7.15840034998065	-156.842775604926	-1.46651725353325	-86.552322432977	-1.48032239745687	-86.5312286425241	-7.21714934867386	153.126528643214	
937700000	-7.1200095877269	-156.692057526789	-1.4495851074716	-86.7137722012513	-1.48064333095638	-86.745655389948	-7.20600170592043	153.09040168349	
939400000	-7.16052226072117	-156.966385720931	-1.45674992540024	-86.6977204718748	-1.48107499787771	-86.8135795617459	-7.20995595308219	153.10213939534	
941100000	-7.14387280917941	-156.948635043311	-1.45696758804399	-86.9500044889215	-1.4849318384564	-86.9474966733539	-7.20115808172386	152.888876800959	
942800000	-7.17183019698589	-157.015467937836	-1.46892178289586	-86.9815568881975	-1.48606692312226	-87.03100264527	-7.22044509473582	152.85193060489	
944500000	-7.14205766352976	-157.068245669999	-1.44793506572807	-87.2847396011288	-1.47915995306841	-87.1627292958626	-7.21505871951861	152.820717674829	
946200000	-7.12239580018323	-157.348702924492	-1.46905360808119	-87.2885599712259	-1.49448047333731	-87.3123317386292	-7.18925657786042	152.652045287763	
947900000	-7.13932557160639	-157.202341736036	-1.4726315073579	-87.4394273826615	-1.50555505526747	-87.5596216225868	-7.20499692400952	152.480340095051	
949600000	-7.12645083931337	-157.3373832668	-1.48666589873403	-87.6312637324621	-1.49060289123708	-87.6257088886581	-7.19499295124858	152.076192539935	
951300000	-7.12023474943391	-157.411833192686	-1.47129617588141	-87.7415549235447	-1.48321003687906	-87.842405583804	-7.20212435890668	152.005902186759	
953000000	-7.10352342501871	-157.879001169566	-1.46455662767324	-87.910777527201	-1.50115873283347	-87.8466269104934	-7.19286038892533	151.708421288244	
954700000	-7.11299250631909	-157.70274177531	-1.46683122482683	-87.9808101505677	-1.4890035861544	-87.9566080045501	-7.23374860971794	151.483660516205	
956400000	-7.08137168512563	-157.638231605208	-1.47335709269012	-88.2535898265569	-1.51240889182508	-88.144536678039	-7.17859082738035	151.338527208707	
958100000	-7.09687941707799	-157.760047324729	-1.48064141402903	-88.3294490118925	-1.51515632689423	-88.3038994768673	-7.1713564840992	151.275074855902	
959800000	-7.0988956943153	-157.77431058286	-1.4878934548404	-88.4353988106345	-1.50463405584205	-88.4815733771062	-7.17952911112511	151.084434517483	
961500000	-7.10429439597094	-158.198565673354	-1.48963469560019	-88.6550138310058	-1.5045077169028	-88.6675015993884	-7.16094677261835	150.784768595682	
963200000	-7.06342122272959	-158.064017386356	-1.46723221968936	-88.713019607583	-1.51502100148007	-88.7454015985417	-7.16023994739632	150.703542301903	
964900000	-7.08066286497238	-158.257810485012	-1.48798299328388	-88.8601326469824	-1.5113342577728	-88.956323568848	-7.13946847543738	150.546774016968	
966600000	-7.04818751735223	-158.395996646892	-1.46732157454808	-89.0745630457005	-1.51253885768477	-89.0450676351123	-7.13125876959311	150.324861727266	
968300000	-7.09423281648814	-158.297296212993	-1.48328870146771	-89.0950243386757	-1.51410798412925	-89.1045707166088	-7.12105737085602	150.263169428233	
970000000	-7.06140151002038	-158.652889876063	-1.48754124673097	-89.3628076574151	-1.52873436181139	-89.3336191609597	-7.12985848902911	150.00465229153	
971700000	-7.08309271533467	-158.398727123299	-1.49517780944947	-89.4746352781251	-1.50948263804379	-89.4780653780527	-7.11365392506749	149.984625184516	
973400000	-7.07844392679372	-158.594817257395	-1.48895703228615	-89.5255406137173	-1.51488136034182	-89.5430103389645	-7.13800922288132	149.640185293433	
975100000	-7.0422266318423	-158.811588767174	-1.48790615027337	-89.6571683812975	-1.52344208200217	-89.7645366425587	-7.13542829758734	149.414786978864	
976800000	-7.01520240094595	-158.581720920577	-1.4956506926722	-89.881036674507	-1.51454746892147	-89.8242959294752	-7.11934646432177	149.31424386402	
978500000	-7.04563352292268	-158.995554658914	-1.49754969400183	-89.9525947885437	-1.52036428349338	-89.9551345214037	-7.10182849742995	149.145932656936	
980200000	-7.03681126887923	-159.017963399723	-1.50836567999732	-90.2241233609781	-1.52746867652433	-90.0463551535614	-7.09021563200412	149.039993308886	
981900000	-7.07826959701096	-159.120373594344	-1.51104476083666	-90.24028345103	-1.51522678417979	-90.3059692522815	-7.1220883533467	148.748036885069	
983600000	-7.02197791004922	-159.034895326419	-1.50451786714375	-90.4553819576746	-1.53183031814459	-90.3756507065713	-7.11058540083233	148.613377156896	
985300000	-7.03203486593539	-159.275930751303	-1.50927013685501	-90.4758430340063	-1.53549908719589	-90.480252381471	-7.12288189002911	148.491307903047	
987000000	-7.03239233303985	-159.306244998921	-1.50771947426959	-90.6679329604355	-1.52000478226063	-90.5345253987295	-7.11861240315728	148.207117677687	
988700000	-7.03976844879152	-159.387801140151	-1.52395404674327	-90.7884099653199	-1.53625605542321	-90.7376720537629	-7.09662651438477	148.079206257366	
990400000	-7.01457768755197	-159.428407177343	-1.51583319171349	-90.8891485923765	-1.54900449369374	-90.9213376756807	-7.10553408483502	147.708113556973	
992100000	-6.99781061078542	-159.654856913509	-1.51862469397669	-91.0591064704165	-1.53293859266886	-91.0650677544957	-7.06199181634353	147.706574840158	
993800000	-7.02497639116204	-159.674618914136	-1.53258475598277	-91.1151886339489	-1.54569092238225	-91.2151267802411	-7.09156628814025	147.408757636565	
995500000	-6.97568369227349	-159.89408849646	-1.52178810519721	-91.4327196705451	-1.54671114583953	-91.3668137910266	-7.09465917153698	147.268848531111	
997200000	-7.00408318113179	-159.650848185617	-1.51001199415245	-91.5013859271787	-1.54799100313112	-91.4952024376321	-7.09620750988893	147.309277130084	
998900000	-6.98452169591659	-159.935742767895	-1.50637763793199	-91.6106087641605	-1.53522552603541	-91.5709479152986	-7.06121401900179	147.104933129423	
1000600000	-7.00004861929047	-160.012235815198	-1.50360540919579	-91.7491047513477	-1.552467540855	-91.6928628353533	-7.05913792243561	146.775415955698	
1002300000	-6.97573761368429	-159.845789939196	-1.51582206105614	-91.9678689214982	-1.55147452893768	-91.8396315046131	-7.09644567759368	146.641908528717	
1004000000	-6.97124146493845	-160.125945919163	-1.51698845334957	-91.9446188773997	-1.55146556611663	-92.0738139325568	-7.03378235047828	146.41057388256	
1005700000	-6.94884245857615	-160.318070561065	-1.50510037314482	-92.2149119152962	-1.54991229424025	-92.1195416778457	-7.03114240490342	146.395957370908	
1007400000	-6.97106726756914	-160.261098933232	-1.52671189056734	-92.3967943324516	-1.54308165264947	-92.3816443072234	-7.06779910043754	146.046237174165	
1009100000	-6.94857070369711	-160.311712608662	-1.51557450941899	-92.5591520289382	-1.53551983465638	-92.4165840247277	-7.07964801118545	146.061292711057	
1010800000	-6.95577167229276	-160.246147780582	-1.52059379677275	-92.4981328234072	-1.53640615087922	-92.4200246780999	-7.05752328526606	145.894943269437	
1012500000	-6.95006590674609	-160.332030757154	-1.51572451100754	-92.7629434116445	-1.55629378814638	-92.6745714113988	-7.04944619350745	145.651143095545	
1014200000	-6.95626263545812	-160.586015578668	-1.53364757624179	-92.9830687337733	-1.54548091140544	-92.8455789480293	-7.03134467830559	145.239512652188	
