!Keysight Technologies N9950B: A.12.38
!Date: Friday, 12 May 2023 16:29:35
!Timezone: (UTC-06:00) Central Time (US & Canada)
!Model: N9950B
!Serial: MY61131330
!GPS Latitude: 
!GPS Longitude: 
!GPS TimeStamp: 0001-01-01 00:00:00Z
!GPS Seconds Since Last Read: 0
!CHECKSUM:1173795948
!Correction: S11(ON U)S21(ON U)S12(ON U)S22(ON U)
!S2P File: Measurements:S11,S21,S12,S22:
# Hz S DB R 50
800000000	-22.2244343069403	-93.7575289191148	-0.114538574436946	-52.2073386058081	-0.140975834280467	-52.1503814827371	-22.7053835785649	156.457193040701	
801700000	-22.1160886622413	-92.7976857310329	-0.112104192296094	-52.3251669068326	-0.140530511447713	-52.3169552492358	-22.7132864126428	156.801544478541	
803400000	-22.2378523077916	-92.35491559815	-0.122131763358937	-52.3917486808847	-0.139433160325226	-52.4754206827176	-22.6353240058423	157.302328324831	
805100000	-22.111380015793	-93.6503706399837	-0.0969333971431406	-52.4932127263878	-0.125763083119881	-52.485384737563	-22.7852637453438	156.674763907031	
806800000	-22.3152246146273	-94.1715456683421	-0.121994229620772	-52.609311719448	-0.143103991733029	-52.6625839364356	-22.438346455312	155.668299083641	
808500000	-21.9645902109031	-92.906327113277	-0.11148763119375	-52.815507839565	-0.131768787518815	-52.6984739203254	-22.3588474442335	156.692572134653	
810200000	-22.1984964098516	-92.0690632740684	-0.117469965490954	-52.9330562669361	-0.137725397917884	-52.8861527238885	-22.5962655104519	154.788531000992	
811900000	-22.1697448199223	-93.1501354051839	-0.117286461225541	-52.9848048945329	-0.149112417632134	-52.9725882951121	-22.2660898534883	155.022959565706	
813600000	-22.0861345257094	-93.01460475153	-0.113075239848902	-53.1375429496999	-0.143825060353321	-53.0281653355903	-22.4082464212858	155.179606494239	
815300000	-22.0563955005184	-94.4703941962412	-0.101638356228351	-53.1465709577711	-0.137798657147101	-53.1582415624577	-22.2042651489872	155.638101508825	
817000000	-21.9938007327526	-94.3218679426484	-0.125630480442107	-53.3999468771481	-0.142422002071519	-53.2813294420916	-22.462740909932	154.830415174276	
818700000	-22.1913479714595	-93.4848018385464	-0.115335017006557	-53.5186727852478	-0.131792985862438	-53.3840266210439	-22.2903259858645	155.141808376403	
820400000	-22.1375189876634	-92.7713564816321	-0.119267934178782	-53.5889439858228	-0.13824459492442	-53.5302766580938	-22.3163660498123	154.659682845705	
822100000	-22.157399417861	-93.76910059129	-0.122651699772753	-53.5742469838256	-0.151137779433579	-53.6760014634853	-22.3723284479751	153.981477784804	
823800000	-21.9679073501319	-93.0618875794494	-0.120077513107689	-53.7397697669477	-0.142636545376062	-53.6844438576567	-22.4645831084922	155.584609969297	
825500000	-21.8035652942939	-92.8254951978902	-0.125578495253283	-53.9008798710332	-0.126844342011835	-53.8298995646959	-22.1736647615751	153.938433306674	
827200000	-21.9107029883086	-94.1320042678134	-0.125700820462439	-54.0711049996737	-0.130968315557122	-53.9394951047571	-22.3297379531986	154.756737069353	
828900000	-21.885433913127	-93.801575344964	-0.105960638117984	-54.0625849156722	-0.139597264181844	-54.0363967757768	-22.3179094469786	153.705096920679	
830600000	-22.1083379249885	-92.6150336246629	-0.108368437390658	-54.1532999957924	-0.137518057484942	-54.1538753560387	-22.1158076554772	153.875438100945	
832300000	-21.9704573597479	-92.1257441195803	-0.117487550133164	-54.276515499471	-0.144665038426347	-54.2186097878808	-22.0881607734519	152.840784005567	
834000000	-21.9288263826363	-92.9876916210246	-0.124005118490755	-54.2842200149216	-0.131882042032312	-54.403011516638	-22.307990153889	152.779686054361	
835700000	-21.8113334765009	-92.8051453655808	-0.115985086016273	-54.5674846115013	-0.138390570208354	-54.5307356438372	-22.0602004889051	152.545648093832	
837400000	-22.0285159358569	-92.4599068079043	-0.116609864299182	-54.5812990778661	-0.142330630368097	-54.6449886045084	-21.9853505433196	152.077920291193	
839100000	-21.8306468431069	-92.2605903382336	-0.122444929864605	-54.6528475297147	-0.139823381409047	-54.7055268558584	-22.0605988302577	151.975328631728	
840800000	-21.9293307628344	-93.478483927289	-0.112473060950834	-54.8174691382623	-0.137954156746649	-54.7189621007739	-22.0612200802637	152.331528569391	
842500000	-21.8156861728033	-92.9854452186789	-0.122388751264579	-54.9207249814728	-0.152331469851944	-54.9808461524667	-21.8737058199142	151.605985611817	
844200000	-21.7716621030875	-92.4396579745991	-0.122405703581282	-55.082805331219	-0.147953549908422	-55.0438092257605	-22.2318838853351	151.226487421383	
845900000	-21.9720328995386	-92.3545297579154	-0.104962403498687	-55.3081217183573	-0.146968107466254	-55.1766001371292	-22.003436852238	151.012130053183	
847600000	-21.932502363465	-93.5373223555325	-0.113463190475358	-55.3562345795353	-0.155015290707867	-55.3388578125078	-22.3288993684321	151.114360430851	
849300000	-21.9168751617513	-93.16395178562	-0.111972457034434	-55.3097771447027	-0.161137748162477	-55.422056613593	-21.9819340491792	150.607241499602	
851000000	-21.7816054779907	-92.5837728841234	-0.106010657970532	-55.425131548645	-0.148165665565652	-55.4391728478954	-22.1219516375957	149.722534159719	
852700000	-21.6959291341599	-92.9082833794617	-0.131257673971996	-55.6652096598623	-0.130663051537828	-55.6937706105514	-22.2513530405077	149.492662585519	
854400000	-21.7097099123303	-92.4160593172296	-0.126330227040199	-55.7561986701591	-0.146781057661832	-55.7434477514531	-21.9985611533217	149.679927164787	
856100000	-21.8099521106102	-92.7343443306769	-0.129426328739316	-55.9041303798418	-0.143393633674701	-55.8464058093951	-22.0399796684478	149.157890483775	
857800000	-21.7179012020155	-92.6722312385842	-0.113549546804027	-55.9506785476762	-0.141060963808313	-55.8794192739218	-22.0615676916259	149.937118393629	
859500000	-21.775023745981	-92.412199617809	-0.103930535366297	-56.0690413962141	-0.150087474300847	-56.0470383070247	-22.0055000860783	149.581629556722	
861200000	-21.7429869360645	-92.7412703756096	-0.135294205499726	-56.1303788124308	-0.128914562609654	-56.1123637406609	-21.9063792396416	148.797037402506	
862900000	-21.6936437948794	-91.9511729393164	-0.136359002079817	-56.2029067061094	-0.143365636812407	-56.3033627556853	-21.8291780132374	148.582830856351	
864600000	-21.780933836511	-92.7104594922174	-0.119924001450715	-56.3903967654958	-0.134365960094233	-56.3781041835167	-21.9529279799616	148.716601848257	
866300000	-21.6692012594345	-93.7426322339607	-0.130301548825868	-56.5128981801952	-0.15426107493017	-56.4865045932249	-21.8772296201036	147.69193900924	
868000000	-21.6352594983922	-93.1699293046386	-0.137680308336597	-56.6511263908904	-0.147217435650434	-56.6317164746971	-22.001159864159	149.160533020741	
869700000	-21.4044234590769	-91.9696816601172	-0.139590806338264	-56.690033423747	-0.159209785851414	-56.7097155124248	-21.8517535589667	147.414241584843	
871400000	-21.523757795919	-93.0831094055143	-0.133738065690082	-56.8858498505074	-0.150080380950143	-56.8151342575459	-21.7587653065954	145.998386912505	
873100000	-21.6437188929322	-92.0218673475187	-0.133412425000918	-56.91464465835	-0.150431448136027	-56.8972434826646	-21.9490823651821	146.291952397258	
874800000	-21.6182405362925	-93.109420971952	-0.115671824298558	-56.9973529190578	-0.139127380295475	-57.033384772973	-21.9318003971186	147.180245376238	
876500000	-21.5902448789705	-92.5680735160337	-0.138908434375066	-57.2290513822458	-0.163234480334258	-57.1461686560883	-21.9384405589448	145.226241903871	
878200000	-21.6106091190243	-91.4248094239821	-0.142386107729269	-57.268878135754	-0.14695666094047	-57.2996947227947	-21.8528035328212	146.485093236598	
879900000	-21.6828928074924	-92.3090715681211	-0.123091820296425	-57.2829668734479	-0.148822532197781	-57.3443166403587	-21.9012975679207	145.747386329108	
881600000	-21.6529219355307	-91.7787613640155	-0.13727576178213	-57.5028177898157	-0.140759892301703	-57.4858624903139	-21.601912866865	144.769520019063	
883300000	-21.5020846605293	-92.4201737744612	-0.1350729465553	-57.4676325201736	-0.148266603168556	-57.6426561360165	-21.8704282355233	146.075769443867	
885000000	-21.5582728178499	-92.150399712718	-0.115331066868195	-57.6138017141897	-0.150473335147967	-57.6132230873517	-21.6698632892014	146.166469113825	
886700000	-21.4795240289431	-92.9845614973125	-0.144239082229756	-57.7853912076096	-0.158369387352349	-57.7936438473671	-21.8417597028069	145.041216328028	
888400000	-21.586580296083	-92.6599560103576	-0.123276358531327	-57.9534115874461	-0.146490136907266	-57.8899536432055	-21.7728697930261	145.732093898175	
890100000	-21.4014564119932	-91.6647094375775	-0.115500708996954	-58.0486366311631	-0.152526368082248	-58.030125482125	-21.7453264904661	146.117459082499	
891800000	-21.3526390255696	-91.8989917852687	-0.136921297821265	-58.040292872366	-0.145005444565007	-58.0439616634355	-21.8394028789051	145.186389230412	
893500000	-21.4734285055525	-91.8950530441564	-0.123403406339542	-58.2644519078119	-0.147478439549955	-58.2001327027738	-21.6684778521193	143.956210962453	
895200000	-21.5555603082355	-93.3893677548016	-0.138043789154316	-58.4578234148631	-0.15706485008451	-58.3661529307605	-21.7683383985613	143.990367890186	
896900000	-21.3807204016761	-92.5026071116449	-0.124973242311395	-58.5094447033912	-0.147975401538724	-58.4093369445679	-21.8067408743201	144.143595031054	
898600000	-21.5138787497318	-91.8824207364694	-0.130561101217071	-58.4940203590606	-0.148654866289122	-58.6342173576736	-21.7758705870041	143.072343851357	
900300000	-21.3491510443709	-93.617039380986	-0.126755152049077	-58.662844214442	-0.151194899666508	-58.589655150201	-21.6730838317601	143.779329828292	
902000000	-21.2967908194191	-93.6186208396567	-0.13372507892742	-58.9003027394034	-0.150258227978772	-58.8435448598311	-21.8098589586397	142.886214546974	
903700000	-21.182804707214	-93.0163287503456	-0.135411271685855	-58.9059942664519	-0.161917429383375	-58.8489757396618	-21.7395181282561	142.045546042149	
905400000	-21.4459318734187	-92.394352785292	-0.133018608415863	-58.9929989776072	-0.153578261595679	-58.9908258375225	-21.8033894881793	143.190113741143	
907100000	-21.2992712496977	-91.5857726463062	-0.140030333404686	-59.1034951868374	-0.151650755092308	-59.008505811102	-21.6607564072105	141.705549637469	
908800000	-21.2539986726358	-92.682285462485	-0.125158272645671	-59.3119819477065	-0.155394005838675	-59.2585796369145	-21.539966321093	142.208710881877	
910500000	-21.436542821014	-91.966382284523	-0.1261628326823	-59.3325987211274	-0.158465684797492	-59.3031146321702	-21.7725611089013	141.546199003639	
912200000	-21.4775142898387	-92.603699466698	-0.125234884714051	-59.4601822439738	-0.149051431861453	-59.376041857311	-21.6474042498472	142.551558104838	
913900000	-21.3273953496076	-91.8924416775501	-0.119731136130005	-59.6034925328165	-0.147541541118747	-59.5428195596395	-21.6449708438696	142.358497641576	
915600000	-21.3557776044833	-92.3164582200218	-0.128863505119845	-59.6472931218395	-0.148196448484443	-59.6176445477968	-21.6333570045103	141.547699571231	
917300000	-21.3059760201331	-92.0223369043112	-0.140890283944211	-59.7358727844246	-0.157335774247802	-59.8490868852921	-21.5955150587882	140.912451001577	
919000000	-21.2554849872798	-92.7069897875002	-0.142266744351701	-59.9129161195351	-0.160326010721732	-59.895519984619	-21.6120360911285	139.863389836995	
920700000	-21.3059129779074	-91.9727226159402	-0.134111872976805	-60.0254888597464	-0.141090048749515	-60.0916268480345	-21.4390134370118	141.000651441806	
922400000	-21.1374360463443	-93.108896404985	-0.135519847025216	-60.3008344660357	-0.1562938934044	-60.132126172727	-21.3854341660015	140.827135178483	
924100000	-21.2381867132773	-91.9330504255241	-0.112379468741039	-60.2133978421534	-0.160805034643533	-60.1725423251519	-21.6455084976731	141.139265044808	
925800000	-21.3548285569932	-92.8413955407953	-0.132998893044829	-60.4045638115861	-0.146557444003397	-60.3444868341167	-21.5484259024472	138.934827888219	
927500000	-21.2795407565042	-92.5897320401	-0.139427537199671	-60.3764025808875	-0.149243906026372	-60.4102855707281	-21.370604750664	140.284997369844	
929200000	-21.4015585340042	-92.1282774616421	-0.145697425222711	-60.5110259659558	-0.159245993667729	-60.4715392429924	-21.4125860241291	139.62052192356	
930900000	-21.2176370529317	-92.4210895295808	-0.134179017076984	-60.6472628051743	-0.150526502390481	-60.6722613390778	-21.5424714565276	140.527401137339	
932600000	-21.3447902185084	-92.0366747409721	-0.130732019978226	-60.8131157592321	-0.161568443106834	-60.8252313730592	-21.3679483558376	139.524171787387	
934300000	-21.279147735829	-92.7107865166674	-0.130449214026435	-60.8422492865671	-0.146083777030461	-60.8161229440749	-21.5166451014292	139.208861211743	
936000000	-21.2295116183589	-93.3242307788041	-0.144120718985486	-60.9636270155036	-0.164823354007456	-61.0555575404816	-21.2221630132012	137.949223530374	
937700000	-20.9603022025834	-92.4507522975686	-0.130670624527249	-61.2248344781687	-0.157915323748287	-61.1600808135439	-21.2452645873446	138.425705108113	
939400000	-21.1875839966243	-93.4649894449378	-0.129691484098026	-61.1721815553397	-0.159387697248711	-61.3100538106503	-21.4267404911662	137.693534954112	
941100000	-21.1229091179054	-92.5499150399138	-0.136246306732052	-61.3534160315005	-0.155397049869044	-61.2813147741361	-21.3730665195239	138.43511931033	
942800000	-21.1705314435501	-92.5833030493163	-0.123811882911329	-61.3965145117574	-0.166463323353451	-61.38250638166	-21.4652386988734	137.345534697269	
944500000	-21.0906101769232	-92.5051962182032	-0.12273190395202	-61.5902491452683	-0.148607131996767	-61.5761960942015	-21.6060577895577	137.35931830669	
946200000	-21.0609233390408	-93.7913444580567	-0.137734710623424	-61.6805417339529	-0.170919670485214	-61.6393533146244	-21.469722814884	138.206387718014	
947900000	-21.1849788336346	-92.7481965810684	-0.147055133389012	-61.6987748596177	-0.168987568777831	-61.8154516122109	-21.5705085765366	138.975016168048	
949600000	-21.038484000004	-92.884742595667	-0.150060130207201	-61.9515613417054	-0.15948019773343	-61.8479397760238	-21.3721841434478	137.487401439458	
951300000	-21.0694152768711	-92.0565471303183	-0.146423771599148	-62.0042841659159	-0.14585117750576	-62.0099373807564	-21.4092495916617	137.115816689192	
953000000	-21.1475038415977	-94.2482094525504	-0.142399330654179	-62.1624911277634	-0.154375478328326	-62.0987148775859	-21.3748428626889	136.36272355299	
954700000	-21.0457232080909	-93.4463461664651	-0.135526736026009	-62.158710744562	-0.151475793240016	-62.1209963945588	-21.5243537377736	134.682660948018	
956400000	-20.8692818554979	-93.0952008343034	-0.140343564789597	-62.2946623310883	-0.165099035242509	-62.2715208314812	-21.253884976308	136.474387697425	
958100000	-20.9077428318501	-92.9535150200035	-0.136770477179423	-62.3609328928913	-0.161813064399863	-62.3695840948764	-21.230168532293	136.37331422308	
959800000	-20.9148960737772	-92.1990389058458	-0.143743928860295	-62.4953484800759	-0.156123810047777	-62.556221760462	-21.3096518193334	136.104479435091	
961500000	-21.0417880073496	-93.0663146564536	-0.13464313648582	-62.6660932606042	-0.152916574252834	-62.677926795333	-21.1789988738049	135.460544039061	
963200000	-20.8981931254865	-93.6278753953627	-0.13186195504421	-62.6923684440515	-0.153188120446215	-62.7126389624998	-21.2706453585295	135.82875401446	
964900000	-21.0103590720591	-93.291989634595	-0.152694025635051	-62.8311332276131	-0.156409516773178	-62.9147926257534	-21.22306096256	136.206514141692	
966600000	-20.966432396182	-93.244767993675	-0.138183070782154	-63.0798326106705	-0.155780159233767	-62.9894728241607	-21.179093217674	136.248284632766	
968300000	-20.9775568938581	-92.8261023484533	-0.125806608675297	-63.1084041010394	-0.158851592698713	-63.0760358142428	-21.1561022617235	135.799926533099	
970000000	-20.9415040274018	-93.8899776830815	-0.142217963434553	-63.1760252369958	-0.161293985853546	-63.289773440135	-21.1798192831233	135.549796092231	
971700000	-20.8885402119551	-92.4005872836989	-0.150382907038908	-63.3258937182591	-0.15919906544237	-63.3542111912632	-21.2137960030705	135.935127237592	
973400000	-20.9682979981542	-92.7988773287922	-0.13298952142475	-63.3780636040695	-0.162628966532162	-63.4173929755547	-21.2268406738988	134.323923459288	
975100000	-20.8120481938843	-93.7817538419438	-0.121967490858351	-63.4970493975697	-0.170991848582425	-63.5917791295463	-21.1337662710556	133.699602524074	
976800000	-20.6270459941714	-92.7046393976436	-0.136614424459295	-63.6091773782897	-0.169819435253071	-63.6559240741816	-21.1194825017743	134.080422091294	
978500000	-20.8297134678352	-93.9725704271531	-0.14341483987485	-63.8237253615098	-0.156069636529756	-63.7022375700631	-21.1199210651188	134.521334518878	
980200000	-20.8349167787749	-93.2960344436656	-0.137856578105728	-63.941155857763	-0.164362521247927	-63.8031019805587	-21.0256974229897	135.021027451419	
981900000	-20.9594950215396	-92.9502850421874	-0.156442331340734	-63.9921027959362	-0.164543935081086	-63.9489531280088	-21.1348880662059	134.023737701083	
983600000	-20.6735222077214	-93.7747708251124	-0.140344587066799	-64.1065559671682	-0.176439433441314	-64.1285986595474	-21.1390773291215	133.72987323458	
985300000	-20.7641393799132	-94.3699860209919	-0.139141231215118	-64.1599383303729	-0.164105746772499	-64.0941124263504	-21.1025692329253	132.904791110121	
987000000	-20.7832373823255	-93.2222454207696	-0.149070016889635	-64.2599998951677	-0.158939250829238	-64.213752163675	-21.0811799182976	132.506480142781	
988700000	-20.8525044140805	-94.1798763607467	-0.157740241870956	-64.4969263971972	-0.171194734852493	-64.3807972187925	-21.1077624035203	133.090572263569	
990400000	-20.6541134181067	-93.7740540687457	-0.152683887305153	-64.440306473528	-0.178193383237052	-64.5126388956208	-20.9073680546576	132.11800403675	
992100000	-20.6097897163817	-94.3944879975533	-0.13954024398096	-64.6021769761634	-0.167616198642969	-64.5905245745288	-20.9304990439323	132.861169594876	
993800000	-20.6032814388031	-94.2681017443959	-0.154454105977373	-64.6256794383124	-0.178754329383914	-64.7196268182638	-20.923216242482	131.471064065517	
995500000	-20.5589052607768	-94.802695628177	-0.154292248087351	-64.9583743613423	-0.18197973967349	-64.764081574899	-20.9766932600004	131.988039019378	
997200000	-20.505433329898	-93.4682662114207	-0.135850806938626	-64.9667137938188	-0.174202654506115	-64.9525079390262	-21.1222886230789	132.06652163955	
998900000	-20.6627837609326	-94.4746744065169	-0.146274582279919	-65.0818086457954	-0.17117806191707	-65.0206357192453	-20.8880423752499	132.421197127338	
1000600000	-20.6229542043379	-93.9580338786919	-0.132426677192292	-65.0744046669202	-0.170616516363229	-65.1414267747602	-20.8304484125674	131.882365891026	
1002300000	-20.4753468695089	-92.8190075906656	-0.142306542778429	-65.3384385645709	-0.166620731028354	-65.1944332766078	-20.8766105447681	131.561514079563	
1004000000	-20.6005300758341	-94.9858336245102	-0.146579539665426	-65.4647593433761	-0.178097385754831	-65.3373789957365	-20.8052259443687	131.897224361572	
1005700000	-20.4529253440945	-94.2533196550449	-0.1328289006967	-65.4487624686784	-0.166571475843148	-65.5269540889232	-20.7645404926119	132.009719019835	
1007400000	-20.474349101946	-94.2850769969181	-0.134536263736796	-65.7556321997119	-0.173628303049128	-65.5779385845701	-20.9185091722062	130.813939372913	
1009100000	-20.3140980580319	-93.9570055449902	-0.151899520873377	-65.791196273522	-0.1756166472577	-65.6842923357704	-20.9661131279637	130.646748803486	
1010800000	-20.3358073006055	-93.6669796010986	-0.148006126073104	-65.8201782172633	-0.165740539756233	-65.7948598303073	-20.8226486586132	130.833025951667	
1012500000	-20.3962602106879	-93.7602676023459	-0.136852282541515	-65.9767523733689	-0.170157339967536	-65.9166684707941	-20.8642377705964	131.153584909661	
