!Keysight Technologies N9950B: A.12.38
!Date: Friday, 12 May 2023 16:42:03
!Timezone: (UTC-06:00) Central Time (US & Canada)
!Model: N9950B
!Serial: MY61131330
!GPS Latitude: 
!GPS Longitude: 
!GPS TimeStamp: 0001-01-01 00:00:00Z
!GPS Seconds Since Last Read: 0
!CHECKSUM:0832783676
!Correction: S11(ON U)S21(ON U)S12(ON U)S22(ON U)
!S2P File: Measurements:S11,S21,S12,S22:
# Hz S DB R 50
800000000	-15.9738837633548	-105.815144443639	-0.285439029995974	-56.98353303215	-0.314806694986478	-56.8762373869523	-16.2926198530748	159.092748719933	
801700000	-15.9375878911586	-105.441883242644	-0.287840657073935	-57.0510470193563	-0.301075416125223	-57.1352606544698	-16.2629221253246	158.910710632055	
803400000	-15.9686416306627	-104.966366886269	-0.286843983469606	-57.1147174491934	-0.300353318288886	-57.1778941187456	-16.2215378063596	159.222999420518	
805100000	-15.8946745132878	-105.891209929755	-0.260313588018829	-57.352436348973	-0.3231458286493	-57.2581348794359	-16.2840334620557	158.838012655106	
806800000	-15.9806732001679	-106.181136325965	-0.299348394302606	-57.4009963324248	-0.304098824666629	-57.3351865751401	-16.1362776990736	158.303477616538	
808500000	-15.8190456565603	-105.54532882684	-0.288336092727628	-57.5771678553178	-0.304254127985014	-57.4042383653752	-16.0978953797567	158.449755084857	
810200000	-15.9571417325073	-105.247767138401	-0.303570023794527	-57.777606736318	-0.309754133255389	-57.6796188173054	-16.1987518276022	157.41770533691	
811900000	-15.9073992669213	-105.641207649736	-0.29145032073371	-57.7009724577335	-0.306627579399121	-57.7692670833692	-16.0556631150698	157.360827015481	
813600000	-15.8644370163831	-105.425497070645	-0.291354273045089	-57.8959355878643	-0.309691335355383	-57.8786009913956	-16.1150217484224	157.447169335236	
815300000	-15.8537857103001	-106.182409686258	-0.293715784382844	-57.8870940585438	-0.317354847992725	-58.0424523348739	-15.9938392409134	157.578288889244	
817000000	-15.7826415445746	-106.146834636675	-0.297781792206213	-58.217414309053	-0.298556046055986	-58.0870320891029	-16.08628796508	157.049842431862	
818700000	-15.8616681491326	-105.729033538864	-0.291939157906507	-58.3092207900041	-0.320443228663901	-58.12320373167	-16.041008977924	156.984641647252	
820400000	-15.8495933905683	-105.610101165059	-0.29300675768774	-58.4360205150608	-0.318615934103094	-58.4565217762211	-16.0319536206551	156.50372124819	
822100000	-15.8436013751018	-105.982201383285	-0.297516673796344	-58.4673015963802	-0.301690627221778	-58.5071553724584	-16.063794317831	156.256532518221	
823800000	-15.7842949076303	-105.598296189101	-0.301513188386914	-58.582396168395	-0.315015990305669	-58.5781276306901	-16.0700864059831	156.949099445394	
825500000	-15.681685659401	-105.409232124719	-0.308410223409583	-58.8181564888642	-0.304188302881479	-58.7312002054067	-15.941738863785	155.948412571259	
827200000	-15.7248208762824	-106.122768758912	-0.309200417352219	-58.889254631844	-0.310721468704594	-58.8832488421317	-16.0210132122435	156.156818244752	
828900000	-15.6921974674453	-106.060301951001	-0.297542091623646	-59.0459683848221	-0.311531885914407	-58.8954391639372	-15.996975798916	155.678139973739	
830600000	-15.8161915307107	-105.338851836549	-0.29319960482776	-58.9751911368618	-0.308234510259883	-59.0306969492231	-15.8993733047317	155.454139673418	
832300000	-15.7378095936898	-105.471721652984	-0.293780547331446	-59.283033714109	-0.327897989186704	-59.1771734303573	-15.875950243293	154.722351577021	
834000000	-15.7118723835968	-105.626086050815	-0.306358831629077	-59.2256311761776	-0.306158455017243	-59.2472845933897	-15.9729337098885	154.784227687785	
835700000	-15.6708186055688	-105.343742997615	-0.302365856451589	-59.402189154942	-0.32096984058454	-59.4286477101205	-15.8560841848572	154.483391759664	
837400000	-15.7572281789422	-105.471272427998	-0.307238198945227	-59.47829248359	-0.31465545519897	-59.5227879501552	-15.8127679756918	154.216425855226	
839100000	-15.6116584198032	-105.091754238781	-0.288718272238989	-59.5988710941047	-0.317739717446842	-59.7107610268804	-15.8464544204893	154.039065340771	
840800000	-15.6847336647876	-105.93656552755	-0.30364577215301	-59.7067754985337	-0.312925462392168	-59.7615584459839	-15.8461484313815	154.141394429991	
842500000	-15.6301235442006	-105.809339995295	-0.307480462093853	-59.8452004272035	-0.325721422490441	-59.8406161018768	-15.7549656821827	153.452830065539	
844200000	-15.6214411912699	-105.4806658553	-0.307791165792062	-60.010630252894	-0.306607123831727	-60.0284914600183	-15.9046702132059	153.300967136582	
845900000	-15.7173118427086	-105.550239365529	-0.30339458686942	-60.2293085831075	-0.320819494287776	-60.1248375571443	-15.817771931713	152.83605738512	
847600000	-15.6847598718814	-105.963039377217	-0.29867536688686	-60.3178373517248	-0.316256745593278	-60.2754049398423	-15.9463884361613	153.024264701274	
849300000	-15.6613897918262	-105.896186981525	-0.299934243026476	-60.3519293950692	-0.331266183001446	-60.3729298608705	-15.780180113803	152.51192212084	
851000000	-15.6013812801801	-105.429922032114	-0.314494318797665	-60.4366090188814	-0.340784783520986	-60.4567391843855	-15.842094604378	152.261886576569	
852700000	-15.5888964687949	-105.655475119602	-0.329492870848223	-60.5925233764368	-0.322356267882193	-60.6285596936086	-15.9107603455858	151.973870701918	
854400000	-15.5379805191628	-105.552411833775	-0.309962397946178	-60.7872918164642	-0.333711693475843	-60.6908390028063	-15.7825547328462	151.787697996798	
856100000	-15.6008697470934	-105.651956157474	-0.33142172452065	-60.8246343312795	-0.318044427139299	-60.7988879253177	-15.807787014724	151.388895554259	
857800000	-15.5334584421167	-105.5625839297	-0.296388835737774	-60.9999518144982	-0.325820450762272	-60.975264743354	-15.7998507840361	151.729964864771	
859500000	-15.5831762250283	-105.506846014612	-0.306708238967896	-61.0305305291736	-0.324637499901472	-61.0488357097317	-15.7423929304345	151.421343496799	
861200000	-15.5318493574695	-105.738413121599	-0.320210946881143	-61.1960331742426	-0.314224357409432	-61.1728649843358	-15.7063643649752	150.829957982108	
862900000	-15.5368372457084	-105.346535172458	-0.323871691599071	-61.1962365569658	-0.322796058818248	-61.3411060524498	-15.7070318727559	150.675177639291	
864600000	-15.5456789201328	-105.937939100761	-0.308784251201165	-61.5270015020069	-0.325023362380951	-61.3331678852888	-15.7275644540839	150.771420033525	
866300000	-15.5102935033596	-106.370814737235	-0.330921265877207	-61.5653533818066	-0.327223553647018	-61.5513885755416	-15.6860240862936	149.83824680753	
868000000	-15.4955702815688	-106.014639380577	-0.325597822774975	-61.6988474859101	-0.337063663444567	-61.6287774633988	-15.7148288597053	150.671825236597	
869700000	-15.373573108944	-105.422973170071	-0.341715369042641	-61.8157125737123	-0.334429181417116	-61.810349323685	-15.6459169490747	149.473236505783	
871400000	-15.425917941991	-106.122380033523	-0.321976860874725	-61.9774575595837	-0.330754385742221	-61.8898543900475	-15.6579007787126	148.783486729423	
873100000	-15.4674105374161	-105.427802046615	-0.321223626826759	-61.9818855173417	-0.336382052330782	-61.9475277170514	-15.6956355163352	148.854867311214	
874800000	-15.4655192242481	-106.177094367073	-0.313859854533494	-62.078937632131	-0.339329239949125	-62.1751513089507	-15.690086586235	149.325786033656	
876500000	-15.4299820638143	-105.996971350715	-0.319281867601966	-62.3089284913027	-0.335277045711157	-62.1859569637496	-15.6756323461864	148.265195113719	
878200000	-15.466419427351	-105.083720094791	-0.336215283319799	-62.290120777538	-0.328733412107768	-62.4044023797065	-15.6429021579386	148.729573385916	
879900000	-15.4628138068723	-105.760137823411	-0.313033719891578	-62.4490732443928	-0.325487248932005	-62.4826738168315	-15.6627401528908	148.183190202809	
881600000	-15.4441323452867	-105.596566279685	-0.33601992331219	-62.6558548914097	-0.336667983049907	-62.6663309012023	-15.5258259400253	147.493424374171	
883300000	-15.3645019390061	-105.764471090665	-0.321279945872213	-62.6278370393644	-0.328307638625982	-62.7670651229227	-15.6126331525733	148.153053907597	
885000000	-15.4076574042961	-105.899476198653	-0.322215476573623	-62.8670718125686	-0.336480572905773	-62.7511985653769	-15.5188242233901	148.16308992812	
886700000	-15.3803865343443	-105.88484025077	-0.334996690884911	-62.8618052533141	-0.347681876805402	-62.9002431309013	-15.6301139220832	147.480152039747	
888400000	-15.4162520670168	-106.102516671689	-0.328567333175039	-63.1007165151042	-0.331486358275289	-63.0623163559808	-15.5528542782905	147.702078715519	
890100000	-15.2995791580153	-105.401038860638	-0.310996061860774	-63.2509428590569	-0.335731608510011	-63.2371649499119	-15.5561423673612	147.875798605543	
891800000	-15.2795819063187	-105.760062277967	-0.332032385791008	-63.277443603239	-0.341399209808885	-63.281072946516	-15.5804288621215	147.249464008126	
893500000	-15.354510931649	-105.656573599112	-0.332787662348192	-63.3877394420948	-0.341256806284433	-63.4167908874839	-15.5155625801197	146.381285813707	
895200000	-15.3204107939913	-106.509317349715	-0.319457862898182	-63.6167119506211	-0.334249872941602	-63.6040710296572	-15.5440856978069	146.32773736182	
896900000	-15.2868340221721	-106.023664801179	-0.335690368916576	-63.6979197544284	-0.347415121179986	-63.6009487019074	-15.5436320789325	146.413039590415	
898600000	-15.3282619696382	-105.805022601429	-0.325552975116587	-63.8139995887013	-0.34642510036774	-63.832831180213	-15.5770002671922	145.596155094563	
900300000	-15.2403852057993	-106.46655857769	-0.322571162582747	-63.8929998766006	-0.331963657269956	-63.8334305632422	-15.4894934588687	146.050642066061	
902000000	-15.2006058541509	-106.442350649468	-0.318848508764278	-64.0544718632025	-0.323907869989009	-64.1184256478284	-15.5309117653667	145.404256368681	
903700000	-15.1315658792487	-106.243383819511	-0.339080090261649	-64.1358087564079	-0.343118467465118	-64.2462483059084	-15.5187873940212	144.855763336196	
905400000	-15.305843329634	-106.073234526146	-0.33718257148865	-64.3192606575197	-0.341684662479107	-64.3311649071815	-15.5406666081163	145.257651820217	
907100000	-15.2242128439044	-105.636185175099	-0.335408918776349	-64.395714812695	-0.345088149502998	-64.349549727682	-15.4850059886623	144.533621854684	
908800000	-15.1894087843024	-106.443295029402	-0.332637746124109	-64.5952806707512	-0.357325705650728	-64.5789548834067	-15.4084708027132	144.597768646755	
910500000	-15.2989365768661	-106.04141212034	-0.340394675512804	-64.6157900613115	-0.343289908289291	-64.6177557067485	-15.5029253642198	144.304390561903	
912200000	-15.2749237101458	-106.327747120895	-0.318575622898593	-64.7635672994321	-0.339677039082154	-64.728921939437	-15.4146615405536	144.492388203584	
913900000	-15.1835927663353	-106.053795133585	-0.32098394916637	-64.8751009627601	-0.346330080247394	-64.9350668298404	-15.4309901735989	144.216227074902	
915600000	-15.2370959079625	-106.268605652394	-0.338762740659631	-64.9394532331398	-0.349031188936448	-64.9089219561772	-15.4146259457243	143.823028843736	
917300000	-15.1730689143828	-105.998540913879	-0.332861523550699	-65.0218280090108	-0.341394481950409	-65.0941245123511	-15.369956881545	143.498990542248	
919000000	-15.1429993501444	-106.27332907804	-0.344302081641784	-65.2021749325237	-0.357033711842599	-65.1925293492685	-15.4031682296634	142.688161165707	
920700000	-15.18736179186	-105.985924757294	-0.341264140680923	-65.3828068880052	-0.347144442499697	-65.3435771054197	-15.3226638350436	143.304479943401	
922400000	-15.0626855968793	-106.584737366717	-0.341100052700177	-65.6326039221434	-0.345119469041037	-65.5219689687692	-15.2679608895232	143.009580813252	
924100000	-15.137890012733	-106.236875471633	-0.315813884582182	-65.5649129111178	-0.348087239458668	-65.5317089144057	-15.3944118194119	143.166546041991	
925800000	-15.1973263727731	-106.587379774755	-0.334366148852619	-65.7506574696173	-0.340481679816121	-65.7129764219701	-15.3205377540284	141.864312189615	
927500000	-15.1280871100641	-106.254665293074	-0.335717721417979	-65.7149267246651	-0.337845537234787	-65.8064238960931	-15.223853563352	142.523903430587	
929200000	-15.1937573698349	-106.613527758832	-0.344295562859495	-65.9922289653224	-0.353580660673108	-65.935965046304	-15.2526617329308	142.089436008344	
930900000	-15.0799740686156	-106.516273095552	-0.334437922402595	-66.0257860751738	-0.34994729624641	-65.9542981075941	-15.3027520912279	142.474263476146	
932600000	-15.1371931854339	-106.405292220288	-0.328389114793437	-66.1724686467287	-0.357870274910434	-66.1654260023711	-15.2242477918312	141.644276070715	
934300000	-15.1153698316683	-106.748288260773	-0.3435625675764	-66.2949203500726	-0.338612396539251	-66.1945232613402	-15.3058023055606	141.554495841217	
936000000	-15.0551808370497	-107.070602851201	-0.348714128448623	-66.3917111923335	-0.346448321893274	-66.4071698895422	-15.1528820983148	140.746007403604	
937700000	-14.959406537416	-106.418378571469	-0.35500990748452	-66.6013743760122	-0.339695011812814	-66.5689090206063	-15.1358331342066	140.884714015482	
939400000	-15.0429698037765	-107.042168580203	-0.341630639044597	-66.5979004258782	-0.356052641785613	-66.6631275665381	-15.2477236184757	140.553156837043	
941100000	-15.0082601096052	-106.640198778463	-0.339328971068529	-66.7034327076212	-0.356566678061978	-66.71913637497	-15.1619898686362	140.884474665014	
942800000	-15.0292219708162	-106.78047225222	-0.326347042508571	-66.8804323604516	-0.366092202320649	-66.8718549797361	-15.2461439326365	140.142735628748	
944500000	-14.9718058672465	-106.573242883515	-0.327575521260983	-66.9954756203282	-0.34165991957523	-66.9147960029841	-15.2946968905839	140.301942796424	
946200000	-14.9646030732929	-107.271538609283	-0.350832974954248	-67.1392390233854	-0.367084385505431	-67.1295527293991	-15.2020964720358	140.25252269532	
947900000	-14.9975150593781	-106.702986555367	-0.357844710111107	-67.221653417794	-0.365069689106573	-67.2597039762668	-15.2408323594331	140.737401326446	
949600000	-14.9011556628294	-106.877517201099	-0.335111688489454	-67.3331886261671	-0.362929953006999	-67.3319215650223	-15.1863427545692	139.713096394746	
951300000	-14.9523439467683	-106.538010022199	-0.358046641167905	-67.4543051242152	-0.348322729534528	-67.470194105654	-15.1977193214162	139.543467541018	
953000000	-14.9508125444546	-107.561201870707	-0.344298728981996	-67.5268957801109	-0.353287943299064	-67.6732114594815	-15.1351888096865	138.894414843131	
954700000	-14.9161551679316	-107.235534488783	-0.347746807863516	-67.7312659184658	-0.355827492445597	-67.6749814334069	-15.2241751302963	138.079366657001	
956400000	-14.8129896516994	-106.960870976876	-0.342006506811176	-67.8217769020991	-0.372941849241241	-67.7248864629999	-15.1009622078578	138.77510742752	
958100000	-14.8315116276701	-106.911667443574	-0.345342970672346	-67.8833562335704	-0.359710844151319	-67.9471153330762	-15.0649878757231	138.600150391221	
959800000	-14.8241132845105	-106.597373423882	-0.360387859649339	-67.928768934895	-0.358866007760927	-68.057789948338	-15.0799168224233	138.395247206783	
961500000	-14.8964996521753	-107.228808419461	-0.370234768363478	-68.2632605973967	-0.350493615521918	-68.239419424461	-15.023001926582	138.080002844414	
963200000	-14.8267878224787	-107.348096608345	-0.358664331009992	-68.3063426952853	-0.371180106215371	-68.2601523430064	-15.0820908999137	138.016331294957	
964900000	-14.8602434388563	-107.171743086605	-0.36450207494052	-68.3467701019065	-0.358790070776499	-68.5096052626093	-15.0230275971967	138.031264958584	
966600000	-14.8082175408738	-107.426659136242	-0.356304733525719	-68.5490024087343	-0.356385855307225	-68.5787204943784	-14.9833625712735	137.886638699235	
968300000	-14.8280520497964	-107.041176808358	-0.351709869425371	-68.6134926190059	-0.38009470063618	-68.6796669634806	-14.9961362417031	137.625283587551	
970000000	-14.7942328135929	-107.687709792454	-0.365777572534516	-68.8100333978862	-0.369396260022794	-68.9228106975887	-14.9753080846142	137.3489955106	
971700000	-14.7642524074917	-106.873214028495	-0.363357064805006	-68.9487604152413	-0.36883855863256	-68.874769442965	-14.9870086741781	137.499545205197	
973400000	-14.7760253460115	-107.281578584599	-0.348236305093112	-69.0348675083313	-0.36951980141094	-69.0268456719807	-15.005455813072	136.530011343166	
975100000	-14.7226435925781	-107.723382307791	-0.35641385117839	-69.1452063175171	-0.379316871630011	-69.1760210621802	-14.9832925369499	136.246153634424	
976800000	-14.6016222081713	-106.991091515723	-0.362725334392239	-69.1646089212305	-0.368127549276965	-69.2581958340059	-14.9297232159014	136.315553844975	
978500000	-14.7081781656382	-107.747774209565	-0.353113168137835	-69.3900464645942	-0.364641747623787	-69.3035858010845	-14.9246174812443	136.385325826908	
980200000	-14.667725099457	-107.389269771545	-0.358610267309141	-69.4868434432964	-0.375056390881885	-69.4426256847346	-14.8542499176225	136.518870427475	
981900000	-14.7646461241771	-107.209749312323	-0.362540975207484	-69.6210231278807	-0.382410098831918	-69.7050883237576	-14.933679615371	135.692475682199	
983600000	-14.6237922855329	-107.56552058384	-0.358639737197777	-69.7445871038046	-0.373371022268695	-69.6881209949426	-14.9249425131116	135.623822218053	
985300000	-14.6459688445741	-107.99924081654	-0.365434088487181	-69.87297780968	-0.380025819139876	-69.8058117446252	-14.9178802714549	135.214107000185	
987000000	-14.6652379874909	-107.59733486164	-0.360700516062363	-69.9477371138951	-0.360347061744516	-69.9830144543608	-14.8722120862157	134.728385361437	
988700000	-14.6811474908253	-107.888621810965	-0.366272644656893	-70.0404936818752	-0.375036118654834	-69.9727340241893	-14.8633259063266	135.010484733961	
990400000	-14.5733789112686	-107.730568199523	-0.375076365945571	-70.2146553323365	-0.385954332109832	-70.1655808444448	-14.7700973214769	134.320959097167	
992100000	-14.55308926307	-107.833739048386	-0.359064408398923	-70.2048810286792	-0.390121960782816	-70.2414699457874	-14.7650580792405	134.6477744374	
993800000	-14.5582278080543	-107.97189856786	-0.385100109582677	-70.417866650692	-0.400041959793898	-70.4474367576381	-14.7920658716483	133.696618293645	
995500000	-14.4925950429514	-108.286759255208	-0.371119531839737	-70.6302022995001	-0.377032138694334	-70.6213656460701	-14.7990356352828	133.832124176748	
997200000	-14.4698784722629	-107.652755313062	-0.352781836031172	-70.6721094153577	-0.386558749190519	-70.6585898016043	-14.8537307916787	133.970800341599	
998900000	-14.5349840473031	-107.999306510189	-0.367992482877523	-70.7845552895539	-0.381803440868748	-70.7279296312474	-14.7442997832302	133.901353661208	
1000600000	-14.5380294170878	-107.849990324323	-0.354765660826142	-70.8783747610984	-0.394318881496213	-70.8006958832658	-14.707529519622	133.492765203292	
1002300000	-14.4710957675805	-107.26626619149	-0.380623722705957	-71.0321207602266	-0.383878173576962	-70.9338282142564	-14.71534816075	133.327787841036	
1004000000	-14.4901648750901	-108.314755778584	-0.372354235353311	-71.1270458970249	-0.388408642755644	-71.1172574477593	-14.6671231741649	133.306297726356	
1005700000	-14.412010979902	-107.994994751328	-0.355705245766733	-71.2148732420332	-0.382149755628466	-71.2563152523746	-14.6343509815671	133.251529092617	
1007400000	-14.4392454755432	-107.911926511974	-0.372827739183399	-71.4384658327486	-0.385663544223949	-71.3658908421347	-14.72333544315	132.57211530762	
1009100000	-14.3607086812218	-107.732350274043	-0.385077249005858	-71.5519069849671	-0.391353748015775	-71.5770586752963	-14.7424104660956	132.433991571527	
1010800000	-14.3614524234885	-107.591543097922	-0.377049837349836	-71.5160249537069	-0.386517366489166	-71.5537917448934	-14.6660113436157	132.205483986338	
1012500000	-14.3472214043506	-107.841666655148	-0.362379077704207	-71.7990938062215	-0.399008687955938	-71.6717189801927	-14.6706904319955	132.381030174287	
