!Keysight Technologies N9950B: A.12.38
!Date: Friday, 12 May 2023 13:44:07
!Timezone: (UTC-06:00) Central Time (US & Canada)
!Model: N9950B
!Serial: MY61131330
!GPS Latitude: 
!GPS Longitude: 
!GPS TimeStamp: 0001-01-01 00:00:00Z
!GPS Seconds Since Last Read: 0
!CHECKSUM:0984683965
!Correction: S11(ON U)S21(ON U)S12(ON U)S22(ON U)
!S2P File: Measurements:S11,S21,S12,S22:
# Hz S DB R 50
800000000	-23.5897761712982	-178.56132347394	-0.122065215775028	-52.3291659158131	-0.134829685887884	-52.3553736854591	-22.9686781646862	-116.26382569856	
801700000	-23.6696007280427	-178.557302542038	-0.126121788042126	-52.4348459504906	-0.123204371417241	-52.4887908920401	-22.7397211748584	-116.198292816507	
803400000	-23.6456260427625	-178.005369185132	-0.12421220903258	-52.640886354622	-0.13142821815675	-52.5790313161096	-23.0718294382133	-115.716123692632	
805100000	-23.7678887311538	-177.248000283503	-0.113221210241026	-52.6887102723776	-0.135541798084126	-52.7304174691309	-22.926063971797	-115.815382289508	
806800000	-23.5248463414461	-178.098957416778	-0.124024869826296	-52.7465882642901	-0.119061447826734	-52.905144975007	-22.6959039277271	-115.513701371789	
808500000	-23.7777937955433	-177.149043867873	-0.124093143133249	-52.9912062943453	-0.128026687117482	-52.9597198831959	-22.9843008461013	-114.390152306768	
810200000	-23.7607776632563	-177.851398661899	-0.132846384056058	-53.1783895018989	-0.140509679450537	-52.9994062399671	-23.1248285206993	-114.553986577554	
811900000	-23.5903228497721	-178.1558655354	-0.113150494975985	-53.0993943196554	-0.129770956563873	-53.2127063648877	-23.0322708339968	-114.676444040336	
813600000	-23.7297018803686	-178.720517879893	-0.116426158379223	-53.2698358476923	-0.136322667684664	-53.3587691102123	-22.9708157864188	-115.371729223918	
815300000	-23.6539314593839	-178.976570851436	-0.106335695365135	-53.454953650381	-0.140440060731458	-53.363245549276	-22.9889335006471	-115.820726982303	
817000000	-23.4996680753906	-178.807145141836	-0.130836872790762	-53.4048391831669	-0.134111610222731	-53.4885870632267	-22.865089428304	-114.312000953578	
818700000	-23.4785429898873	-178.126773167491	-0.117414976695634	-53.6154692797416	-0.137224811907586	-53.5973766396889	-22.9078182977202	-115.106962312749	
820400000	-23.4232901670811	-177.500127247518	-0.124731671595418	-53.7315121840613	-0.142799430341928	-53.7729570475273	-22.7480483408457	-114.230514135738	
822100000	-23.4393025234708	-178.353279298469	-0.10059140873897	-53.7577527190854	-0.127098633577002	-53.762537938603	-22.7874200313325	-114.895177305814	
823800000	-23.4875512168718	-178.403160005736	-0.12417745504709	-53.9075064432885	-0.137420465580568	-53.9359352926277	-22.9375612230643	-113.811972121925	
825500000	-23.2901565128116	-178.039676372023	-0.132946211669149	-54.0125900320126	-0.120668612057075	-54.0995909371473	-23.0237021659231	-114.700655150018	
827200000	-23.1791213607093	-178.26060276038	-0.13665065988563	-54.1778443057631	-0.12009036259902	-54.232607417353	-22.928594336307	-114.786853421275	
828900000	-23.3254938790099	-179.270357079043	-0.114634018249786	-54.2298191694337	-0.140400364528634	-54.2857492930651	-22.8700521482088	-114.548147155116	
830600000	-23.2300255723299	-178.452822933661	-0.129131735462759	-54.4629527306942	-0.135054650622415	-54.3746902930108	-22.832134506442	-114.571506932131	
832300000	-23.097139824595	-179.053354380004	-0.116458585598239	-54.4839860993896	-0.145222834140618	-54.432621982978	-22.90591248238	-115.747202924272	
834000000	-23.2162948130527	-179.289812691777	-0.120126522935315	-54.6634175871606	-0.141026230845954	-54.5964930629361	-23.0006813951818	-114.251735993777	
835700000	-23.3344496000168	-179.494875344173	-0.126260231343677	-54.6698246237656	-0.143893607370916	-54.6485182297412	-22.7908567461699	-115.0190759897	
837400000	-23.1819787728756	-179.11440722321	-0.126975928664791	-54.751707244838	-0.138523508638095	-54.8194040542621	-22.9569078796302	-114.838791147921	
839100000	-23.1934851823853	-179.459142389902	-0.120134216172531	-54.9998684687028	-0.149396144865064	-54.9390730991525	-22.9103182951443	-114.779936254183	
840800000	-23.1701685680596	-179.560913702369	-0.13817801013659	-55.0903575360869	-0.134637803475933	-55.0198355546074	-23.0978729845515	-115.276283710934	
842500000	-23.1265486235148	-178.589731030526	-0.132123097795927	-55.0649912633203	-0.139102665236831	-55.1971369466714	-22.834369295946	-116.809635128805	
844200000	-23.1680983190181	-178.817949587717	-0.12653425949012	-55.2770409858693	-0.146336681855306	-55.2775290363607	-22.9599679702104	-116.276230312231	
845900000	-23.0140529693381	-179.3045348492	-0.132695434028822	-55.3637925704456	-0.136932703627168	-55.4299760226637	-22.8636525899903	-115.653670458498	
847600000	-23.1213629384641	-179.551823815605	-0.11552782632501	-55.5042629724655	-0.158637000950041	-55.4674148815751	-23.0080834193934	-116.752802904788	
849300000	-22.8303925552655	179.816225923436	-0.131331921410456	-55.6375743022455	-0.140590887011027	-55.5878149898711	-23.2428509167349	-115.414463250039	
851000000	-23.0069752372831	-179.969630803921	-0.139218077423319	-55.7222388822148	-0.136620220095111	-55.7400200275206	-22.7544968694032	-115.685763019908	
852700000	-22.9500132585162	179.539038450276	-0.137084815748232	-55.8887994567934	-0.144015716009049	-55.8416174805603	-23.0311226537899	-117.1402601184	
854400000	-22.9073186203308	179.172592521299	-0.147368928025184	-55.8962319752715	-0.137295290165686	-55.9327344283276	-22.7985861130605	-116.024391591841	
856100000	-22.777893983655	179.955439503622	-0.121301145120746	-56.1275549418689	-0.14516113398154	-56.00847332289	-22.8216651200129	-118.1530115264	
857800000	-22.7970285211158	-179.834366876469	-0.122567208026242	-56.1407793316024	-0.140369258709876	-56.1249067546409	-23.0390271055869	-118.230417997639	
859500000	-22.7915767449499	178.407188593394	-0.133722931815194	-56.1992088282369	-0.131465774289301	-56.3007330111349	-23.0065426467841	-117.663710101118	
861200000	-22.856268440487	178.21879046604	-0.139280963248884	-56.3624494236384	-0.15553933345202	-56.4015823707827	-22.8052103765831	-116.387706306907	
862900000	-22.8102414322105	178.013208552208	-0.133471369802057	-56.4865842876161	-0.152055667681405	-56.3992463333496	-22.8436959172404	-117.560992145451	
864600000	-22.832155772627	177.772041985778	-0.119528024057056	-56.6430971932	-0.142006866026426	-56.6048031385879	-22.8828429153419	-117.314376510753	
866300000	-22.6601573664688	176.623272840527	-0.140641475155121	-56.6717993115972	-0.152816686097811	-56.6171130015263	-23.0394385278171	-117.45121436619	
868000000	-22.6821357272435	176.229313397127	-0.135905003633263	-56.724122121007	-0.149312792357223	-56.9036708379399	-22.757606015756	-117.510849542747	
869700000	-22.880279039694	176.095771806235	-0.147681999985069	-56.9577810827506	-0.157983076047672	-56.8825634261254	-22.6055342214601	-119.39031094063	
871400000	-22.7474656406595	175.882197744339	-0.12041796687597	-57.1143584201704	-0.145751592420087	-57.0305182810158	-22.5531929925758	-118.934265334936	
873100000	-22.7780463623531	176.509697064814	-0.132750826793877	-57.1337217736479	-0.149550670928951	-57.1898873461738	-22.5494497172442	-119.112775076113	
874800000	-22.6805295983344	175.23521540289	-0.142321807936151	-57.2162819672571	-0.140159155769968	-57.312805725975	-22.6487862474382	-118.935789044889	
876500000	-22.6416149030371	175.319372719708	-0.13779405747587	-57.3272914386579	-0.146681697464695	-57.3760012478012	-22.6866403033644	-119.451179218848	
878200000	-22.467502498918	174.850343779732	-0.139987460542724	-57.4277827354893	-0.147052289997277	-57.3806394385065	-22.655316739368	-119.37471847787	
879900000	-22.7063875282599	174.894299984841	-0.146975640211941	-57.5832966061211	-0.155704512351767	-57.4535195184006	-22.5101620625495	-119.618796355924	
881600000	-22.9250665871222	173.339426552083	-0.129858533602022	-57.6419430534546	-0.143270869332647	-57.6484597998392	-22.5244715895315	-119.440640754309	
883300000	-22.7592603728685	174.146092143558	-0.133027293300376	-57.8382144864485	-0.149503003793161	-57.8248743050029	-22.4323693379245	-119.71405011905	
885000000	-22.642949217262	173.317683711435	-0.142556109269652	-57.8283944749768	-0.147972158278026	-57.8084301813194	-22.5044542647676	-119.308447078794	
886700000	-22.5282780159789	174.688130220848	-0.120337850224426	-58.1158957309487	-0.146164135813582	-57.9858143556203	-22.2656141847873	-119.47328076302	
888400000	-22.5528835354741	172.838233230718	-0.121990825275757	-58.0521889267281	-0.134418956338144	-58.018699746893	-22.6669418891831	-120.237895551587	
890100000	-22.789445280039	172.70502323759	-0.142583924334333	-58.2442082873647	-0.138316806966532	-58.1649465467367	-22.4811162928303	-120.07224526971	
891800000	-22.6877111205701	172.781414534747	-0.131648863815239	-58.3895360836056	-0.143655656155284	-58.3527328498095	-22.4687020515473	-120.913463471619	
893500000	-22.5835951468817	172.922221761822	-0.140586113622897	-58.4415605634154	-0.1545892132436	-58.516604542637	-22.1975625016672	-119.083750464243	
895200000	-22.5823303405609	172.844096789871	-0.124213426576813	-58.663430072972	-0.146826890730716	-58.5344802652669	-22.3514369496065	-119.305056056611	
896900000	-22.5454977087024	171.809337786655	-0.146527414342654	-58.6438996895243	-0.144124429369285	-58.7318120829309	-22.4401311030478	-120.53330685442	
898600000	-22.803458940816	171.85844591212	-0.138488273702045	-58.8857541089932	-0.148559285565911	-58.7685918940999	-22.2731783880014	-120.123273811221	
900300000	-22.6705139686419	170.955767570792	-0.143489900076811	-58.8293183156796	-0.154705902073999	-58.8407423474394	-22.0646015366816	-118.992838245042	
902000000	-22.6862002615576	172.285373737207	-0.129434241984367	-59.0500286029762	-0.143456182097741	-58.9297066794552	-22.1130401300772	-120.595361636085	
903700000	-22.6692707842922	170.409552631051	-0.135245262547459	-59.1869835227692	-0.14675420959498	-59.1382595331028	-22.3032818728075	-121.646885195161	
905400000	-22.6065865628813	170.1964321882	-0.136771793920019	-59.1403859893181	-0.151799134932811	-59.2989383269584	-22.1518491097266	-119.404462348311	
907100000	-22.677637809458	169.32736636966	-0.136740523041328	-59.3170761976726	-0.147999020484814	-59.3833246795889	-22.0540609767191	-119.425293284846	
908800000	-22.4357989157446	170.128713450879	-0.136848555952045	-59.4819945740789	-0.144784567476762	-59.3398604758656	-21.9134176483858	-120.445836949868	
910500000	-22.6196950054799	170.241893517041	-0.117108085613127	-59.6326658618648	-0.143848853786823	-59.5607490371683	-22.1466732700043	-120.589557012968	
912200000	-22.4211855963092	169.360464065843	-0.138943097687779	-59.6213428755888	-0.147238602738701	-59.6953600489926	-21.8407803829279	-119.332268998495	
913900000	-22.719742185839	171.008099304897	-0.13339490056308	-59.7734678287447	-0.148448055424381	-59.8255455142037	-21.8189712376997	-119.274092165869	
915600000	-22.6751624370069	168.562007334963	-0.126455956621979	-59.8758839209782	-0.158202726731571	-59.8607636359912	-21.9442942194517	-119.918164023917	
917300000	-22.5464505885696	169.849540712222	-0.132670762580181	-59.9599586899817	-0.14410915191462	-59.9006639779285	-22.0041956870671	-119.048656679793	
919000000	-22.4891401589353	169.486438953889	-0.134344847680659	-60.1858811007583	-0.154822128856611	-60.1705723876938	-21.7645848571025	-119.817171650065	
920700000	-22.409480494466	169.715135730885	-0.148986593643919	-60.2795413049277	-0.141082661382056	-60.2127010667242	-22.1287007612841	-120.461962039569	
922400000	-22.4907544504167	169.072460459725	-0.150731841670273	-60.2918891125443	-0.150126509832313	-60.3438692868564	-21.8461433810417	-119.921076039179	
924100000	-22.5743386617788	169.8685010001	-0.141331925963238	-60.511528340761	-0.142665710945866	-60.4278821991714	-21.7344083558682	-119.657807260207	
925800000	-22.5111918341726	169.29177322749	-0.145803592802808	-60.5667769250173	-0.148864648477886	-60.587826024448	-22.1378172556046	-118.983575757695	
927500000	-22.5028408920042	169.960462194115	-0.150112026175815	-60.633660012216	-0.145978162991602	-60.7173041309463	-21.8667474679074	-119.029871723904	
929200000	-22.4815279779869	168.723675325892	-0.152591837780894	-60.814752171027	-0.142410871159082	-60.748140654745	-21.8318483261085	-118.826361012512	
930900000	-22.5423587391399	168.693897119663	-0.137647419410173	-60.9195258743219	-0.149758114364616	-60.907614642222	-21.9200502561079	-118.306777323493	
932600000	-22.4180276302616	169.299449376078	-0.137148908065186	-61.0751502326733	-0.133283173847253	-61.044854011339	-21.8023364655881	-119.031777027079	
934300000	-22.3253585775232	168.189249361031	-0.128436336314411	-61.0687947789221	-0.153384186710077	-61.131187690307	-22.0495259800959	-118.568077291335	
936000000	-22.4356791999703	168.38155025764	-0.142768430693274	-61.272278764067	-0.144137921369062	-61.1867903941785	-21.9553629402178	-118.211448012844	
937700000	-22.4089181215631	168.848057465465	-0.142349277343676	-61.2317597579435	-0.16085238800828	-61.3566199593598	-21.8880870916253	-118.204612566368	
939400000	-22.3445608760694	169.98337202424	-0.137121593487762	-61.5418151942619	-0.147841005827521	-61.4173385705678	-22.0419868329721	-118.136963328707	
941100000	-22.2421517996272	171.013174020767	-0.128269681798401	-61.4783849377971	-0.150437606407827	-61.5649786801488	-21.8797848921025	-118.352834406345	
942800000	-22.2322833300537	169.11906338338	-0.156948139041733	-61.6092349902647	-0.161863364787132	-61.6334033464375	-21.7800576161477	-117.530504808383	
944500000	-22.1677189588551	168.14817879677	-0.147579505129198	-61.7917735166604	-0.141948520995879	-61.8106963694228	-21.9658936071332	-119.575774786481	
946200000	-22.0358087950891	169.045417331743	-0.141785755470461	-61.8866261949179	-0.152102568956042	-61.832318481014	-22.0055272971217	-117.789499774314	
947900000	-22.0389099874071	169.04030561081	-0.134410955077048	-62.0664955901131	-0.143679596958481	-61.9581021999783	-21.7979225688789	-117.450018930986	
949600000	-22.3524703115003	169.74731961343	-0.147116591321533	-62.0929872319539	-0.151973879882341	-62.0710196952656	-21.8981555503779	-117.710167658475	
951300000	-22.050906251721	167.796301778507	-0.148984135692451	-62.2320195568274	-0.16010414211582	-62.2360892240681	-21.8528002791928	-119.060183042218	
953000000	-22.0793046543179	169.249984811915	-0.131275094552609	-62.2568882125885	-0.159151519391826	-62.3699827549475	-21.9382558146864	-118.913898490112	
954700000	-22.0472208605358	169.292348781518	-0.158411310429976	-62.406659219005	-0.160224296854703	-62.4413412366265	-21.8854117375624	-118.269189160541	
956400000	-22.0168931292684	168.429582927194	-0.142500622789205	-62.5384979514929	-0.155684701674508	-62.6032257662009	-21.8087000099613	-119.190251060042	
958100000	-21.9515315535904	168.316219237695	-0.145954941843999	-62.7047176222907	-0.152581867411036	-62.69647401769	-21.7545877972461	-119.602241239632	
959800000	-22.2062265615855	168.789151027593	-0.153769827356201	-62.7866146133715	-0.156936677419521	-62.8572425985854	-21.9378482915853	-119.542256889518	
961500000	-21.9771096094897	168.141590207626	-0.138786130666803	-62.9096217353755	-0.164188286808152	-62.8779726035369	-21.8891621566451	-118.085559746852	
963200000	-21.7877577242187	168.033014307179	-0.163135029777154	-63.0191284158427	-0.155741472459255	-63.0326215724661	-21.9293792943895	-118.269003391784	
964900000	-21.8804204437923	167.438951020959	-0.153544530281909	-63.0863160929587	-0.165703582039513	-63.0800593563902	-21.9493436732036	-118.730175566843	
966600000	-21.8817091320134	168.655013695556	-0.145179665906396	-63.3206947590544	-0.153017903196462	-63.2112796077766	-21.8734528937682	-119.756140050339	
968300000	-21.6928981301728	167.921680734878	-0.1263422902615	-63.3305067642682	-0.161289061008378	-63.3015923200743	-21.8335158320841	-118.838807766986	
970000000	-21.6479856202492	168.062334089454	-0.14902353447623	-63.4802948156728	-0.150293041384226	-63.4059974462	-21.7680481752644	-120.24615332076	
971700000	-21.66706659486	166.262542177182	-0.149832613612545	-63.4736191504564	-0.159350073386404	-63.5237227849933	-21.8371093386932	-120.172936752358	
973400000	-21.6084253210702	168.352617718308	-0.153583037028414	-63.5559579806986	-0.160583000925767	-63.7523517846972	-21.8499562678866	-120.138167205835	
975100000	-21.7359047861669	166.857061673499	-0.149329621849112	-63.7571028517677	-0.164289173077815	-63.7513355327552	-21.8741105588259	-119.049493703898	
976800000	-21.8975768296161	166.201959348499	-0.140565259585815	-63.8049836549662	-0.151701942092234	-63.8174780187958	-21.9530427026899	-121.750519683134	
978500000	-21.7766358343326	165.644788226772	-0.150644687296759	-63.9845495251911	-0.160755755685731	-63.9628069975605	-22.0680292825002	-121.167291869758	
980200000	-21.5952328292522	166.333807449262	-0.146144496114234	-63.9242603400068	-0.165761150468783	-64.1740831105681	-21.9613535877252	-121.524480039917	
981900000	-21.6671871514019	165.70453314016	-0.142145332682852	-64.1430366327274	-0.1518260307253	-64.2039521873494	-21.9794197559869	-121.305985451467	
983600000	-21.6475740292062	165.520623576279	-0.153453442052907	-64.4114790862619	-0.149045728895601	-64.3722050300463	-22.120656324514	-120.25613808211	
985300000	-21.4650599837788	165.237208905329	-0.157016565725936	-64.5096463508449	-0.167072539807441	-64.3812657358334	-21.8141684455519	-124.031347631266	
987000000	-21.5272355906379	164.44167578898	-0.140289059964996	-64.4979236160517	-0.171942207395846	-64.5526482507641	-21.7049669732888	-122.413449048452	
988700000	-21.7706402228898	165.349186153288	-0.14744287279719	-64.5531098365586	-0.163588490997412	-64.5930844528687	-21.8140576715164	-123.620282448156	
990400000	-21.7705688469208	164.399304818299	-0.148690234221043	-64.6797476597156	-0.162812592018145	-64.6875148632144	-21.7472630951445	-122.821756391994	
992100000	-21.6320871993742	163.749892588637	-0.138204755994912	-64.8893032858822	-0.172222585739622	-64.8364313704595	-21.5727660089746	-122.606838101773	
993800000	-21.6364294604763	163.767651082938	-0.175074794464243	-64.8936286504904	-0.152980605165107	-64.9584027719666	-21.4003547456682	-123.843095244692	
995500000	-21.5317671603727	162.764864293584	-0.144950116630176	-65.069150110927	-0.144485142485589	-65.085207612049	-21.4776315523003	-122.583200540805	
997200000	-21.5398406808556	162.817387660187	-0.163556254099333	-65.2267022013023	-0.175068734768805	-65.0714876042244	-21.7484582050136	-122.981529666642	
998900000	-21.6598148981716	161.956322764408	-0.151468726842862	-65.3018235926076	-0.177276027871672	-65.3083562379731	-21.6063400984505	-123.449052086398	
1000600000	-21.6212769400307	161.158072352932	-0.14524739917612	-65.4773230136656	-0.173402279880984	-65.4130966537034	-21.3534229284501	-124.495803116228	
1002300000	-21.4578492190454	161.298326839519	-0.15265808502406	-65.5042439476901	-0.171933027995764	-65.476713312267	-21.4921470496336	-122.953653798777	
1004000000	-21.5538230543839	161.921066890554	-0.148787562965408	-65.5571397239182	-0.166023135771982	-65.5448505855734	-21.4903630116095	-123.324583502577	
1005700000	-21.6932195640125	161.636186923658	-0.156171189992239	-65.7991749691017	-0.159785113522013	-65.7595142035364	-21.4317528784697	-123.947354415657	
1007400000	-21.4760467162874	160.767632452629	-0.147954598638605	-65.8984140824175	-0.163198491227844	-65.8541833512612	-21.4346876790176	-123.767233782174	
1009100000	-21.5896988389207	161.483823558947	-0.156523652967927	-65.9436238535033	-0.160026805857676	-65.9940218572403	-21.5821641334164	-124.91969005088	
1010800000	-21.528964252372	159.291670909689	-0.144243159057666	-66.1513411007709	-0.161781921434384	-66.047254309138	-21.5144133729217	-123.750973096026	
1012500000	-21.6812848539566	160.972449670673	-0.16216570774977	-66.1391707734506	-0.147384225225016	-66.1157803355885	-21.3824377455646	-124.40909308849	
