!Keysight Technologies N9950B: A.12.38
!Date: Friday, 12 May 2023 16:26:58
!Timezone: (UTC-06:00) Central Time (US & Canada)
!Model: N9950B
!Serial: MY61131330
!GPS Latitude: 
!GPS Longitude: 
!GPS TimeStamp: 0001-01-01 00:00:00Z
!GPS Seconds Since Last Read: 0
!CHECKSUM:0675397849
!Correction: S11(ON U)S21(ON U)S12(ON U)S22(ON U)
!S2P File: Measurements:S11,S21,S12,S22:
# Hz S DB R 50
800000000	-26.8019858589229	-92.844307370097	-0.0750608723811067	-50.6428332647918	-0.0827726015344041	-50.6828679134314	-27.5816621863899	159.433544444619	
801700000	-26.6394517929111	-91.0200607218657	-0.0736580658243296	-50.8013718606561	-0.0869490226723773	-50.8146735299774	-27.6218046013275	158.956122103696	
803400000	-26.866374334877	-90.0211479142815	-0.0651048056263304	-50.901843493417	-0.0784677295728339	-50.88005984294	-27.5666310582431	161.304765632865	
805100000	-26.6788739005635	-92.5865051593472	-0.0697502771963299	-50.9737953334887	-0.0910204604228878	-50.9617018328575	-27.7208219209422	160.132080349676	
806800000	-27.0451379581133	-94.0145646285843	-0.0681745902815594	-51.1508276190877	-0.0839543525987851	-51.0950084813602	-27.2409072255616	158.461803518392	
808500000	-26.6139846771105	-91.6503934743105	-0.0733024027061753	-51.272385232928	-0.0733182787386246	-51.1169266341268	-27.1199755484254	160.682920178435	
810200000	-26.8853658787372	-89.9915626960912	-0.076813278067338	-51.4115997657399	-0.0788582003048292	-51.3780941728039	-27.437027346717	157.204130268679	
811900000	-26.8088076282479	-92.0451198137021	-0.0689991807178901	-51.4640901742111	-0.0887979534803247	-51.5206208153663	-27.0011601902477	157.374310229744	
813600000	-26.7324848253868	-90.9915917259551	-0.0728676630352871	-51.4942093015159	-0.0757673880843528	-51.5372622322757	-27.2585135658985	158.719133144859	
815300000	-26.7764776830993	-93.9591242628045	-0.0731914359820059	-51.6064487399991	-0.0865440994682043	-51.6769878381172	-26.8888814218115	159.330269787817	
817000000	-26.5285956204531	-93.5188692172995	-0.0773479843738088	-51.875183243145	-0.0777374388647341	-51.7130584826585	-27.3475332303803	158.114044926754	
818700000	-26.9698941515021	-92.240770039533	-0.0630976393342923	-51.980505591186	-0.0781319371068209	-51.8290556248404	-27.0601755501851	158.735192856762	
820400000	-26.7698020307074	-91.1751319734401	-0.069174022379325	-52.0330583207358	-0.0867784047169438	-52.0446912920112	-27.1274338048601	158.562401614246	
822100000	-26.8414264627547	-93.0833718179931	-0.065663872515901	-52.164411445317	-0.098528607619525	-52.0870754505561	-27.2469083619313	157.147870965131	
823800000	-26.5863026056821	-91.5184543426546	-0.075864174757483	-52.1218552965464	-0.107184185410737	-52.1815400318751	-27.4028335518353	159.745211671737	
825500000	-26.3112702861038	-91.393079626392	-0.0786066455809127	-52.3820405264026	-0.074177011958896	-52.3226083452704	-26.9431058564806	157.330751569389	
827200000	-26.5136720564706	-93.3870309458349	-0.0721002396268094	-52.5530878677415	-0.0783855505002947	-52.3903891010546	-27.2146470009301	159.121934370827	
828900000	-26.4653995657967	-92.6382192410498	-0.081939936861452	-52.5826736004377	-0.0865560221299084	-52.5191961410205	-27.1859765230365	157.146106748736	
830600000	-26.9223205389218	-91.2825432199738	-0.0641978312445514	-52.555795212878	-0.0810256320163225	-52.617172027876	-26.8307518365995	157.520975892385	
832300000	-26.6170534533107	-90.63979991524	-0.0787658053924782	-52.7315745855413	-0.0907170988840174	-52.7029011754795	-26.8776971997809	155.690022900081	
834000000	-26.6168023001501	-92.1460723759019	-0.0811675914979484	-52.8593748704262	-0.0691480302772693	-52.7926352262987	-27.1786507221187	156.60311501192	
835700000	-26.4479997146232	-91.2607439525796	-0.0623404399379932	-52.9286667586427	-0.0808031067609008	-52.9811194884522	-26.731773131278	156.359151710125	
837400000	-26.7256627838096	-91.5012145453463	-0.0613177093138943	-53.0394442044756	-0.0896927116063211	-53.1007315967112	-26.6828071120247	155.439422295133	
839100000	-26.4905211398919	-90.1923909196568	-0.0787552455825012	-53.0694747778187	-0.0824894198242093	-53.1820341543377	-26.7845104584082	155.40531807657	
840800000	-26.6097854294158	-92.4495105934145	-0.0653764050531018	-53.2623071900351	-0.0834829297922754	-53.2183460587481	-26.8145453759639	156.717577512064	
842500000	-26.4767564337835	-91.6095294475271	-0.0803892767213354	-53.238323290715	-0.0991151943488015	-53.3231018008988	-26.5230565043563	154.819653137806	
844200000	-26.3487915694099	-91.0120629405192	-0.0683805990285329	-53.4574394815481	-0.0881716615231926	-53.3517969539266	-27.1070040387724	154.580799011601	
845900000	-26.705829427375	-91.5728612594398	-0.0578648272566823	-53.6745665762362	-0.0864070971997201	-53.5107853785449	-26.775115536813	154.52807895535	
847600000	-26.7568089281168	-92.6740314161884	-0.065246294574869	-53.8045791415972	-0.0798124340163442	-53.6876921293698	-27.2815726699175	155.546172639419	
849300000	-26.6466460528198	-92.2907148563454	-0.071245804669431	-53.7074273683012	-0.0924674369587903	-53.7756633005841	-26.7682716577667	154.151333623532	
851000000	-26.3886855644906	-91.7674271343128	-0.0723431712412326	-53.8909190303302	-0.0981399676862364	-53.809767011399	-26.9779965856041	153.477032633606	
852700000	-26.3146320708206	-91.8118567887423	-0.0877031222169217	-54.0825744656749	-0.079596039187913	-54.0217722350605	-27.2335852324588	153.456407821355	
854400000	-26.2354140576363	-91.7965595603837	-0.0838135596126114	-54.1348873140552	-0.0885382281313467	-54.0797981798606	-26.788693510513	153.221917824577	
856100000	-26.518264899754	-91.4090391156414	-0.0841771486726201	-54.2108608200415	-0.0765480216372051	-54.2400893092407	-26.8069117516883	152.661518945759	
857800000	-26.2613328353851	-91.2955548005243	-0.0652868798761302	-54.2613738357265	-0.0890406409607248	-54.2987249729261	-26.9751422113371	153.771959597036	
859500000	-26.3957048143895	-91.5481709998661	-0.0634923786085665	-54.446980929254	-0.0853213681846743	-54.4122696669556	-26.7800953301003	153.999018062094	
861200000	-26.264972976637	-91.5486785072954	-0.0799594268693049	-54.4901320697568	-0.0772281966721838	-54.5084715266741	-26.6508766287447	152.649556866052	
862900000	-26.3962694673977	-90.4097024327355	-0.0840751137559761	-54.5482058377757	-0.079231382365234	-54.5851684360931	-26.5595584889966	151.901786838562	
864600000	-26.4701283097423	-92.0263471460841	-0.0770354762858595	-54.8243793522002	-0.0906613324411165	-54.6967804319782	-26.7255320940095	153.389099535853	
866300000	-26.3040756235135	-93.3289922881305	-0.0861147092369087	-54.8226903561798	-0.0930013748016661	-54.7976187453016	-26.6472183784064	150.802149961758	
868000000	-26.2936534441632	-92.3681019414056	-0.0963074214174955	-54.9474477506467	-0.0803814635573266	-54.9993397368713	-26.7586319025613	153.277081711498	
869700000	-25.8493480684286	-90.9509795543982	-0.0827146344665538	-55.0753749012293	-0.0904709220516633	-55.071795712255	-26.5339646884255	150.951883069559	
871400000	-26.1081756332493	-92.7222106286907	-0.0820045421056213	-55.2462095897998	-0.095985636223866	-55.1951150683059	-26.5266289661991	148.835950680586	
873100000	-26.2625994164623	-90.7930687444729	-0.0866144988115523	-55.3022192001268	-0.0900994109466609	-55.2797583607111	-26.7406787966356	149.7334131427	
874800000	-26.2763278856891	-93.105862057373	-0.0748745290236508	-55.2739942019846	-0.0926269856683572	-55.4114962170219	-26.7855621723719	151.745618403606	
876500000	-26.1812138429077	-91.7022032118704	-0.0730768379753091	-55.5666017019892	-0.0937524096199274	-55.4550963178181	-26.7493386546393	148.69370018277	
878200000	-26.3212144696362	-89.5691151113888	-0.0908337890795683	-55.5900595052852	-0.0852055013100356	-55.6971147691707	-26.633051189078	150.982948144025	
879900000	-26.2887978526341	-91.7426012450592	-0.0745066267199187	-55.7017506676327	-0.0919498063817218	-55.7305831757899	-26.7651270000442	149.698512720068	
881600000	-26.34324503127	-90.9661101425735	-0.0920524658990537	-55.8610988668179	-0.094427436146414	-55.9015696712737	-26.2041901677621	148.094626354987	
883300000	-26.0647880161771	-91.5442589426092	-0.0826154164481089	-55.8401792231172	-0.0945602901416987	-55.9342358217464	-26.6265715917399	150.435671912299	
885000000	-26.0935073188969	-91.5168119581112	-0.0657405258764498	-55.9650943912745	-0.0937007294235301	-56.0367840410993	-26.4095606248471	150.611866451864	
886700000	-26.0489186952145	-92.5890011496507	-0.084995924486341	-56.0787406677305	-0.100387085692918	-56.0743586913453	-26.6897227819926	148.765338350814	
888400000	-26.2629273934081	-92.6937452994711	-0.0802897942700096	-56.3161158391783	-0.0752988202655029	-56.1631979132404	-26.5055777707324	149.993599644075	
890100000	-25.9002872054523	-90.5065791546196	-0.0711762730741619	-56.3490280048852	-0.0968760843069036	-56.3728723745791	-26.454292928272	152.173984573063	
891800000	-25.8323106786831	-91.688350613241	-0.0902083965279476	-56.3973690220362	-0.087506627492846	-56.4579307178073	-26.6618370620891	149.551456402042	
893500000	-26.0421921094192	-91.1735338492941	-0.0748569713040839	-56.5049147778763	-0.0973889914563114	-56.5729470858201	-26.4305330728665	147.836013491196	
895200000	-26.1683264223571	-93.555969021773	-0.0805715071474577	-56.6941095716903	-0.0886195799751037	-56.7187678320934	-26.5601987388676	148.576859502004	
896900000	-25.8721030489508	-91.949446568667	-0.0863210850913221	-56.8828807842735	-0.0912347645806015	-56.8033483612164	-26.6085852366773	148.022074941011	
898600000	-26.0791825445204	-91.3493749107741	-0.0869091333164642	-56.9317354350432	-0.087350491990643	-56.9652760730325	-26.632730456158	147.297133172784	
900300000	-25.8654387191047	-93.810609138829	-0.0727880916937032	-57.0203254874494	-0.0821471761698954	-56.9548324300541	-26.432444066516	148.460988133311	
902000000	-25.7469501335233	-93.4862776748272	-0.0758326942831311	-57.1098729591131	-0.0849281038054447	-57.1303313806112	-26.619035131061	147.048253367119	
903700000	-25.599183132806	-93.0185082282593	-0.0923361574685722	-57.2038336458716	-0.0913314883514795	-57.2198788630972	-26.5110870787512	146.103819849826	
905400000	-26.1099412987627	-91.939401205013	-0.100802674051945	-57.2813017499757	-0.094662085816436	-57.310238781811	-26.623432160424	148.291863937183	
907100000	-25.7418274289881	-90.3625506111087	-0.0804830734694993	-57.4184133725149	-0.0897252505814719	-57.3955472120838	-26.4615356326448	145.48306053099	
908800000	-25.755400075202	-92.2448022921709	-0.0879653899699673	-57.6556725228857	-0.100275600586556	-57.5567889043046	-26.2697153289115	147.345178649393	
910500000	-26.0956438116899	-91.528999804226	-0.0846754500570059	-57.6427473362786	-0.0975446478341397	-57.6454624431285	-26.5794955456785	145.790241278004	
912200000	-26.1260503755494	-92.415162515515	-0.0686209023914246	-57.7655618822922	-0.0826009420071805	-57.7287832266131	-26.3442826303606	147.337828796489	
913900000	-25.8901403317348	-91.0143571850301	-0.0722226502880071	-57.9027976402812	-0.0996109084318138	-57.8565344684425	-26.3963204740255	147.193190101704	
915600000	-25.9253897124714	-91.5698622898213	-0.0787217949682248	-57.9197956308456	-0.0971505488484185	-57.8831403211404	-26.3223301666259	146.125126042412	
917300000	-25.889605010306	-91.4655204499262	-0.0840079941240773	-58.0330759812158	-0.100440587014952	-58.0982047064481	-26.3024344485237	146.071583536126	
919000000	-25.6288103410714	-92.0436552882041	-0.0911483196674543	-58.1840686722678	-0.0997498067343758	-58.2110181080342	-26.3566532578399	142.718874717537	
920700000	-25.8040956104535	-91.2013497697792	-0.086178905792842	-58.2865973394737	-0.0726674386597488	-58.3655105013404	-26.0836444243297	145.564811585222	
922400000	-25.5503147808853	-93.0252125795683	-0.0841501515471851	-58.5223332538811	-0.101993782051453	-58.3527740614608	-26.114965083001	145.66665299577	
924100000	-25.8369795110432	-91.646496733092	-0.0690398245060632	-58.5753282194364	-0.0923182317326443	-58.5074435412111	-26.4435891620157	146.735486360288	
925800000	-25.9340588421511	-92.4169550138715	-0.0872354330078594	-58.6030830431889	-0.0885281963081799	-58.6203482229359	-26.3045523307504	142.904110702189	
927500000	-25.8262328715744	-92.2871683475302	-0.0685261252984371	-58.6524631254424	-0.0826532400629272	-58.7242100217614	-26.034252944156	145.106469609114	
929200000	-26.0482568095939	-91.8900912171629	-0.0798475101349601	-58.8195631225336	-0.0926017312202121	-58.7820898136364	-26.0638227236749	143.979990742254	
930900000	-25.7165589013917	-92.2508527514832	-0.089688083339975	-58.9120407512628	-0.0861164398420395	-58.909004026978	-26.24274762354	146.170435945257	
932600000	-25.9711216492906	-91.5412356252677	-0.0766679924593573	-59.0805079701821	-0.0975798080515798	-59.050029279239	-25.9231447082051	144.256662822404	
934300000	-25.8807187225013	-92.7073362204453	-0.0867215054853249	-59.165180203891	-0.0864983592995609	-59.0571226873988	-26.2940921243424	143.742411328744	
936000000	-25.7792208579284	-93.0288667346457	-0.0922010127200617	-59.2634287840467	-0.0967228062938247	-59.2336472046643	-25.834219681828	142.128914911802	
937700000	-25.3208785490528	-91.6308900696688	-0.0777748205595307	-59.4501450034666	-0.0959007457244626	-59.3754675512408	-25.8419852310685	142.649371300829	
939400000	-25.6975913977195	-93.6032504547223	-0.0731239226765042	-59.5011300687427	-0.0965552771248957	-59.5044669410497	-26.1468691324964	142.163493978209	
941100000	-25.5297060839283	-92.0391216568103	-0.0894206183488565	-59.6206397021072	-0.0893804998589933	-59.6035800159169	-25.9818807722286	143.372236145975	
942800000	-25.6973630498861	-92.3436715091423	-0.0843586109826295	-59.6850437056894	-0.103563798562494	-59.6205221454475	-26.2614724026589	141.32443735664	
944500000	-25.6316939587553	-92.322036278454	-0.0732765351892886	-59.873627157323	-0.08508666528811	-59.7697212076798	-26.41579230127	142.256549538632	
946200000	-25.5483197192689	-93.8507490348089	-0.0851839745004166	-59.8714785974901	-0.0985865940303948	-59.8656765352223	-26.1887549827538	143.094228240156	
947900000	-25.8381338068932	-92.4143109547969	-0.0996815940527842	-59.9941927828502	-0.101108640884325	-59.9966204715267	-26.2398884906196	145.184903515271	
949600000	-25.5511595662034	-92.2626998858761	-0.0827654712841496	-60.1458485072405	-0.102962498198898	-60.0894247875987	-26.1110125900919	142.048798950905	
951300000	-25.6433805425877	-90.6735984510655	-0.0891988537825589	-60.1463188407218	-0.0781314625982347	-60.2222126139721	-26.1184927773242	141.362474498583	
953000000	-25.6723373503416	-94.4594214373242	-0.0894210242895756	-60.2817923384817	-0.0975923048922674	-60.3493730713357	-26.0571165437337	140.475475487094	
954700000	-25.5798001564459	-93.3558402369724	-0.0866981384271624	-60.4381464853246	-0.106439857311199	-60.3675365795811	-26.4232693337037	137.58101336037	
956400000	-25.3310477920599	-92.4736851191041	-0.0813301018797377	-60.586527350269	-0.113510698340476	-60.4841063863074	-25.9730746727615	140.928627429116	
958100000	-25.3966882267018	-91.9925393638991	-0.0830057439216105	-60.6651154102584	-0.0970971467589052	-60.6270632705828	-26.0127807602128	140.657162666662	
959800000	-25.416701354299	-90.9041553660514	-0.0890275758562292	-60.7298107801507	-0.0944427801862864	-60.7335962372544	-25.9845512108592	140.439946439261	
961500000	-25.6717875229346	-92.6012534681617	-0.091778337302564	-60.9048385702431	-0.0929080420907978	-60.8857273392544	-25.7762675925767	139.917379844797	
963200000	-25.3690690273551	-93.3007125433397	-0.0730647102534267	-60.9355414725608	-0.095206204842886	-60.8868821383321	-26.098928915066	141.016509223874	
964900000	-25.5799913974059	-92.6836635363483	-0.0929873432444047	-61.0661975151268	-0.0780415451981463	-61.0918126146181	-25.8814916157678	140.771117975965	
966600000	-25.4688371720053	-92.5408372978149	-0.0749872885825315	-61.2309756901771	-0.101022844272989	-61.1871990973313	-25.8103230919622	140.906340213108	
968300000	-25.5118710652569	-91.6211642438966	-0.0764814284498979	-61.249439269986	-0.100886672957343	-61.2447002414094	-25.8267747713072	141.375424013335	
970000000	-25.5072517003592	-93.3311552005889	-0.085124752922445	-61.3904065946479	-0.101041766866543	-61.4604621283484	-25.7932762212528	140.543546219182	
971700000	-25.4475504278057	-90.8193144956603	-0.0861938047782476	-61.485184587387	-0.0891916793195603	-61.4903270068376	-25.9301816499364	141.034211123101	
973400000	-25.5518642410338	-91.9245992601039	-0.074870121459057	-61.6017966801172	-0.101265050040724	-61.6209019038719	-26.0100498604277	138.040452507972	
975100000	-25.2984229672697	-93.2515392348455	-0.0779420504584252	-61.6998499345711	-0.108079447578962	-61.7808601888586	-25.8851963123449	138.111748228147	
976800000	-25.0278374356725	-91.7231365104236	-0.0852631941516787	-61.8265125132079	-0.0910868005450128	-61.8016647032919	-25.8346548447004	138.381894331965	
978500000	-25.3385960948639	-93.180598395654	-0.0670846562527669	-61.9148237032539	-0.0865187567162292	-61.8572193114577	-25.7665942842866	138.562996321861	
980200000	-25.3730101186609	-92.5515243065922	-0.096153300177615	-62.1004654853274	-0.0937104960517953	-62.0264965878157	-25.5945846946404	140.109014603997	
981900000	-25.54672175501	-91.7499611175314	-0.0892285054004416	-62.1205066439744	-0.0994401134279184	-62.1886220312703	-25.9617616234361	137.268150158682	
983600000	-25.1609697726182	-92.5640904362719	-0.0823303554576654	-62.2595308768601	-0.105663726023111	-62.2697370568528	-25.9390136214551	138.127948646482	
985300000	-25.2578389627054	-93.4277543955482	-0.0848137290377664	-62.3416142965219	-0.102212601501412	-62.2826696917766	-25.94170041974	136.502486358149	
987000000	-25.3647028598394	-92.0911339348888	-0.0806375027866076	-62.4468100370583	-0.102118914390117	-62.4214730360401	-25.8059877984993	136.348703940052	
988700000	-25.5001560913089	-93.2952210264627	-0.097107363649917	-62.5193959765919	-0.0985595069905377	-62.647241140621	-25.7888502295789	137.459696445309	
990400000	-25.2144170251879	-93.1023187293236	-0.0946164155990561	-62.6109951467098	-0.103263055096875	-62.7792424347667	-25.5109729510837	135.950167367044	
992100000	-25.2021125624366	-92.9368613307933	-0.093602803150013	-62.6939789751453	-0.0960185041393911	-62.8289389237842	-25.519609383921	137.22363543603	
993800000	-25.1701655557779	-92.9446028820194	-0.0972103874500456	-62.8969424643209	-0.123529421266927	-62.8595730904281	-25.6296656339637	134.718475261481	
995500000	-25.0813299679975	-94.1441785437086	-0.0931313748288814	-63.0033452518447	-0.106484297626495	-63.0146836342367	-25.7009459323682	135.464482538996	
997200000	-24.9180285991127	-92.6676289462605	-0.0838238268479888	-63.1306984727294	-0.104015884179174	-63.0979704127976	-25.9737591902851	135.918166498632	
998900000	-25.2983036368478	-93.7665612513664	-0.0788106333508371	-63.2309153004836	-0.0916974842294515	-63.2617657415402	-25.631790641952	137.282850273166	
1000600000	-25.2638259414261	-92.9106272484927	-0.0752123278195839	-63.2927977293955	-0.101446800397845	-63.2721342410565	-25.551780900186	136.090054548241	
1002300000	-24.9730413071896	-90.6683846061473	-0.089718542199211	-63.4400822688625	-0.100422023856957	-63.3794735101359	-25.5966310312515	135.342705524261	
1004000000	-25.155493364064	-93.8326677710015	-0.0869784391837636	-63.4423014447939	-0.10234119639707	-63.502207057074	-25.4977167436352	136.096154631729	
1005700000	-25.0197531429711	-92.8919727927198	-0.0808123707863606	-63.6313539125647	-0.0999572620928979	-63.6320300809194	-25.4443915741821	136.200628643	
1007400000	-25.0256820645614	-92.7092250879213	-0.0729835721774279	-63.767318560536	-0.0984395266882749	-63.7486794394533	-25.7434393341476	134.637399986123	
1009100000	-24.8273650250109	-92.5799378790365	-0.0842332030340262	-63.8575126245161	-0.0933758463579601	-63.9595966899741	-25.8389740977834	134.376968576993	
1010800000	-24.8525106917681	-92.0072429106874	-0.0855015475660027	-63.9537106947188	-0.100781823104875	-63.9403773617334	-25.5917863889927	134.453356103394	
