!Keysight Technologies N9950B: A.12.38
!Date: Friday, 12 May 2023 12:09:47
!Timezone: (UTC-06:00) Central Time (US & Canada)
!Model: N9950B
!Serial: MY61131330
!GPS Latitude: 
!GPS Longitude: 
!GPS TimeStamp: 0001-01-01 00:00:00Z
!GPS Seconds Since Last Read: 0
!CHECKSUM:1644523392
!Correction: S11(ON U)S21(ON U)S12(ON U)S22(ON U)
!S2P File: Measurements:S11,S21,S12,S22:
# Hz S DB R 50
800000000	-21.1710390296921	-140.411845999376	-0.0422239710767121	-53.4266715110893	-0.0676883536459411	-53.3961080302283	-21.0662300779342	-142.372991311152	
801700000	-21.2438793381315	-140.317323117295	-0.0607455295095597	-53.593377040826	-0.0496086127291531	-53.5325809184265	-20.895438243874	-142.03733430468	
803400000	-21.1186841758092	-140.169973127986	-0.0537007416299786	-53.6981811057913	-0.0598280845215347	-53.6736208201854	-21.1281244078184	-142.76963835555	
805100000	-21.0941925169482	-139.203414624221	-0.0469360265426773	-53.7614337371818	-0.0603651595266554	-53.7923639190465	-21.0715300652162	-142.707837578389	
806800000	-20.9879559932259	-140.426910925875	-0.0363263888771322	-53.8924566411284	-0.05504256887042	-53.8900043148155	-20.9074946816112	-142.500950477783	
808500000	-21.0853111270106	-138.974339312278	-0.0497656189785278	-54.0163987250297	-0.0473188495477441	-53.9689894514094	-21.1557017922268	-142.193551913599	
810200000	-21.1267328954031	-139.801118265993	-0.0546550465412117	-54.2386511765415	-0.0634153618991961	-54.1444340548793	-21.143259212386	-143.008809433763	
811900000	-20.9731497023455	-140.297359042998	-0.0447593269146996	-54.1582170213503	-0.048260833621529	-54.2276261283023	-21.0905000004048	-142.961170977407	
813600000	-21.0885781375949	-140.285164674782	-0.0423538188314922	-54.375576518143	-0.0426680690846613	-54.3971489354657	-21.0154666153913	-143.519999239897	
815300000	-21.0670788129649	-140.286476121503	-0.0488828947148942	-54.5431961066814	-0.0737871754510591	-54.4519492053761	-20.9842339282289	-144.162637133334	
817000000	-20.9729833033383	-140.750179330259	-0.055159184483307	-54.5502176784637	-0.0604880935330136	-54.5880861645375	-21.0295781015367	-143.102887002473	
818700000	-20.9064764333052	-140.432100283419	-0.059440035052685	-54.7001537570159	-0.0700369236991214	-54.7129668577632	-21.0037273361067	-143.98471960497	
820400000	-20.7921015409317	-140.504524634003	-0.0467457017311389	-54.7996442740005	-0.0641384933412641	-54.8044125490211	-20.9186782928726	-142.800846962105	
822100000	-20.7998029219659	-140.774270217225	-0.0341545935147541	-54.8553426688036	-0.0480039355299568	-54.9501463068344	-20.842025761453	-143.554368850153	
823800000	-20.8395968242445	-140.838241428375	-0.0505979513266735	-54.9333734012454	-0.0686056445326882	-55.0476871516547	-21.0522349400878	-143.552174018229	
825500000	-20.7397367989488	-141.314627918943	-0.0678866040975256	-55.0855059014517	-0.0476363012112072	-55.1343910925773	-21.0411154850177	-144.256164644569	
827200000	-20.6259169001066	-141.331405604634	-0.0688685373357575	-55.3328062033887	-0.0442749186068082	-55.2243431141536	-20.9893413655707	-144.086453776575	
828900000	-20.7983444196886	-141.380372135112	-0.03557640974173	-55.2665255863775	-0.0630931016431704	-55.3662111436711	-20.9628494797906	-144.094759319509	
830600000	-20.6332969156267	-141.575267289889	-0.0643531879065379	-55.5880718837217	-0.0664737411743963	-55.5700248679026	-20.8455846693131	-144.27180017902	
832300000	-20.5740231951052	-142.536118226341	-0.0563987266182481	-55.6080996802116	-0.0605776883565542	-55.6196345014443	-20.8541912710458	-145.362104769147	
834000000	-20.658594973556	-141.804447170909	-0.0510934561222231	-55.6913014502998	-0.0740485441504604	-55.6581077049108	-21.0064531009334	-144.826446284915	
835700000	-20.7493702510949	-141.721750249906	-0.0551402635477025	-55.8346851512564	-0.0716472484790251	-55.7278132585232	-20.8097922292202	-144.857647423945	
837400000	-20.6436667165417	-141.771213496052	-0.0597393189979682	-55.9331298106573	-0.0624432098132393	-55.7905020226828	-20.9233944823492	-145.241873254463	
839100000	-20.6561874428873	-142.227300295018	-0.0547641959005602	-56.1407059063292	-0.0708736831166776	-56.0247538084081	-20.9146280938007	-145.166412739205	
840800000	-20.6031410993143	-142.300199678604	-0.0638751565640888	-56.1625135305101	-0.0659576288783477	-56.2126744587621	-20.9878740176145	-146.155176319226	
842500000	-20.4814580521858	-141.772151775255	-0.0739840574643112	-56.2517955359908	-0.0626393093061154	-56.2877034934098	-20.7461606117912	-146.436130975067	
844200000	-20.536420071919	-141.626754544843	-0.0564952970914509	-56.4143454034888	-0.072771389078893	-56.3705914340769	-20.7647555403457	-146.460257357636	
845900000	-20.5029468749854	-142.17245999769	-0.0621535833424197	-56.5290469766374	-0.0661836395150667	-56.5016105234205	-20.7762490945543	-146.086185006663	
847600000	-20.4725017125677	-142.179902693895	-0.0534183117802653	-56.5735289158297	-0.0703584068284477	-56.5269813764503	-20.8098185798639	-147.143073189263	
849300000	-20.3477729115708	-143.380905448543	-0.0611321674303163	-56.6977814080207	-0.0751571153826518	-56.7138794810059	-20.9973131610583	-146.867919477752	
851000000	-20.4181782343354	-142.780893621812	-0.055959114609039	-56.9104778873734	-0.0560888430469657	-56.8388004972105	-20.6904632722026	-146.216745700959	
852700000	-20.353061223604	-142.968727992338	-0.0664697893542966	-56.9049861116937	-0.0677351324935637	-56.9756371790183	-20.7709755453827	-147.774354293334	
854400000	-20.3729048686619	-143.347811140314	-0.0603456816531214	-56.9881369959911	-0.0672230605704206	-57.0638198100673	-20.6905708078766	-146.628839129642	
856100000	-20.1652464482501	-143.222925581494	-0.0526406765929334	-57.1793664251603	-0.067813492803704	-57.1380244393962	-20.5795409205808	-148.309158392946	
857800000	-20.135900149656	-143.152716792079	-0.0527098633509324	-57.3376444435647	-0.0701558461523343	-57.2765597260917	-20.7515019530129	-148.706786097639	
859500000	-20.2702032874929	-144.072522949701	-0.0675878680170211	-57.4237886433822	-0.0687067275056571	-57.3473362755463	-20.7061789914833	-148.01114526326	
861200000	-20.2842550262399	-143.958167453224	-0.0655476771599613	-57.5050166433085	-0.07290949284385	-57.5425177130348	-20.7214921703017	-147.157424700905	
862900000	-20.260154843732	-143.925119505304	-0.0585695392270351	-57.6387535020213	-0.068824454046907	-57.571761792072	-20.5841244901746	-148.050230546733	
864600000	-20.2543259055611	-143.876969702419	-0.0545021066374398	-57.7325957493236	-0.0591303218773079	-57.7550693516698	-20.6379801362753	-148.088561627158	
866300000	-20.2435157539312	-145.013892770266	-0.0602108382938838	-57.807918568881	-0.067372163470608	-57.8039200334756	-20.7326401232336	-148.919242899743	
868000000	-20.2458028971375	-145.137928987146	-0.0597885569486593	-57.9433847007865	-0.0763853443458185	-58.0572975592629	-20.5426988267542	-148.098143946666	
869700000	-20.3343800506621	-144.537250062612	-0.0717873676836145	-58.1370695758311	-0.0732112817630822	-58.1166187034133	-20.3544948952224	-148.955047626281	
871400000	-20.2244587658548	-145.020614841755	-0.0505407424924672	-58.1810861228785	-0.061426310218365	-58.2147910715329	-20.4017295299943	-148.933035714302	
873100000	-20.2155817087515	-144.599641939363	-0.0576923902268515	-58.3149569526605	-0.0779158738089499	-58.2612276194335	-20.3947081059689	-148.392131679843	
874800000	-20.1915226286193	-145.290968130431	-0.0539149229582634	-58.3010497646315	-0.0598890720499881	-58.5393234621503	-20.431282709731	-149.203557376399	
876500000	-20.1071836478398	-145.431222013605	-0.0656154087668294	-58.5350612930402	-0.0821358527074113	-58.5262777203054	-20.4258872044234	-149.625466237482	
878200000	-20.0558025381899	-146.482252024955	-0.0614611431494932	-58.6956688597889	-0.0639077447672571	-58.5749581401675	-20.3990969988196	-149.548100637644	
879900000	-20.1475374808172	-145.295808248035	-0.0668071667005069	-58.7237227449452	-0.0832410579038402	-58.7405648709726	-20.3017255596128	-149.44107716362	
881600000	-20.3552341521827	-145.408003768667	-0.0549150736699239	-58.8212855169458	-0.0645235755441168	-58.8297054290789	-20.2996638955592	-149.37050431518	
883300000	-20.1501636594903	-145.669304915624	-0.0422275381127932	-59.0180904316584	-0.0696104003227943	-59.0289424892241	-20.2205745875787	-149.277835786291	
885000000	-20.18924941292	-146.240943252155	-0.0746446721835901	-59.0689360131956	-0.0758662074671221	-59.0361691774525	-20.3375270945717	-149.715370800548	
886700000	-19.9259188676596	-145.601692087097	-0.0510122245628007	-59.2024045406011	-0.0645419503239605	-59.2102426193253	-20.1147301348079	-149.470650195574	
888400000	-20.0705570710948	-146.614743901388	-0.0582255764287051	-59.3685824583679	-0.0610906744966716	-59.2527506255166	-20.3440208751413	-151.015003266989	
890100000	-20.1816737459911	-146.021973197281	-0.0656750388555247	-59.4047089426316	-0.0580402540917671	-59.4138103415885	-20.2669770088446	-150.314632161864	
891800000	-20.0741897444741	-146.257143245707	-0.0584438317857216	-59.6172015069472	-0.0710574027576241	-59.4439004783025	-20.1997835294633	-150.784377448525	
893500000	-20.0434953009755	-146.496162858742	-0.0689308454095588	-59.6917936242877	-0.0792542205535726	-59.6694014188829	-20.140326688427	-149.080927669967	
895200000	-19.9949570449641	-146.202511281522	-0.0557561554545465	-59.802279795238	-0.0678223385963	-59.7704317001058	-20.2505138540986	-149.931217061394	
896900000	-20.008116927344	-146.944709514299	-0.0625981477184107	-59.9302655600066	-0.0722512147811221	-59.8357533215916	-20.2024139309079	-151.086825022643	
898600000	-20.0795121973621	-146.081934196983	-0.0467955869693402	-60.137374631531	-0.0748794901828373	-59.9708205940916	-20.1112549105705	-150.325747332932	
900300000	-20.0927052664517	-147.170392234632	-0.053447578333074	-60.0612844345167	-0.0840024480816333	-60.159772506732	-20.0668032548228	-149.04840858484	
902000000	-19.9744341958592	-146.237819128864	-0.0583994320436785	-60.2928874227338	-0.0669746980567624	-60.193030423503	-20.0024562559315	-150.665756102832	
903700000	-20.0664291941799	-147.118354647235	-0.0593524001210466	-60.3566435668937	-0.0751580954028238	-60.3874171572061	-20.0537975001992	-151.896185759773	
905400000	-20.0149002610388	-147.749729949802	-0.0679968371952678	-60.4057852317312	-0.0744620907552736	-60.4986163926738	-20.0388869043424	-150.014455210393	
907100000	-20.1625309282883	-147.666174524644	-0.0533430440707538	-60.6045852859867	-0.0849696384081718	-60.6400559724915	-20.0629587826029	-150.447565373906	
908800000	-19.9100570351841	-148.11530171008	-0.0622456139407477	-60.7471736880737	-0.0658605401342389	-60.6414108749669	-19.8834587140647	-150.869761954854	
910500000	-19.954822487324	-147.273879053019	-0.0448431705498358	-60.7809176106362	-0.0704799940979839	-60.7701277654899	-19.9776342790923	-151.522433949969	
912200000	-19.9804329080967	-148.577838014963	-0.0626706005843387	-60.9362645236674	-0.0764940034325066	-60.9596843957599	-19.8729423359566	-149.976465079041	
913900000	-19.9421401952991	-146.737089794912	-0.0532175670846395	-61.0058703889552	-0.069613909329711	-61.017079167608	-19.8768468155009	-150.144628141631	
915600000	-20.1125174283458	-147.83596945968	-0.06492720453563	-61.1545508235195	-0.0708327905482247	-61.1571660761617	-19.8465634262781	-151.109686690279	
917300000	-19.9089493583243	-147.849567858391	-0.0600578701663341	-61.2652044595217	-0.0742190261261641	-61.155619472992	-20.0249736232567	-150.8197458946	
919000000	-19.8900920986543	-148.12338050434	-0.0585649841787555	-61.3829357273018	-0.0732144401233542	-61.4839946511837	-19.7536880695446	-150.994316450648	
920700000	-19.795317370689	-148.277020814057	-0.0828618878429108	-61.5029557138342	-0.0738166833670193	-61.4511215825954	-19.9798693273468	-152.356280946621	
922400000	-19.9323643372963	-148.47874142078	-0.0699227156161914	-61.6386533476659	-0.0759052022357999	-61.6536729826855	-19.8152634483807	-151.320037872566	
924100000	-19.8788248932907	-147.731297232842	-0.0660509167007392	-61.6804113235697	-0.0795944576188165	-61.6869070863617	-19.736480955426	-151.301195101438	
925800000	-19.7979195694132	-148.036195296063	-0.0598282239735968	-61.7727661543148	-0.0783860931689523	-61.8268347917901	-20.0447400199011	-151.970613030278	
927500000	-19.7858468827611	-147.857904216988	-0.0664739511064043	-61.9552563524618	-0.0807598515821411	-61.9272603903246	-19.884564804622	-151.554478923815	
929200000	-19.7865564313554	-148.940765902657	-0.0631742282371653	-62.1551452084846	-0.0618616997893776	-62.0001797880168	-19.8587237969693	-151.172706281397	
930900000	-19.8500866409481	-148.514281944351	-0.0559750471308104	-62.2416653253418	-0.0780082851585586	-62.2008182243549	-19.980549543182	-151.45016613677	
932600000	-19.7286917457211	-148.762070086242	-0.0593018139391359	-62.3306462315561	-0.0732190498333605	-62.3537455153226	-19.8041348941185	-151.833978953652	
934300000	-19.7252379235769	-149.420432747094	-0.0682631855076387	-62.3954601667648	-0.0740816704325849	-62.369117237573	-20.0066059581083	-152.556968464485	
936000000	-19.762156366618	-148.871964816372	-0.0560374341029446	-62.5068866293356	-0.0723156068630861	-62.4548212284415	-19.9318448127097	-152.178330466141	
937700000	-19.7317765661566	-148.783344361388	-0.0641830562146513	-62.53322475894	-0.0799584528010627	-62.6668618216938	-19.8659051845362	-151.877985453515	
939400000	-19.5939307793576	-148.473147095152	-0.0643678383477163	-62.6900697072816	-0.0758284286556994	-62.695979089863	-20.0010673335846	-152.455944831185	
941100000	-19.4566841279769	-148.355524925558	-0.0572525984068	-62.8761939344589	-0.0817386714662219	-62.8333434740546	-19.8844772378324	-152.052818602375	
942800000	-19.5812208193711	-149.530205125691	-0.0794421130148268	-62.9489013854735	-0.0826025279359258	-62.9481321719245	-19.8180807860256	-152.056147393673	
944500000	-19.6107637356354	-150.118638147753	-0.0700631011597879	-63.0415093109611	-0.0694483435335067	-63.0069253929444	-19.8179581472208	-153.696402616788	
946200000	-19.4372735213598	-150.256718912095	-0.0674408988065228	-63.2386443149697	-0.070346262100602	-63.1465635723104	-19.9438682082197	-152.81422486785	
947900000	-19.4341208141411	-150.080411202144	-0.0660561174669085	-63.3377721538757	-0.0760266022804509	-63.2597091179584	-19.7984537655975	-151.887460513713	
949600000	-19.4992665647868	-148.748655783533	-0.072810243914776	-63.4465210264114	-0.0826165996627409	-63.3506682732969	-19.9015730799824	-152.797815224145	
951300000	-19.5033953092178	-150.633903950823	-0.0802100971125345	-63.498782435715	-0.084835616683535	-63.5513424908523	-19.7790618469753	-153.747167662454	
953000000	-19.3587479916171	-149.76654010095	-0.0579136622032927	-63.6087899835034	-0.0911625112708189	-63.6869701891119	-19.8436454496765	-153.605884006302	
954700000	-19.3664976772826	-149.718852275356	-0.0681128451693412	-63.7175096686751	-0.085239977106835	-63.7890514902484	-19.7920080027474	-153.313978706285	
956400000	-19.3664277676128	-150.475368717425	-0.0665208464700479	-63.8218137576389	-0.0833583247737104	-63.8948179756766	-19.7443693135131	-153.857266472627	
958100000	-19.351466662355	-150.702310278601	-0.0697658871664626	-64.0390346342089	-0.0731929634844431	-63.9724360564056	-19.6287364308009	-154.225272685837	
959800000	-19.4022210444377	-149.629955504872	-0.0539204983077576	-64.1032173295758	-0.0896796478970914	-64.1633269645964	-19.7679262745812	-154.599318140114	
961500000	-19.3393602177222	-150.539516282395	-0.0729144220918116	-64.1257145548015	-0.0811518386465179	-64.2291098504306	-19.8142325731193	-153.923228297047	
963200000	-19.2388895984963	-151.247838814338	-0.0766160558579263	-64.2910138182778	-0.0855583954681989	-64.2722398468563	-19.812527631532	-154.305083220884	
964900000	-19.2867496574256	-151.133849878163	-0.0753551874771732	-64.3459637515572	-0.0893588546296954	-64.3873515494258	-19.7944482777466	-154.271049530274	
966600000	-19.1713608126799	-150.610743375798	-0.0656235486179828	-64.5785898601236	-0.0689591709857203	-64.5170930359156	-19.6984458015149	-155.112336191521	
968300000	-19.1297547609533	-151.413888276774	-0.0633430176227952	-64.6146940093048	-0.0852615732873465	-64.6183705178905	-19.6885521187641	-154.669058417228	
970000000	-19.0739387655211	-151.59073523889	-0.0852147126525447	-64.7777313548553	-0.0858638883057957	-64.7440874346105	-19.5785873498442	-155.359557341755	
971700000	-19.1747086218281	-152.401257057058	-0.0619984415449417	-64.8954865968843	-0.0799615293318748	-64.8779152879077	-19.6131669556167	-156.007276316625	
973400000	-19.0032301875915	-151.467928431679	-0.0910102114825394	-64.9634832320897	-0.0899653202846514	-65.0486028156452	-19.6157491063764	-155.656553140571	
975100000	-19.1633102634736	-151.856832295027	-0.0839431250955596	-65.134491867859	-0.0901609966469105	-65.0872693701672	-19.7254454862447	-155.21084401939	
976800000	-19.2072999420373	-151.624367457222	-0.0640607064429381	-65.1667854448738	-0.0803556765272354	-65.1349808150465	-19.5311680253729	-157.418882280943	
978500000	-19.2236018374406	-152.012081306864	-0.0802452681442327	-65.3180831665957	-0.0880096251202233	-65.2747315707338	-19.6549000950418	-157.454524449026	
980200000	-19.0198352143795	-152.500262437219	-0.0736907872275426	-65.4231741863779	-0.0801633363926997	-65.4511302054095	-19.5788153177538	-157.175078958184	
981900000	-19.0924523588631	-152.46095886207	-0.0705516683172109	-65.5502019281404	-0.0637414955597561	-65.512098930904	-19.5821381886332	-157.539369945999	
983600000	-19.061465759203	-152.753683224743	-0.0759706606310333	-65.7206157720169	-0.079255211889081	-65.6414234242395	-19.7880121945685	-157.31729481941	
985300000	-18.9604452844894	-153.277000239882	-0.0687764508625046	-65.8242324562502	-0.0861529142590887	-65.746490733813	-19.3294676268911	-158.668875201453	
987000000	-19.0567262105874	-153.484210490755	-0.070014497749428	-65.8579174652438	-0.0856384336150458	-65.894272910886	-19.3665726444892	-157.754059732161	
988700000	-19.0660116370906	-152.390003731239	-0.0809555025228328	-65.9794751785501	-0.0951994123291158	-65.955688908731	-19.3805332271305	-158.500904232412	
990400000	-19.1107530346573	-152.493008542539	-0.0687365779079359	-66.0495889307532	-0.0790667412599211	-66.0499216074698	-19.3695412888271	-158.036105084481	
992100000	-19.042249231245	-153.410995433053	-0.0628309856014371	-66.2595303574127	-0.0906958360840023	-66.1929955894538	-19.2642910829837	-157.540605716988	
993800000	-19.0351572376848	-153.537861740522	-0.0983825939601771	-66.4066408887422	-0.0871273223244889	-66.3777356676742	-19.0923756626561	-157.794873712387	
995500000	-19.0317620529973	-154.093060458023	-0.0708854677588269	-66.4571611399323	-0.0819867150123886	-66.5013901819914	-19.2244935117607	-157.640404022614	
997200000	-18.9991511906693	-154.07574451972	-0.0722471704787961	-66.5612291163708	-0.0819222704150048	-66.576115913557	-19.2862090261602	-158.402874376217	
998900000	-19.1227477953602	-154.038709574057	-0.0680847980059786	-66.6627255543454	-0.0906190897760527	-66.6670548008575	-19.2469573164974	-158.676523702799	
1000600000	-19.1206106586548	-154.481504164963	-0.0745050641455885	-66.8753127399994	-0.0965718886882182	-66.7970959717091	-19.0223868618266	-158.688565150732	
1002300000	-18.98942650662	-155.152021498171	-0.0682643779571564	-66.9296839596464	-0.096517972722753	-66.8542702821004	-19.2295358771086	-158.119652150964	
1004000000	-19.0208192797379	-154.21521943966	-0.0790751875341146	-66.9334097093297	-0.0974971833127677	-66.8951927951532	-19.1748066770161	-158.312697453709	
1005700000	-19.0104735651485	-153.86292068816	-0.0765779767096004	-67.0682040913315	-0.0835367679955337	-67.1619778640314	-19.1573192986378	-158.625837050138	
1007400000	-18.9859510639151	-155.036375659025	-0.0742956677974865	-67.2281556515724	-0.0824681689679808	-67.1389682351644	-19.1572648538298	-158.649255914768	
