!Keysight Technologies N9950B: A.12.38
!Date: Friday, 12 May 2023 13:32:44
!Timezone: (UTC-06:00) Central Time (US & Canada)
!Model: N9950B
!Serial: MY61131330
!GPS Latitude: 
!GPS Longitude: 
!GPS TimeStamp: 0001-01-01 00:00:00Z
!GPS Seconds Since Last Read: 0
!CHECKSUM:1302254775
!Correction: S11(ON U)S21(ON U)S12(ON U)S22(ON U)
!S2P File: Measurements:S11,S21,S12,S22:
# Hz S DB R 50
800000000	-7.12342015892353	-174.32823777111	-1.45089165680372	-80.6785373870472	-1.45748628274921	-80.7457047737075	-7.11942866463601	-175.061998054251	
801700000	-7.11866312302636	-174.312418471818	-1.44904209442026	-80.8485903535628	-1.45866810759501	-80.8810573541919	-7.10534025462396	-175.143125939945	
803400000	-7.11738436792678	-174.456553744011	-1.45852934582183	-81.0554369593646	-1.4569706601518	-81.0636542302874	-7.15299438477429	-175.394696635116	
805100000	-7.1076283297571	-174.258235327708	-1.44638950460048	-81.1206106299913	-1.46655091266597	-81.2255123993926	-7.14723229262473	-175.458499186824	
806800000	-7.08758968301035	-174.693050627392	-1.44752462077092	-81.3133120105121	-1.4655760907227	-81.3585360500698	-7.10721288199054	-175.646132937465	
808500000	-7.11902996007382	-174.617133449324	-1.4524199061175	-81.5294087491373	-1.45687075702875	-81.5394676088889	-7.16410059430092	-175.686486492437	
810200000	-7.11277475120554	-174.912279825372	-1.44414352610274	-81.7203130375936	-1.46937997852104	-81.6862765779932	-7.18119487649207	-176.019157961196	
811900000	-7.09034491015619	-175.026610709733	-1.46026694582449	-81.7487003559738	-1.45688389084314	-81.7724935439479	-7.16581771733427	-176.043838681927	
813600000	-7.10544883966584	-175.223740299604	-1.44741896144883	-81.9917721735715	-1.46386994651617	-82.0785051585971	-7.14643969324926	-176.383883004401	
815300000	-7.11263933549979	-175.36283553506	-1.45958642663455	-82.1544865111898	-1.47450518130199	-82.1054347038193	-7.14474313952618	-176.632828255875	
817000000	-7.08484296730639	-175.42938243774	-1.46498480588723	-82.2022226944074	-1.46837746352397	-82.3137034615745	-7.1571113861484	-176.632624249323	
818700000	-7.08747948169935	-175.58479497747	-1.46737449638601	-82.3926683586317	-1.4794602216007	-82.3336245328171	-7.15938728633012	-176.720771006629	
820400000	-7.05932198639205	-175.554821554863	-1.46126636862989	-82.4201897233395	-1.47506199077932	-82.537054317513	-7.1456293162311	-176.703298033389	
822100000	-7.04511662215028	-175.767625159854	-1.44955743509662	-82.65083589516	-1.47564553077018	-82.7102387679908	-7.14250751215823	-176.990378681687	
823800000	-7.05503259816471	-175.895647455653	-1.45969739690993	-82.7664436972815	-1.47874784726392	-82.8945916807221	-7.17230691990144	-177.114901118404	
825500000	-7.04668087957386	-176.117856064521	-1.46414578855237	-82.9068365901068	-1.46700268632818	-83.0231978624977	-7.17087096117216	-177.349692814098	
827200000	-7.0266220810779	-176.322860776364	-1.47951999972033	-83.1203542258578	-1.47246066743919	-83.2243531327867	-7.15772154612441	-177.663438777903	
828900000	-7.0598655922067	-176.441542197776	-1.4638619632492	-83.2658738692462	-1.49020950651509	-83.2460350146999	-7.16576515232521	-177.677575428701	
830600000	-7.05470898008467	-176.565303089417	-1.4875664134402	-83.4872882041351	-1.48785258219211	-83.4930682861455	-7.14233820724496	-177.895984212544	
832300000	-7.04012459503608	-176.87514603988	-1.47986684602356	-83.5075362147796	-1.49741971364276	-83.5089633061034	-7.14147305156817	-178.139732606159	
834000000	-7.04915124949861	-176.827979996554	-1.48182294882499	-83.6921848611271	-1.49281176231094	-83.7107909138456	-7.18778609803311	-178.252125061632	
835700000	-7.0592284528659	-176.87678899506	-1.47461504638921	-83.8276431697799	-1.4930249225684	-83.742947109305	-7.14792219416124	-178.312699396637	
837400000	-7.05116894685086	-177.181534859917	-1.47776970821008	-84.0197037213028	-1.49616899923684	-83.9022343112485	-7.17760941263537	-178.496616214539	
839100000	-7.04055697035484	-177.370561103045	-1.4745079019682	-84.2117865355139	-1.49522235256663	-84.1327875839214	-7.16404000911221	-178.732784425462	
840800000	-7.05609715443481	-177.493801028921	-1.48649158391349	-84.2547839499579	-1.49047059025284	-84.2981923968844	-7.18284071690156	-178.96679725247	
842500000	-7.01960938414683	-177.502133891103	-1.49713138051783	-84.4344961792453	-1.49269994444241	-84.4097270935385	-7.13052340569214	-179.196797547623	
844200000	-7.04066209580303	-177.588306786645	-1.48376117821549	-84.5968470647686	-1.50654438648161	-84.5949837358938	-7.13715459847258	-179.388376244049	
845900000	-7.04088558683502	-177.814610636571	-1.4831466560694	-84.7218082399528	-1.5006996316961	-84.6692806397695	-7.14550689462379	-179.357559278472	
847600000	-7.03418454503326	-177.86330942052	-1.47299340507999	-84.8639826849662	-1.49960644295188	-84.7831957467254	-7.15497355335017	-179.62027822813	
849300000	-7.02541254315619	-178.325674446344	-1.48414256497774	-85.0360818413306	-1.50062777197488	-85.0747408154889	-7.1774962694485	-179.845147573106	
851000000	-7.03908770936698	-178.273354032675	-1.49644620389062	-85.1870292025752	-1.49683609395805	-85.2040995264379	-7.12916105101266	-179.802405441846	
852700000	-7.03301164806773	-178.509439828794	-1.48632226443582	-85.3637516185928	-1.49498810987424	-85.3566316810083	-7.13836023531097	179.889022344729	
854400000	-7.02979100616018	-178.718380867804	-1.49901394937559	-85.5552763827804	-1.49513148240804	-85.4893709394854	-7.11871775865486	179.948868217891	
856100000	-7.00816212977968	-178.713496246474	-1.48414369309951	-85.5650074379007	-1.49986438065103	-85.5358617080181	-7.08374327802527	179.595143958067	
857800000	-7.01021156568273	-178.869427688328	-1.48428118361228	-85.7645244883645	-1.5020887836153	-85.6936234012034	-7.11692149305283	179.386259902312	
859500000	-7.03612715189355	-179.118517908937	-1.49638149681858	-85.8170197902246	-1.49260558332911	-85.9006990592667	-7.12727229571144	179.288386544474	
861200000	-7.06278541831444	-179.137815813075	-1.50330703325968	-85.9967472790608	-1.50128604860931	-86.0519662804042	-7.12344939865872	179.432245428019	
862900000	-7.02159138468012	-179.374301821612	-1.47428425935514	-86.2373718989919	-1.51385393329299	-86.1637374245641	-7.12486232055127	179.138664715341	
864600000	-7.03421767559945	-179.512590507017	-1.46894118548124	-86.3877028530624	-1.50072296241381	-86.377085204397	-7.118549235205	178.965979509475	
866300000	-7.03372158081104	-179.805322650156	-1.49401383369317	-86.4525540168198	-1.51089096154893	-86.4558586907256	-7.15011475538254	178.823375244399	
868000000	-7.05874539577619	-179.912035878913	-1.49110206425778	-86.5497964491573	-1.50779253234412	-86.62460086265	-7.10695532657263	178.897746456228	
869700000	-7.07314311864	-179.935230494335	-1.48978486757172	-86.805201442524	-1.50746722783865	-86.7234653565073	-7.07528729918087	178.545249494042	
871400000	-7.04661758783118	179.865139222757	-1.47327299325225	-86.9861811048298	-1.50472315121381	-86.9016788319495	-7.06189684909627	178.44791694093	
873100000	-7.06512106966529	179.905477004575	-1.48275924200889	-87.0551946145861	-1.52105965554992	-87.0429401899329	-7.07425207850728	178.41913124336	
874800000	-7.05510348345861	179.491186715018	-1.48781598418271	-87.1598492907022	-1.49889113186351	-87.2385061517889	-7.08279055558591	178.303702418057	
876500000	-7.05333372132427	179.433549373065	-1.49350557906685	-87.3917743319012	-1.50228100841534	-87.3398762502028	-7.07901514269722	178.025461721709	
878200000	-7.05634506844914	179.151049762485	-1.496372201283	-87.5554385093768	-1.48262631271794	-87.4792679553969	-7.06632561845825	177.902943259869	
879900000	-7.06581998576476	179.292429320368	-1.48451039528711	-87.6556007341194	-1.50657399599841	-87.5995631180394	-7.06635229834474	177.919845145038	
881600000	-7.10145289067695	179.110655246308	-1.46914660916291	-87.7606649979069	-1.49873832927301	-87.7562145048169	-7.067135007226	177.826296710618	
883300000	-7.08985093025959	178.917419251881	-1.486794836236	-87.9896013050084	-1.50108993141196	-87.9756799537041	-7.0554910717967	177.629628098763	
885000000	-7.08104675081997	178.770598616277	-1.48755196981849	-88.0259064874345	-1.48844904159688	-88.04350426035	-7.07334717014272	177.6115893131	
886700000	-7.03267318103824	178.73410001245	-1.47986425720909	-88.2802768361757	-1.49980292078578	-88.3202052959279	-7.04049764382905	177.528321412926	
888400000	-7.05921580392379	178.453994399286	-1.48262553297254	-88.2835426328041	-1.49059131477465	-88.3766773758183	-7.10501066691578	176.988478921334	
890100000	-7.07821019354958	178.397580540581	-1.46584247306271	-88.5388908682079	-1.47961155615203	-88.6156087184027	-7.08105618115473	177.04158581194	
891800000	-7.08786940469919	178.215822725147	-1.4813646737158	-88.7685193509807	-1.49428618993904	-88.6214808816224	-7.06326107495086	177.013257922551	
893500000	-7.07038923453664	178.110207206145	-1.48148377186078	-88.9030281377889	-1.49307737826312	-88.9234560356042	-7.05794929954524	177.169354000022	
895200000	-7.07079009509233	178.04786730691	-1.47533655970137	-89.0349259315093	-1.48702392059778	-88.9693610171448	-7.08526362871617	177.047108764958	
896900000	-7.09089197249238	177.825020132992	-1.48948522010292	-89.1910976463939	-1.4902362520939	-89.156317194839	-7.08944046445243	176.607289297626	
898600000	-7.11051196477524	177.804260926396	-1.47439272744852	-89.4329365071213	-1.50402621844732	-89.2813951732896	-7.09192548499623	176.632431935354	
900300000	-7.10003806140838	177.484843065186	-1.46650027381419	-89.5093179104293	-1.50342416363023	-89.5573086129724	-7.08685195204064	176.738598342843	
902000000	-7.08445289184896	177.553113931439	-1.47394667673938	-89.77432987607	-1.49379454738967	-89.645111252948	-7.07445393278854	176.308014600794	
903700000	-7.1056319837588	177.255067030227	-1.47475798903103	-89.799822107574	-1.48915167691873	-89.7567818853435	-7.09607069280908	176.029470117696	
905400000	-7.10565602774774	177.054818510359	-1.47461658622811	-89.91948404248	-1.4972868000673	-90.0505073228839	-7.10843644654184	176.18522191853	
907100000	-7.1413083646674	176.882904575328	-1.46780895162834	-90.1476078982936	-1.50451605009602	-90.2319531407281	-7.11831869617111	175.945189941758	
908800000	-7.07981673478256	176.746117720518	-1.48188021913574	-90.3105336801112	-1.49206738848571	-90.1836204906601	-7.06186422366019	175.85080109151	
910500000	-7.10998025924405	176.849791832482	-1.47061412198249	-90.441821803331	-1.49282722483872	-90.3314173650268	-7.11656437514057	175.65764846565	
912200000	-7.11147791332564	176.465391231154	-1.48325173940633	-90.5602206417072	-1.4980957273325	-90.6427423935759	-7.09426411456879	175.704268825584	
913900000	-7.10693179877703	176.713444243532	-1.47316332120758	-90.7346603460666	-1.49228938245763	-90.7532692307493	-7.0991721873459	175.681642129474	
915600000	-7.14266829103947	176.302732463509	-1.47274889904843	-90.9273704712139	-1.48661714852588	-90.8886386494838	-7.1108628859105	175.250349548145	
917300000	-7.10909668433938	176.287571601025	-1.47923419165528	-91.064744600582	-1.49453571934428	-91.0482024049172	-7.15110837346429	175.237979681627	
919000000	-7.09056359227057	176.118620297812	-1.47145677657459	-91.1760605252585	-1.50343495752814	-91.2282923289549	-7.10583522195405	175.071698972255	
920700000	-7.09630684796898	175.94277026119	-1.4935059846252	-91.3694256218202	-1.4957952389485	-91.3189057830518	-7.16415194435324	174.646216194868	
922400000	-7.11899671568276	175.822544576286	-1.50157345676719	-91.4815537820941	-1.50637402403038	-91.4068112331124	-7.15744899957049	174.811154791058	
924100000	-7.1261022689945	175.773138622808	-1.48311843553802	-91.7810390164504	-1.4978092190747	-91.6514010511305	-7.1238830606247	174.63065438007	
925800000	-7.09831958283998	175.583107217547	-1.48482119369368	-91.8403664424778	-1.49198117445875	-91.8247313461443	-7.19291828917912	174.356600892755	
927500000	-7.11123365735909	175.560209181565	-1.48002932785685	-91.881160289001	-1.4969998556523	-91.9719921881491	-7.16482476284217	174.24289858156	
929200000	-7.10819661621759	175.22377820928	-1.48172285529407	-92.1281679209025	-1.48883709483678	-92.1052943408025	-7.17034079104634	174.17642353974	
930900000	-7.1299078050294	175.134548578943	-1.47829597996087	-92.3351453332167	-1.49467460933804	-92.2942604975087	-7.19648082235994	174.046093607655	
932600000	-7.10604992735013	175.078983508405	-1.48496664524757	-92.4474109121483	-1.5010579958982	-92.476950079487	-7.18167589032249	173.781891266878	
934300000	-7.12094275233258	174.878690156465	-1.48260512963053	-92.4686993324047	-1.50704793645539	-92.6220026304035	-7.22716460245624	173.47091217949	
936000000	-7.12115156602557	174.790210931239	-1.47923158562157	-92.7177006975605	-1.50219517767803	-92.7788230371618	-7.21826407598205	173.464381403505	
937700000	-7.1255693401619	174.690116701479	-1.48750492319261	-92.8143751819207	-1.50047768965592	-92.9464854296521	-7.21780651356822	173.433793550329	
939400000	-7.10679011583434	174.635094184216	-1.49446553577144	-93.011160477492	-1.50724739996319	-93.025940537784	-7.25105685509077	173.207641534662	
941100000	-7.06072461090156	174.495735008995	-1.48092544854439	-93.207451281117	-1.50387607699622	-93.1710473071199	-7.2261203897996	173.104771157819	
942800000	-7.114002155293	174.219556732819	-1.50024079874532	-93.3148746676265	-1.50903901089988	-93.2959002723787	-7.2325622346056	173.070515856827	
944500000	-7.1162514691978	173.92050978017	-1.49165717869663	-93.4367680760116	-1.50243189188577	-93.4215068756514	-7.2341542036826	172.567948340465	
946200000	-7.10081461664673	173.774729959026	-1.49171656448099	-93.5615410334362	-1.5040050203121	-93.5737847059793	-7.26057436080273	172.556090538828	
947900000	-7.07498003843921	173.748669716346	-1.48056470664919	-93.7878503196663	-1.5050242691037	-93.7431540020123	-7.23843490533273	172.569637750997	
949600000	-7.1228696193736	173.878784222418	-1.48687385314136	-93.8927675697399	-1.51247267708799	-93.8565286392049	-7.26318190836864	172.390597564325	
951300000	-7.10777510328842	173.36473721073	-1.48235578144547	-94.0384094242784	-1.50765890081099	-94.0788740149954	-7.23250345317095	171.95004314728	
953000000	-7.12373487245077	173.375433517955	-1.49386298939538	-94.2038891516365	-1.5238487804577	-94.2256854048592	-7.2548990819646	171.886693977041	
954700000	-7.11427263074063	173.192650400745	-1.50007667772772	-94.4315956620698	-1.51873032297473	-94.3815689526705	-7.25379796965431	171.861524460756	
956400000	-7.11586130975937	173.049587827899	-1.49260139168405	-94.4395446886221	-1.52131757640214	-94.5061280949163	-7.24417208435729	171.513564646265	
958100000	-7.11452726154694	172.843917187692	-1.49577147613405	-94.6906322488574	-1.50236257970607	-94.6098867530627	-7.22044868054742	171.346388089563	
959800000	-7.14039461207259	172.968962775857	-1.48194162189975	-94.7928375160722	-1.50553349457184	-94.8238289529409	-7.2466679568828	171.078274784524	
961500000	-7.13019800340038	172.644473255284	-1.48681464029777	-94.9196565958672	-1.50882059996734	-94.8488157310378	-7.26916257598502	171.178107552867	
963200000	-7.123068378096	172.367469626819	-1.50427540771449	-95.0093553773932	-1.50845898076769	-95.0692360549666	-7.2796429658556	171.011146060152	
964900000	-7.1321052761665	172.316073783989	-1.48385944645132	-95.1729759234375	-1.50309506523195	-95.2060170669684	-7.27812479437572	170.812450531256	
966600000	-7.10697078799636	172.302834523121	-1.48619510511226	-95.3590835406097	-1.50071041460985	-95.3042428405488	-7.25231956625698	170.654391087171	
968300000	-7.12953687355778	172.004206717732	-1.49641448826123	-95.5155348429561	-1.52198376229031	-95.4332058085153	-7.25935881971577	170.541029479875	
970000000	-7.10165043015854	171.911347048861	-1.49485032123399	-95.6414169045544	-1.50386369751457	-95.6578308229618	-7.23491327003658	170.248230029775	
971700000	-7.14707656979842	171.508321484286	-1.4966108810443	-95.7863591285503	-1.51153339287784	-95.7172487624321	-7.24311816141794	170.11829011617	
973400000	-7.13264855561096	171.606594506481	-1.51303504570705	-95.9148618056355	-1.51381173270782	-95.9995305367481	-7.26069372271085	170.044565306937	
975100000	-7.17607121202934	171.389566226922	-1.5046193610167	-96.0798469867304	-1.49757588090257	-96.0482436444247	-7.26977428097085	170.043074767861	
976800000	-7.17018575743996	171.403138059289	-1.47222921895905	-96.2184139798762	-1.49769604989608	-96.2087617988708	-7.24193702410147	169.420963112265	
978500000	-7.18446463600731	171.208389122399	-1.48583948039875	-96.3015873649831	-1.50386063007445	-96.3968579625888	-7.278668101223	169.295259339278	
980200000	-7.17010745840572	170.935553011138	-1.49279951301496	-96.3738663755166	-1.49422624060707	-96.5169901550169	-7.24760691599131	169.338758592233	
981900000	-7.17380729420024	170.799276806233	-1.48067225062319	-96.7156887547284	-1.48624063003878	-96.655036293796	-7.25805835792569	169.150840361077	
983600000	-7.19526058439749	170.620119961795	-1.4973342300079	-96.8870329812128	-1.49434233907363	-96.9136906942549	-7.3104013349822	168.952922824034	
985300000	-7.16173733281447	170.307010596533	-1.48725433756931	-97.0250830534025	-1.50682646455701	-96.8559359984177	-7.22174295644681	168.680524290778	
987000000	-7.20467933001142	170.238069946778	-1.48466050013036	-97.0653368905849	-1.50794461594891	-97.1006839953037	-7.23116317974739	168.779186128551	
988700000	-7.21484911560163	170.570696271875	-1.4899575216688	-97.165759251776	-1.489845401731	-97.2074202856318	-7.24538388944249	168.499243464177	
990400000	-7.22616964147658	170.201536246145	-1.47027661876347	-97.3904727581074	-1.49779708933202	-97.306237705371	-7.24152802057529	168.54244407122	
992100000	-7.21900200413026	169.992425370535	-1.47079445744782	-97.5348018464056	-1.50612970037259	-97.5586804693484	-7.23977859576409	168.517215517177	
993800000	-7.23045745451084	169.80495524801	-1.50605797425067	-97.6779921185583	-1.49533892827183	-97.685424866564	-7.19935863809163	168.397239791983	
995500000	-7.23382635036254	169.559491461848	-1.48229425006964	-97.8783589988788	-1.49530657332776	-97.8935689136148	-7.23586686626823	168.327179971545	
997200000	-7.2460373865767	169.379194203739	-1.48949509678339	-98.0376891346605	-1.48770846052295	-97.9840214145225	-7.25306650423071	168.103696335104	
998900000	-7.27475214052178	169.362090353247	-1.46006696752214	-98.133319876273	-1.50010239635487	-98.2112108130661	-7.25565160086736	167.889319532721	
1000600000	-7.28822763692311	169.123957316472	-1.48014942328465	-98.3055610440017	-1.50043614291045	-98.2904177139219	-7.21766360971434	167.799457808761	
1002300000	-7.25626961064882	168.994476443522	-1.45571141376735	-98.4795610871024	-1.49637257890897	-98.4492669098835	-7.26733251174048	167.804982758194	
1004000000	-7.27936682744738	169.042041919041	-1.47483707941676	-98.6007814540686	-1.49096329233669	-98.6367210444499	-7.26528361626292	167.58686626775	
1005700000	-7.29157939399367	168.920672984136	-1.46113247768363	-98.7804161430687	-1.48169858418435	-98.7703297032196	-7.2654178081318	167.610686635694	
1007400000	-7.28992901975567	168.59513733185	-1.45750100061734	-98.9119194396846	-1.47669788098458	-98.9340362949249	-7.25575892138861	167.367476612122	
1009100000	-7.29211640170065	168.565998048989	-1.46900920406868	-99.1089753908924	-1.48719534165858	-99.1343820245767	-7.2985391674689	167.026642720798	
1010800000	-7.33020153154634	168.217631890355	-1.45530533194193	-99.3050705595431	-1.46994854503965	-99.1740229991463	-7.29612057188122	167.081400639927	
1012500000	-7.31947397101433	168.470458160087	-1.46708868269903	-99.4098387882648	-1.46930654136444	-99.343708646702	-7.26888995251823	166.980295947307	
1014200000	-7.32453057609595	167.969545376521	-1.45843670841093	-99.6473702494228	-1.4683749305376	-99.4889625091095	-7.30439222027101	166.71921002536	
1015900000	-7.32623719374713	167.858776550816	-1.45683223363438	-99.7959724895783	-1.46998172447839	-99.6170691563109	-7.2841462664976	166.722970501911	
