!Keysight Technologies N9950B: A.12.38
!Date: Friday, 12 May 2023 16:23:29
!Timezone: (UTC-06:00) Central Time (US & Canada)
!Model: N9950B
!Serial: MY61131330
!GPS Latitude: 
!GPS Longitude: 
!GPS TimeStamp: 0001-01-01 00:00:00Z
!GPS Seconds Since Last Read: 0
!CHECKSUM:0141000567
!Correction: S11(ON U)S21(ON U)S12(ON U)S22(ON U)
!S2P File: Measurements:S11,S21,S12,S22:
# Hz S DB R 50
800000000	-52.7349448619826	-5.81905959472595	-0.0214106989892342	-48.1279596767617	-0.0365380500652109	-48.0863941648298	-49.3100523149502	23.853558172615	
801700000	-48.0022477884405	-11.1121014922697	-0.022702868059494	-48.3109291052463	-0.0343449224601427	-48.287614289062	-47.8284221731465	19.2729411040854	
803400000	-47.3905498798315	0.606662620912349	-0.0130379117107954	-48.3412469994334	-0.0266162185371331	-48.3391996635415	-49.9842745411985	-6.08405034678613	
805100000	-52.4899301801053	-9.85732156747279	-0.00436656391540103	-48.4172444014698	-0.036715163261694	-48.4816313391267	-47.7527147422065	1.6365052825418	
806800000	-54.5650068464709	32.5158662638507	-0.017397170794461	-48.608859796019	-0.0359221871930588	-48.53773270072	-51.8056228183549	28.130413924537	
808500000	-48.6290546860573	-17.5991032005169	-0.0219036838563818	-48.7185134730844	-0.0311420460264589	-48.6141400833133	-57.4536957868708	31.2536693684422	
810200000	-46.4592991741253	10.1630680400931	-0.0231460712326074	-48.8922732432521	-0.0307703939835397	-48.7799223642913	-47.8807484258235	20.8381725554813	
811900000	-50.0959449059875	10.1709325331777	-0.0262071518573977	-48.8618784168927	-0.0299644527459899	-48.9094722091656	-52.5712614849869	61.0521040783071	
813600000	-48.7385690658662	-2.19647142175076	-0.0280964679164035	-48.9555914664738	-0.0279658959028381	-49.0026325087052	-51.2865072620679	23.1928684687205	
815300000	-57.6966357718628	-19.5205165941907	-0.00770599463657762	-48.9169261686227	-0.0283172326693474	-49.0424837840406	-59.2909704239423	29.9305164431863	
817000000	-54.1768360520897	-28.5326267639593	-0.0185260919280253	-49.1739601945594	-0.0207845955929051	-49.1772597907688	-50.1250536841763	1.57564867310192	
818700000	-49.9901977304976	22.3626957343468	-0.0277936721125335	-49.3615541327335	-0.0175496844239627	-49.2337702664715	-56.5671649600292	13.5395143754925	
820400000	-48.7809190993903	8.93481610988032	-0.0193731221549507	-49.3775223734435	-0.0306152020655146	-49.4216437477322	-53.6280979310077	14.6854554722457	
822100000	-52.8715597166249	23.1626685656871	-0.0268146026999809	-49.4769585396811	-0.020986605035269	-49.4041876472578	-51.5677397836086	6.06073450716672	
823800000	-50.1781780245257	-9.24804124388177	-0.0171615402991477	-49.5904465166824	-0.0293242720689113	-49.5802222736356	-49.0482963870732	-33.1910223757837	
825500000	-47.7899024561033	-22.6950121378764	-0.0230057272202009	-49.7464104072308	-0.00547287054502477	-49.6235169270688	-53.6926287525016	20.3666953004955	
827200000	-53.3624887805221	-15.1379330602527	-0.0214551089402602	-49.8480196043579	-0.0300167302962609	-49.7916856955779	-51.8010530935491	-14.4491888940559	
828900000	-50.8006409103342	-16.241662609394	-0.0285093932510465	-49.9307260675206	-0.0360106093773424	-49.8616983981666	-51.4329448013774	-2.42362245629909	
830600000	-48.6561322422483	28.4674885396979	-0.0167265246008964	-49.9206517468184	-0.0169807188438537	-49.891290201998	-59.8707503637217	12.5677438615159	
832300000	-47.7871244277126	4.76562037879003	-0.0189080520555711	-50.0795819888226	-0.0338589027637859	-50.0658472541498	-55.4254271033883	40.7712366153665	
834000000	-49.8807846733971	7.61732192945601	-0.0251570565864646	-50.1025268375559	-0.0167756648759687	-50.2394025970874	-50.2513723428107	-3.12659493715624	
835700000	-48.020088003411	-7.3671341817978	-0.030451427585462	-50.310411950375	-0.0282988813062277	-50.3020934074773	-57.3186756927461	23.0159781667664	
837400000	-47.5642015171883	20.7956623790886	-0.0155296331088853	-50.3811763865642	-0.0361552071485445	-50.443182496757	-56.3064463215453	61.4246220193519	
839100000	-47.3347352834695	-6.55070522637509	-0.0234577942380994	-50.4423208598935	-0.0236244409907108	-50.5179734790314	-55.2186258707365	26.5268213905967	
840800000	-52.910402855755	19.3624154199867	-0.0182140965864484	-50.6051619233831	-0.023382409953691	-50.5630328240183	-56.81795369251	-25.9919919680676	
842500000	-50.3458114785458	-12.6686116249515	-0.0348460879913375	-50.6438011707006	-0.0415424072437003	-50.6521262380357	-55.2204851159516	94.0381755863721	
844200000	-49.0892875925075	-0.832877076700985	-0.0155307848414964	-50.8110949851894	-0.0374980104796124	-50.7922294095191	-51.0894270668299	3.00017022772058	
845900000	-48.0209220866684	22.802885487208	-0.0203919945326761	-50.9841382069903	-0.0300534153748237	-50.9468558127285	-54.7725987245896	-2.82672724813904	
847600000	-51.7124661894618	37.6510058210947	-0.0188586238010889	-51.0374595968204	-0.02280277242187	-51.076524672128	-48.9710382760286	-11.8857791099856	
849300000	-51.2706988177397	7.35112509738784	-0.020411426314332	-51.0973350036529	-0.0326013070179148	-51.2109665367991	-55.7370672879844	16.9386633149397	
851000000	-49.0866699249779	3.79604031717747	-0.0310802134028846	-51.1951045495551	-0.0333795928794608	-51.1360917716167	-50.37046961024	4.69152662236517	
852700000	-50.908972323144	-8.79329365715974	-0.0273474342292621	-51.3260616876093	-0.01813977975727	-51.3505522040652	-46.9174390373189	0.913079536051544	
854400000	-49.5668964186859	-7.84782895784831	-0.0378962515646316	-51.466815974798	-0.0316738352195369	-51.4458383023483	-52.9849190596169	21.0600233628508	
856100000	-50.0545220381252	9.59064609700549	-0.026190685904186	-51.5002302403282	-0.0289070115801467	-51.4921261030105	-51.9694725007962	12.7011041915399	
857800000	-50.2893473211111	-4.98003688266378	-0.0157630047768923	-51.648427759311	-0.0358444877804162	-51.570145577438	-51.1719980424075	-11.5995326612309	
859500000	-49.5396224118444	6.50591350397154	-0.00924084664256383	-51.6515116683183	-0.0305137089148019	-51.662450234282	-56.1989578545773	-11.9499521284368	
861200000	-50.4787416604172	-2.06873651164231	-0.019387125512882	-51.7881700815206	-0.0117594463029279	-51.7760977522443	-53.3408662212232	19.2005023370426	
862900000	-47.9972146335352	5.49909073376796	-0.0194859484141621	-51.8193433751211	-0.0263361102346799	-51.8429491141235	-55.4958247861639	36.5549077226112	
864600000	-51.8592478908897	13.2496017949134	-0.0136347453487859	-52.0664251317178	-0.0248454753504625	-51.9984577337343	-54.5566721359937	-11.1606996487762	
866300000	-55.8998184718403	5.32196193652489	-0.0342843900915634	-52.142700768172	-0.0316886178129633	-52.1594702857358	-52.8237018220183	31.7750958213874	
868000000	-53.6874951910277	-7.49809172974812	-0.0285716344570065	-52.2244748064265	-0.0206353736122771	-52.1935306706331	-51.9236539644506	-37.9880975026709	
869700000	-47.0964440449371	-35.5439788478694	-0.0460657074175035	-52.3301166914849	-0.0283706043580074	-52.3226261500955	-53.7038775835979	26.8702662780208	
871400000	-52.9385692793236	-18.8943252728338	-0.0296164237107814	-52.5362504657834	-0.0325659998679508	-52.420373608598	-49.1864547945137	47.6999475481659	
873100000	-47.4935227476063	-1.32046497317251	-0.0312303850951383	-52.5975730978678	-0.0215437420311432	-52.4748713846174	-49.201758313495	12.7456057565694	
874800000	-53.7195551624937	-0.0907506101605238	-0.0126446897426571	-52.6493240227928	-0.0374743367070037	-52.642712937963	-51.7792148867474	-16.5278047125668	
876500000	-49.8641581699318	-6.79681527431616	-0.0155368422215714	-52.8460636575293	-0.0286759346958786	-52.7411899156608	-48.5084347227436	22.2835764296102	
878200000	-46.5856220259902	2.60347070101605	-0.0452391311701655	-52.8665335795977	-0.0243761830687958	-52.8588110332595	-54.6635369914966	-3.60382069382032	
879900000	-49.1022789434197	15.8643957918322	-0.0211983489851002	-52.9003572370313	-0.0213590854821905	-52.9043121779779	-49.3021779504618	19.0211439360947	
881600000	-47.1859141871868	5.88201701142723	-0.0266154508980941	-53.0531775844339	-0.0340992669541273	-53.0725079884194	-52.1840977524634	60.1495082092925	
883300000	-50.1312134349506	-13.7601697674528	-0.0276247019835387	-53.0544758725853	-0.0379750183366262	-53.1813231888578	-51.7764834314275	-18.6523589942979	
885000000	-49.7778020805174	-5.28421579982707	-0.0168504289652259	-53.1934532118111	-0.0374782104567333	-53.2230080086394	-60.6991938790904	-3.44824882288135	
886700000	-52.8409168428667	-10.9138504021897	-0.0297888653656944	-53.321264020441	-0.0388221044491161	-53.2955384340993	-50.5427268438098	11.9974683238465	
888400000	-52.2280018431237	11.1866031389007	-0.0287466955997772	-53.4593066525499	-0.017102100756521	-53.4295947927967	-55.0473830205764	-7.77679055326783	
890100000	-47.4018871695143	-9.88157271656831	-0.0174394949707347	-53.5944128282186	-0.0381977719306264	-53.570748582694	-54.2437059244182	-65.8099090380081	
891800000	-48.7506229649281	-22.8710314363937	-0.0228496439489254	-53.5212340202035	-0.0304332582535618	-53.654002298946	-52.5060144006326	-10.4108247369728	
893500000	-48.6596525299221	-4.34472535146283	-0.0176548633020632	-53.6849016484496	-0.0294116327536605	-53.8272363864049	-52.9658011661334	18.8052745692123	
895200000	-56.1334460889143	1.91881742956447	-0.029060839266198	-53.9001392455989	-0.014839613707415	-53.9752780061183	-50.9881915515069	-5.16156432149312	
896900000	-49.1554882011487	-20.1741441090961	-0.0154338077551169	-53.9839539622775	-0.0376873688258365	-53.9747048500127	-51.9460941630152	1.28710332757981	
898600000	-48.9115590609289	6.67152967631952	-0.0293735253826512	-54.0728339373331	-0.0442168890331833	-54.0770845524168	-49.7825631648669	1.22462059380732	
900300000	-55.4886428247065	-47.6525927508412	-0.0250860670805263	-54.1173674518984	-0.0213651591596192	-54.1205871503111	-54.9139981172263	-8.25880844583177	
902000000	-52.5241720907141	-39.3104822138555	-0.0141755120304465	-54.3157723328665	-0.012597398047778	-54.2822477147438	-48.8003000256065	-0.644376947957997	
903700000	-48.8447578919887	-42.558493939385	-0.0367892360484968	-54.4030829138796	-0.0353974826617007	-54.324721990996	-49.2228440465126	15.1998286017176	
905400000	-50.1210368474926	3.30043714580853	-0.0280650153700397	-54.4344251224402	-0.0216716173257132	-54.5322674223443	-49.6559661628076	-21.4751290141127	
907100000	-47.0484845173503	-15.1262681237281	-0.0376574258091893	-54.5470429417455	-0.0296979551336159	-54.5769444093375	-49.8921855711894	12.8566692363378	
908800000	-50.2806720209493	-31.485530387194	-0.00754247379724981	-54.7389738101814	-0.0406428521635812	-54.7527385191179	-56.6366255106754	20.5159756396826	
910500000	-49.0204549491903	8.453668024032	-0.0348569691676339	-54.7702805288273	-0.0395450738565744	-54.7011629981413	-48.5761723023127	0.133036972816524	
912200000	-50.9101914369381	13.1569539447911	-0.0160856801420476	-54.9721219032891	-0.0238402134222371	-54.8298404458045	-54.1330439402666	-30.9125797155956	
913900000	-48.3784730675769	-8.3010334724239	-0.0238266033470334	-55.0369946574843	-0.0283428426048934	-55.0106271912175	-53.59588055086	-24.9268537229456	
915600000	-49.582959906772	-4.26182672023874	-0.0175292561449641	-54.9664912313687	-0.0352022603757533	-55.0395108987632	-53.4668146130477	-1.7896147948823	
917300000	-48.4267782829819	-0.163447975420531	-0.0249128633258454	-55.129647073132	-0.0269590499948978	-55.1812649713421	-53.7248806579964	-0.543693695484549	
919000000	-48.6150268871503	-28.681863107432	-0.0222640765448575	-55.3004794748323	-0.0267970975487192	-55.2797770503878	-47.807555449889	29.2115411242714	
920700000	-48.1010853038129	-9.26193325429408	-0.0154356789339724	-55.4001468241705	-0.0175674500854788	-55.3824978400423	-59.9312196043029	2.55049873896508	
922400000	-50.0974261224773	-35.0610916268559	-0.0278481242706791	-55.624686864433	-0.02847173907635	-55.4550468829314	-59.5317888771625	12.5518707566909	
924100000	-48.9792958188544	-2.71339668442454	-0.00162598786475596	-55.5811253943142	-0.033181301643607	-55.5688875194991	-51.5813577972967	-33.2640134055998	
925800000	-51.3504035584414	8.21085307765194	-0.0302771538436477	-55.7659722250953	-0.016943191900077	-55.7193434062965	-49.5252141480503	21.3626299913771	
927500000	-50.0587769097512	-2.65213153857388	-0.02050715328573	-55.811406598136	-0.0178128930053581	-55.7815939398181	-62.4423822623749	3.77271556725915	
929200000	-48.9391287345553	18.5979948405326	-0.0297099115665856	-55.8794756733386	-0.0215437187324944	-55.907587897257	-56.9116559360821	36.0703465392698	
930900000	-48.9563380881831	-8.99450676274107	-0.0288825807382581	-56.0128159679605	-0.0292207270132486	-55.9463986607217	-53.8145522765326	-47.1129497732373	
932600000	-47.9763473428042	16.0304679005386	-0.0236914330481126	-56.135727848062	-0.0296289259095595	-56.1366685690207	-60.5637577591157	67.8186571520498	
934300000	-51.522145247757	14.3019160930701	-0.0287796115499362	-56.2455730571062	-0.0176081127478227	-56.0534861141887	-53.315427088334	-13.0751741268914	
936000000	-54.1027538884897	-1.15102782935392	-0.0256685209079404	-56.3571366887485	-0.0221809068538563	-56.3322358196253	-51.408933209965	65.4926985295048	
937700000	-46.740220085401	-28.1243462916325	-0.0141227588379902	-56.4505839037675	-0.0320117735936256	-56.5459730628749	-55.1931698960598	54.5169226428884	
939400000	-52.5144916378389	-6.15662944085449	-0.0257331278565431	-56.4371499396785	-0.0396566747596048	-56.5550091570369	-50.8637848331978	16.4147072368622	
941100000	-49.5418466732046	-9.96204248248458	-0.0183370979694467	-56.6032280763666	-0.0227181141571013	-56.623968202618	-56.571868107535	16.9053432983774	
942800000	-49.8530901472006	-1.07565540197683	-0.0194261524706996	-56.5885199766393	-0.0242118110510785	-56.7292959912844	-49.4454187041665	8.33044810312947	
944500000	-49.4895439264128	-6.30653917721428	-0.00396370133035004	-56.9244051930696	-0.0279136029437534	-56.7906867409233	-46.889911411537	-14.9085439656167	
946200000	-54.6670224031465	-25.795189628276	-0.0354695640268857	-56.8382981599648	-0.0250502575021939	-56.8920832553592	-52.0568364455599	-23.4962660218928	
947900000	-49.6231755561686	13.3085442795423	-0.0368162097768081	-56.9911649248681	-0.0308592323116566	-57.0441065971891	-50.6025292396517	-64.3689950701217	
949600000	-50.1517519741535	-11.6330135013312	-0.0300643409844496	-57.165359120565	-0.0272421695771123	-57.0611463006288	-52.1917766461116	-1.7922444300389	
951300000	-46.1803494076312	-1.38167970718561	-0.0395184154326101	-57.1856449270813	-0.0221598600013	-57.2539781598056	-51.8433374640214	-10.7733907327732	
953000000	-58.3473850206169	17.9151720924174	-0.0168436462618345	-57.3445752512438	-0.0256107359063664	-57.3661184797352	-50.2539717364439	9.39939643225873	
954700000	-52.1291431106478	-5.22733487778092	-0.0203131817923869	-57.4711253063277	-0.0255552101457493	-57.3954842295323	-44.7383799778317	12.3606806197616	
956400000	-48.2406922524534	-33.5971183100291	-0.0229016874231655	-57.5826457729224	-0.0420866050904337	-57.4520860252632	-53.6560199059338	5.58919441529331	
958100000	-49.4970554503643	-20.9006367918103	-0.0234938900174074	-57.5853736910643	-0.0292549034769418	-57.6085134403793	-53.2499625996554	3.79443819442422	
959800000	-46.7018169356332	-8.04319487244445	-0.0322046071758656	-57.6584505750984	-0.0313452307363382	-57.7886045983855	-53.2959142547894	0.333117672677302	
961500000	-50.384099197383	11.480953027308	-0.0352748429480824	-57.8328351274557	-0.0231939543208243	-58.0038947106612	-52.2257402971491	27.7906622130768	
963200000	-50.4904043413741	-27.0462425219905	-0.0191809519720757	-57.930948399003	-0.0314443287368256	-57.89854487718	-51.6084930154866	-19.3679831460986	
964900000	-50.0766135183789	6.55403606122562	-0.0354007946129132	-58.0156325659528	-0.0177119762040491	-58.1055524892055	-55.9608935321826	3.6717178807957	
966600000	-50.3901038990752	-1.56584766643312	-0.0178596250216595	-58.2212224707916	-0.020103553330752	-58.2101558127178	-56.4603969514641	-17.6641394202588	
968300000	-47.8763684801331	9.37484296136935	-0.0176736393330986	-58.2465548042043	-0.0342380943963039	-58.3074504827625	-56.310953305109	-29.7036782986805	
970000000	-52.9968963257253	-0.950970488114454	-0.0298529198041309	-58.3550180808928	-0.030017451505397	-58.407519395082	-57.1545231715735	-21.1959722664201	
971700000	-47.0328771200465	-3.42014770820477	-0.0361710806612657	-58.4180509752948	-0.0360400888799697	-58.4809655119926	-54.1804224217849	-33.5959832124009	
973400000	-48.5376472042511	7.93806384128485	-0.0219732892436903	-58.5578337888894	-0.0338442927137634	-58.6278137135948	-49.665826977964	-3.96459668285262	
975100000	-50.9617973621146	-9.61526301142928	-0.00961730744961625	-58.6270721993697	-0.033705204670882	-58.6650514122535	-49.0284490778974	8.30041372382665	
976800000	-46.1581207264088	-27.0713726100744	-0.031153572349968	-58.7558395759969	-0.0184787581720533	-58.8051922239	-52.8670497572178	-6.97685314900621	
978500000	-50.6756741272189	-6.12057129259279	-0.0241489318136003	-58.8474969228564	-0.0229448224200819	-58.7673456558599	-55.9837736802212	-4.89433046292366	
980200000	-48.5037219205994	2.62966218738659	-0.0275970789641263	-59.041706181631	-0.0226933639443482	-58.8744595631037	-61.0972572939905	-72.1909751067429	
981900000	-46.6624571602613	21.7125611326428	-0.0411371511580838	-59.0689307980084	-0.032067106825743	-59.0905998336435	-52.0263840831044	-4.80453070994866	
983600000	-49.6566895096851	-26.1859185190792	-0.0214625994720962	-59.166616138249	-0.0345768369870479	-59.1622138644148	-50.966286308858	-23.4111187315863	
985300000	-53.2833936636587	-3.69704853485949	-0.0291576577963057	-59.2254327312648	-0.0378175203528762	-59.2829786804639	-48.5904910330904	-2.46707874250201	
987000000	-49.2253009706978	4.05734737850723	-0.0231127007985537	-59.2679102917757	-0.0351291575670351	-59.3704176755762	-49.1455309334781	6.11287934575993	
988700000	-50.9227451984165	21.4596159234238	-0.0135659599554805	-59.4451010774389	-0.0274467058529989	-59.4760090320958	-50.6883953446559	-12.3953911885685	
990400000	-49.8421738748287	-20.017222328282	-0.0238055942753151	-59.6046141941737	-0.0319086888709555	-59.531865685177	-50.4408886238311	29.4585389453436	
992100000	-50.4425920433449	-19.6304248824701	-0.0179957721932095	-59.6508991355036	-0.0369930045606445	-59.660818382466	-56.8902288142663	8.4297088405825	
993800000	-49.8064226408942	-9.08796819943477	-0.0365534126286049	-59.7373277916488	-0.0471304506065806	-59.7834655106841	-49.0873291360421	20.9842966234795	
995500000	-52.5961510340796	-24.8956430814617	-0.0371984423319336	-59.9203490006524	-0.0423405297916557	-59.8769652809088	-50.1192694705949	4.0067456749257	
997200000	-48.7143246582395	-22.9206330624113	-0.0262890009603065	-60.0065273985224	-0.0378563931820468	-59.9945156042985	-46.7979891535091	-19.467862254788	
998900000	-51.4505175729913	8.24606534755796	-0.012512588450837	-60.0980403603844	-0.0380609717275368	-60.0812301351271	-53.6462479062672	-26.3627989005938	
1000600000	-50.4291576813177	7.90502610389607	-0.00751334417814222	-60.174907526266	-0.0295076669977816	-60.142779347321	-53.6942014691212	10.4586069490833	
1002300000	-45.4367105385972	-8.26431054916944	-0.0279686066059925	-60.2684566957706	-0.0310690944381069	-60.2017799459844	-51.5755305422636	7.4947715322974	
1004000000	-53.6622156793698	-2.10421734873887	-0.0417734490471877	-60.4258717793373	-0.031430768361588	-60.4435393016984	-57.5132382520157	-25.5760176732705	
1005700000	-49.5270950504937	-9.92821961116456	-0.0114882816762393	-60.4712183468585	-0.0340426880686755	-60.4553452129988	-59.8350014246703	-29.2236759964767	
1007400000	-49.8539562903352	-10.5866401493559	-0.0172459869500912	-60.6698490800148	-0.0341804314395217	-60.6307446780578	-49.5011271052227	-15.0541095882261	
1009100000	-47.5401201504473	-24.2361431598054	-0.033984449902762	-60.7307134783063	-0.0387886604139048	-60.6977696208972	-48.2654984468671	-25.3394554677788	
