!Keysight Technologies N9950B: A.12.38
!Date: Friday, 12 May 2023 13:40:21
!Timezone: (UTC-06:00) Central Time (US & Canada)
!Model: N9950B
!Serial: MY61131330
!GPS Latitude: 
!GPS Longitude: 
!GPS TimeStamp: 0001-01-01 00:00:00Z
!GPS Seconds Since Last Read: 0
!CHECKSUM:1743881258
!Correction: S11(ON U)S21(ON U)S12(ON U)S22(ON U)
!S2P File: Measurements:S11,S21,S12,S22:
# Hz S DB R 50
800000000	-19.6705296046953	-166.898620131318	-0.195531619372575	-54.4773944525104	-0.205578533910341	-54.4758241360001	-19.3351163143002	-133.182191569407	
801700000	-19.7389643383868	-166.83526734521	-0.191530615109051	-54.5644037014911	-0.194770394629276	-54.6060587538386	-19.227403928541	-133.270454157212	
803400000	-19.6454125323825	-166.743715796635	-0.182280857789631	-54.748084752879	-0.189513666417057	-54.7501184235677	-19.4093614434183	-133.596318937692	
805100000	-19.6680838284261	-165.735062547636	-0.183642131765101	-54.8143745986615	-0.201253686901705	-54.8170512961456	-19.3737807137226	-133.070612604314	
806800000	-19.5515063200533	-166.797165786316	-0.185270634552716	-54.9548327174534	-0.210083430587765	-54.9100574729398	-19.2679317937294	-132.842691471637	
808500000	-19.7204516446286	-165.908192363602	-0.19897050394149	-55.074315239004	-0.194471618230108	-55.1476690067127	-19.3648992185983	-132.684645269857	
810200000	-19.6824524525056	-166.498741131184	-0.190074427004712	-55.3134183656593	-0.207544804499194	-55.190633055043	-19.4839427862299	-133.138471861508	
811900000	-19.5666245281671	-166.877812469605	-0.187372259939596	-55.3111868179451	-0.20494793789352	-55.2946664166377	-19.3914537055508	-133.204590004875	
813600000	-19.6884917207104	-167.127118024631	-0.185877880679895	-55.484669461469	-0.20034909169561	-55.4572505577139	-19.390337868864	-133.620989011069	
815300000	-19.6352855373246	-167.197722342927	-0.196128399662643	-55.5862362608197	-0.204560217189608	-55.5362219259392	-19.3251210896423	-134.039786380149	
817000000	-19.5341014925491	-167.014121414055	-0.196025411735023	-55.5959467853577	-0.203422898863093	-55.5879562827904	-19.3491878913662	-132.777766458467	
818700000	-19.4997530389872	-166.723753080225	-0.194830225229892	-55.7755720257359	-0.202135469214184	-55.7785580634589	-19.3026531264843	-133.430170153659	
820400000	-19.4007367468822	-166.700470486302	-0.186060776561056	-55.8467139500109	-0.207181128346444	-55.8575239739984	-19.2586568594716	-132.667505773338	
822100000	-19.3836121723083	-166.999696722287	-0.17165496935354	-55.9374983551643	-0.198012429298884	-56.0241085013537	-19.2488613138974	-133.670040107529	
823800000	-19.4575566682402	-167.069024371628	-0.19986656683412	-56.097937497391	-0.202064278087647	-56.1540962672421	-19.3836559416283	-133.158104839928	
825500000	-19.3528536533297	-167.302223579397	-0.197516113608125	-56.1444902838821	-0.19586659293854	-56.2824137122636	-19.3875601517953	-133.668677287572	
827200000	-19.2489640340169	-167.211936762381	-0.202812780447495	-56.4347279936634	-0.190334918197891	-56.3438233147825	-19.359603607314	-133.90638739875	
828900000	-19.3733995885368	-167.983626493687	-0.184809339566056	-56.4431846714344	-0.202791471641366	-56.5084194088262	-19.3195651139952	-133.311998990819	
830600000	-19.2755126335033	-167.474845497423	-0.18970297720513	-56.5900953661808	-0.216607443639927	-56.623389323046	-19.2605075182784	-133.856450018339	
832300000	-19.1928351429266	-168.031612521303	-0.196608798855718	-56.6326297708676	-0.216808969062301	-56.7217346535176	-19.261972840645	-134.8037430391	
834000000	-19.2896314533641	-168.223828648317	-0.204881887407342	-56.8229114194075	-0.225361247033091	-56.7844857940012	-19.4366416986991	-134.278710027733	
835700000	-19.3006356071251	-168.188067116436	-0.185886890373058	-56.9413439800859	-0.217866940546954	-56.8547137060193	-19.2372598202301	-134.515331980302	
837400000	-19.2410033654463	-168.179991353136	-0.207973073870735	-56.9420093987133	-0.212747956867759	-56.9527561883582	-19.3910575509686	-134.598168513559	
839100000	-19.2416234169826	-168.467655043415	-0.21472841588353	-57.1446173608505	-0.218782584569457	-57.1829465247614	-19.2909286202139	-134.617031224053	
840800000	-19.2062937845049	-168.560667294273	-0.208614338349512	-57.1939496251683	-0.21791548135317	-57.3230528299952	-19.4548659431577	-135.016336626737	
842500000	-19.154413241121	-168.017594061648	-0.215426795339328	-57.2722849057873	-0.20555954224307	-57.3148963136361	-19.2039069664885	-135.614948971042	
844200000	-19.1556727382435	-167.846604194492	-0.193433658309908	-57.4798390822922	-0.224069580353856	-57.5679589835619	-19.2698670562888	-135.638039245069	
845900000	-19.1244231536315	-168.849536223984	-0.206251965380924	-57.5476696967785	-0.209395428055613	-57.5844480478939	-19.2405573938725	-135.156896633991	
847600000	-19.069340804405	-168.649148493085	-0.207253978147388	-57.7068838825182	-0.219209837456518	-57.6769138176321	-19.3119104308251	-135.981141605161	
849300000	-18.9603077763058	-169.39001836379	-0.197925787427867	-57.8831661841015	-0.216154308764476	-57.8269669008466	-19.4300012513821	-135.775297867603	
851000000	-19.0687948841888	-169.040100121842	-0.213569977226801	-57.938788015676	-0.205646589326282	-57.9645419092992	-19.1669932996983	-135.561916443493	
852700000	-19.0204471960245	-169.177774721394	-0.203460434607294	-58.0430739012214	-0.209473940250043	-58.0676536847729	-19.2523868457441	-136.687172962911	
854400000	-19.0092061317551	-169.599609383854	-0.220265449934271	-58.1119059643929	-0.211027222359042	-58.1526020741906	-19.1405343392319	-135.966209543917	
856100000	-18.8760717174161	-169.280338029277	-0.207802971157574	-58.3139008156331	-0.222097912878582	-58.2746831139272	-19.0942433538476	-137.542227567452	
857800000	-18.8510348448065	-169.194883689501	-0.202937552396745	-58.342351278398	-0.219141991502122	-58.3362782926246	-19.2474757904278	-137.751592418049	
859500000	-18.8905777967327	-170.267454905214	-0.211423390927296	-58.4649862837026	-0.215755433175102	-58.5989730711216	-19.1988847955543	-137.378844811586	
861200000	-18.9151758211183	-170.467586416014	-0.216913037286751	-58.6520677054985	-0.229850508639738	-58.5992255996955	-19.1444869556977	-136.160287545592	
862900000	-18.9075293382213	-170.507632199524	-0.191229158647125	-58.7832976342752	-0.223025674074242	-58.7134084587691	-19.0942681671698	-137.327731126127	
864600000	-18.8978880872876	-170.646413145157	-0.199859312354413	-58.8707540800441	-0.208853743212127	-58.9128330925086	-19.1458054040411	-137.143100842998	
866300000	-18.8473806563325	-171.548880270963	-0.220460508851292	-58.9461052325405	-0.22815837650342	-58.8916388269453	-19.1836179502758	-137.535052115718	
868000000	-18.8438291063499	-171.640754066014	-0.209674779505644	-59.03644147468	-0.216301476572819	-59.1172463003382	-19.0338728498242	-137.395273294608	
869700000	-18.9583378569619	-171.82109052617	-0.211268877463934	-59.204341265003	-0.222423605450233	-59.1440334785717	-18.9108634019445	-138.379451605823	
871400000	-18.8711847958762	-172.325517850317	-0.197709479219329	-59.3933215569165	-0.223545481982505	-59.2813046994456	-18.8889407632306	-138.054207309392	
873100000	-18.84673181559	-171.472813709012	-0.203679001680627	-59.3868921984098	-0.232183117389635	-59.4572920642115	-18.8596577611266	-138.04236188567	
874800000	-18.8155286027766	-172.655187930887	-0.20946267879424	-59.5186391580767	-0.219072288627209	-59.6464063434671	-18.9022812391146	-137.924002716807	
876500000	-18.7891093743599	-172.405104121543	-0.214073998982797	-59.6549698652093	-0.211172846256094	-59.6684762519972	-18.9087471915358	-138.719139977826	
878200000	-18.6570476114606	-173.164118607612	-0.212231121822927	-59.7739418483352	-0.223838255166097	-59.7733125910442	-18.8879906237556	-138.559572849166	
879900000	-18.8440288962244	-172.632506245471	-0.207180901014087	-59.9180273859424	-0.2253272523106	-59.7806326876717	-18.7746556169214	-138.563054442132	
881600000	-18.9701415845523	-173.411052548042	-0.203119241754805	-59.9404831125271	-0.216644919685989	-59.9390726612916	-18.7638124359702	-138.512341132341	
883300000	-18.8327693980539	-173.459448730638	-0.201324010354013	-60.1295524028632	-0.21723762734917	-60.0803700603503	-18.6807069618372	-138.514107344062	
885000000	-18.8049184164938	-173.81722128462	-0.220543568228564	-60.1565192035798	-0.219763869504556	-60.1770209307258	-18.8340596356245	-138.600708589414	
886700000	-18.6588064130654	-172.988404282348	-0.213525257747807	-60.3400555286853	-0.229330200289336	-60.3246750146743	-18.6293285059072	-138.551955744227	
888400000	-18.6976344667218	-174.207407736235	-0.217416700372555	-60.3738336976905	-0.221462406817504	-60.434389683611	-18.8907350597693	-139.591935689321	
890100000	-18.8621392843751	-174.192025094666	-0.213631997996009	-60.5460657824681	-0.216031406340908	-60.45264518422	-18.7050522675725	-139.092387391622	
891800000	-18.7886027856948	-174.042273901425	-0.206837140133821	-60.6738783730992	-0.219492218558916	-60.5754386638856	-18.6856348244081	-139.463674139425	
893500000	-18.7311674429675	-174.241791527054	-0.218688162265541	-60.7428909209877	-0.229069133864885	-60.8557079703828	-18.5621434910163	-138.072503164703	
895200000	-18.7407304890583	-174.321221503885	-0.199790099254742	-60.9465667113617	-0.223582841582949	-60.8472470697533	-18.6399352682538	-138.424589898219	
896900000	-18.7243624014576	-174.887722817244	-0.218778447012108	-61.0039698297552	-0.219381438934424	-60.9559487630525	-18.6788735419642	-139.56451392059	
898600000	-18.8896607217686	-174.632242227679	-0.211317311770558	-61.3292356986708	-0.233483574741867	-61.0797883261724	-18.5616969329594	-138.992326151721	
900300000	-18.7718385384889	-175.38596682091	-0.207349576741055	-61.1954342273368	-0.232694863994605	-61.280870785339	-18.466809236909	-137.862004079219	
902000000	-18.7524515591325	-174.717956917821	-0.20815410532752	-61.4269333727917	-0.226717137189035	-61.3051151755573	-18.4631756360169	-139.081486920774	
903700000	-18.7870186688246	-175.432797576349	-0.217599864634319	-61.4444180643855	-0.223431898750503	-61.4522798563901	-18.5306273950688	-140.19007685007	
905400000	-18.7615202322956	-175.915003463606	-0.228184483716391	-61.5777819515674	-0.229405560580782	-61.6045689046677	-18.4674692478729	-138.287326066815	
907100000	-18.8328158814595	-176.562189130983	-0.213898202319289	-61.7172763300478	-0.230850479530075	-61.7530838664284	-18.4519456065925	-138.661572805684	
908800000	-18.6013769992555	-176.319386851227	-0.228700410218593	-61.844190245681	-0.225808739466889	-61.8114903868167	-18.3559234486565	-139.497146304658	
910500000	-18.7374338994404	-175.890046407533	-0.217045852033408	-61.9218174668131	-0.227705947917078	-61.8647124271192	-18.4591728272924	-139.498234756241	
912200000	-18.6460822235757	-176.72414159695	-0.223529736218189	-62.0298651771323	-0.233718862935179	-62.0893592786517	-18.3310501266437	-138.466210226676	
913900000	-18.7388837128848	-175.498764109872	-0.204804067771084	-62.1526589146389	-0.229589062598997	-62.1925027178542	-18.3258472905626	-138.447633486459	
915600000	-18.8056731741791	-177.04838750366	-0.219445276131015	-62.2692842810391	-0.225731981720033	-62.3070166961768	-18.3547181908484	-139.176580437147	
917300000	-18.6601640888391	-176.521030080158	-0.198337875838615	-62.4402344654634	-0.218873774235222	-62.3347683017507	-18.3948887071024	-138.613325956569	
919000000	-18.6327051833608	-176.715936470542	-0.221771397342571	-62.4731890893464	-0.226992902331046	-62.527518464035	-18.2104453784199	-138.948191068158	
920700000	-18.5507771551287	-176.589813729005	-0.226793532943779	-62.6446008067706	-0.222815353374115	-62.588171141997	-18.4328842336109	-139.736918497731	
922400000	-18.6340180516456	-177.166439024547	-0.241458196352163	-62.7385164986712	-0.233054915991427	-62.6861865214428	-18.3081030128061	-139.065730896959	
924100000	-18.6621443745298	-176.483927075367	-0.224462223939344	-62.8189462564461	-0.225072066220712	-62.8265715926613	-18.2162328734559	-138.997838211095	
925800000	-18.6018074425174	-176.727527994575	-0.213752851312931	-62.9149021024976	-0.229110391394451	-62.9849622680023	-18.4762014761944	-139.11210106849	
927500000	-18.5859002203176	-176.839768527931	-0.226784349827709	-63.1048442404612	-0.24099559492319	-63.0835573536078	-18.3433898370745	-139.114138601156	
929200000	-18.5545530392164	-177.424388640565	-0.220847990211638	-63.2591707822657	-0.212834632897683	-63.1705868912087	-18.2941887678933	-138.916980214019	
930900000	-18.5902248525608	-177.350058557206	-0.220522163218519	-63.2830037208418	-0.23886267938988	-63.3566735032249	-18.4103054923963	-138.557142880959	
932600000	-18.498941822451	-177.164567386028	-0.217346025775829	-63.4340254686191	-0.217227731385923	-63.4187737407227	-18.2684038605024	-138.886016842564	
934300000	-18.5017943771322	-177.95612836425	-0.217247222174504	-63.5724582219725	-0.222839943813521	-63.5857277533626	-18.4206227624719	-139.280643495112	
936000000	-18.5098111171117	-177.670500362814	-0.212854404904762	-63.6658358957012	-0.244145016026123	-63.6859008409559	-18.4081270249522	-139.080496700195	
937700000	-18.5044935484559	-177.486293490183	-0.225122537102398	-63.6919510859227	-0.244848106560229	-63.8222746574608	-18.3241535754297	-138.988028978743	
939400000	-18.4061754863546	-177.038157192452	-0.224390804606136	-63.8627098770628	-0.240822068525118	-63.9030382778475	-18.4630448772453	-139.1875912079	
941100000	-18.3044736847107	-176.847038970651	-0.207482051839374	-64.0789801472482	-0.232296359486043	-64.0269640399165	-18.3330491462972	-139.181875956989	
942800000	-18.3868096504883	-177.86066230981	-0.238982231679982	-64.1118128218083	-0.229539573018392	-64.1054404461746	-18.2659587994095	-138.681101039965	
944500000	-18.341651070978	-178.369325942361	-0.230664371892746	-64.2048722504799	-0.236116643971913	-64.2454427510176	-18.3197113931914	-140.205559383259	
946200000	-18.2291757679195	-178.298864224532	-0.227641505961324	-64.4087697898046	-0.240226281517261	-64.3602729349449	-18.4241503947824	-139.458894360323	
947900000	-18.2114502456555	-178.089658820953	-0.219839898180927	-64.504650488717	-0.235272930820049	-64.4187230143703	-18.2608237558114	-138.738588204974	
949600000	-18.3783793135295	-177.590584365926	-0.232501505132469	-64.5996160889642	-0.238904476675734	-64.4967422459863	-18.3594357083309	-139.217137569143	
951300000	-18.2310493578807	-178.899618810788	-0.234361545942273	-64.7141928515731	-0.24416766336444	-64.705798824973	-18.2849082907942	-140.163338507349	
953000000	-18.1922844345043	-178.290254722392	-0.210005787021549	-64.7457127399167	-0.246466520101979	-64.8040156477203	-18.3184970021829	-139.891523022125	
954700000	-18.191761456628	-178.024375606368	-0.232933886418544	-64.9100033343848	-0.248154306530463	-64.9775050414156	-18.2963958485746	-139.877051079431	
956400000	-18.1883296940829	-178.596964967959	-0.220998525131727	-64.9868181403204	-0.242067023668071	-65.0344768573788	-18.2627793657837	-140.384355647479	
958100000	-18.1304446810403	-178.934733860247	-0.228363249337844	-65.1570618137007	-0.234958467909745	-65.08657798729	-18.2055316698495	-140.612828097589	
959800000	-18.2745259441823	-178.514782706119	-0.227036653217916	-65.2867241472785	-0.23951587697357	-65.2848118702475	-18.2734734509642	-140.858274778225	
961500000	-18.1648505202966	-179.10672160089	-0.231854788165353	-65.3760171747607	-0.251215783889091	-65.360747761662	-18.2943712154482	-140.268440487318	
963200000	-18.0246346299106	-179.353666513413	-0.239162405442123	-65.4453039707715	-0.237967989463598	-65.4305709713125	-18.3430234540686	-140.200218592747	
964900000	-18.0895803778925	-179.567198249726	-0.237041316503964	-65.618575140235	-0.239456136635936	-65.5473346887579	-18.3149301290755	-140.455432488994	
966600000	-18.0355919707212	-178.874590141035	-0.224748237075761	-65.7256568832562	-0.241134017082577	-65.6562385542687	-18.2377604068401	-141.20912124366	
968300000	-17.9325966634131	-179.458798171795	-0.222208573173627	-65.8212001755698	-0.251896230713772	-65.7273998538479	-18.2159860930833	-140.917843272108	
970000000	-17.8949203359437	-179.510543233455	-0.24266510521357	-65.9392597840165	-0.238365010847749	-65.9170185422403	-18.1122374177039	-141.675426497699	
971700000	-17.9319324594983	179.166447770333	-0.233205635040028	-66.022982512574	-0.245904180366316	-65.9929056609819	-18.1795788762414	-141.869974362159	
973400000	-17.8492792758424	-179.620052786275	-0.236974252235756	-66.1767131998157	-0.254830755817927	-66.2110843621251	-18.1642905380225	-141.590512682782	
975100000	-17.9455707070891	179.692728064913	-0.238382871744337	-66.270285059216	-0.242263655653612	-66.2715553375218	-18.2061564365052	-141.271653732724	
976800000	-18.0475785301764	179.380386654306	-0.236564111344246	-66.3915009552923	-0.25180957604854	-66.3027386784544	-18.1720508850079	-143.248381108755	
978500000	-18.0065412279779	179.154233251978	-0.240673344257465	-66.466773620828	-0.248605976275998	-66.5294272104168	-18.2782548443823	-143.041701346907	
980200000	-17.8245222603086	179.270240944939	-0.235673249928839	-66.4896052414216	-0.24190708596697	-66.5838283211732	-18.1831183814427	-142.918958988838	
981900000	-17.9023871916284	178.935404255593	-0.232465061536889	-66.7429127401101	-0.237468089114017	-66.7555725702069	-18.1715787276446	-143.021706508126	
983600000	-17.8930713194752	178.57945960683	-0.23872144731104	-66.8550913371907	-0.243474031250007	-66.8609699981728	-18.3317879389121	-142.781500286719	
985300000	-17.7638616483512	178.279169786573	-0.250584189306616	-66.9561666865518	-0.256591595243222	-66.9088566118278	-18.0060787164018	-144.592387514978	
987000000	-17.8452209471849	177.831534635273	-0.237776450928137	-67.0148694431777	-0.261153042063291	-67.0837213127786	-17.9875791936308	-143.740192872616	
988700000	-17.9364336225706	178.661527112343	-0.243188155370543	-67.1405650949255	-0.258801900977423	-67.1407357236922	-18.0077903129255	-144.478980270934	
990400000	-17.9394912260144	177.986226054567	-0.231988763845865	-67.2446163415954	-0.245468587591561	-67.1940152182939	-17.9779067627228	-144.035559778708	
992100000	-17.872679271364	177.718872089543	-0.238419560065881	-67.4038896379527	-0.256948723518603	-67.4333212900718	-17.8711509149403	-143.665287555277	
993800000	-17.8369480848111	177.451657449239	-0.262843858518183	-67.4869004765146	-0.256038784188451	-67.5640245326031	-17.7736783223183	-144.253018976072	
995500000	-17.8318353449745	176.591192276563	-0.243684507186933	-67.7563530907308	-0.261436535283529	-67.7386951352141	-17.8244580243876	-143.803212759645	
997200000	-17.8292725090693	176.664976346773	-0.259915989163346	-67.741916708629	-0.251053878615633	-67.6688636017004	-17.9402313682971	-144.329676135648	
998900000	-17.9008633231479	176.179835383623	-0.237012329852646	-67.8695399128263	-0.266657214566427	-67.7857956797193	-17.8652977057131	-144.512430875538	
1000600000	-17.9037889662033	175.86991897647	-0.250343138245573	-68.0186349330082	-0.254937958954087	-67.9873579486024	-17.6586311475721	-144.807968959911	
1002300000	-17.7610283759626	175.601695365256	-0.2302747786548	-68.1352849215238	-0.255125137782136	-68.1205967101988	-17.8017911071756	-144.112759074049	
1004000000	-17.8540062281337	176.353889608142	-0.245057720751704	-68.1531553957804	-0.252941323655973	-68.0726408281242	-17.7771106957096	-144.168215689476	
1005700000	-17.9258285257601	176.090197215858	-0.248432332623565	-68.2485457918072	-0.248549989942812	-68.2709272497737	-17.7837218880069	-144.640916386633	
1007400000	-17.7783774286144	175.30094697063	-0.228431361364914	-68.4709507507499	-0.254757340682337	-68.4721628246794	-17.7098326107669	-144.669267558858	
1009100000	-17.8167108821284	175.812095933945	-0.243694320859088	-68.5680940310272	-0.247893722329626	-68.6164228966964	-17.7951413458754	-145.624795835498	
1010800000	-17.863182133828	174.379886732764	-0.243558121431218	-68.7077858365421	-0.248475283091035	-68.5996923639374	-17.7604549402126	-144.816274895989	
