!Keysight Technologies N9950B: A.12.38
!Date: Friday, 12 May 2023 13:51:04
!Timezone: (UTC-06:00) Central Time (US & Canada)
!Model: N9950B
!Serial: MY61131330
!GPS Latitude: 
!GPS Longitude: 
!GPS TimeStamp: 0001-01-01 00:00:00Z
!GPS Seconds Since Last Read: 0
!CHECKSUM:0968723392
!Correction: S11(ON U)S21(ON U)S12(ON U)S22(ON U)
!S2P File: Measurements:S11,S21,S12,S22:
# Hz S DB R 50
800000000	-28.0647367080135	-101.724540200527	-0.0791434867319203	-50.6602890703124	-0.100669762043097	-50.5628846405578	-28.0378266631052	175.971757794714	
801700000	-28.005269952532	-100.629676386035	-0.0939614263923125	-50.7585422571371	-0.0884207771886016	-50.7658217683697	-27.9335125298271	177.589727649031	
803400000	-27.8194699377445	-100.277113152674	-0.0810641955821877	-50.8561766533169	-0.0896462220409879	-50.8646674183035	-28.1749018504929	174.497208090702	
805100000	-27.6340378690147	-98.3966525418144	-0.0808120021351219	-50.9840804306451	-0.0918328017817376	-50.9874813246636	-28.1656184115113	174.994256432013	
806800000	-27.6140770736981	-100.870193789714	-0.0708118512514321	-51.1292788664575	-0.0908167962662622	-51.041203787819	-28.2414446519113	177.170248719131	
808500000	-27.536808030597	-97.824963271949	-0.088191891860242	-51.2089058145017	-0.0900086773020431	-51.2125595409589	-28.5033464376787	174.571273583871	
810200000	-27.555559033057	-98.1870985915531	-0.0907560008352273	-51.4421639861649	-0.104567179029632	-51.2679488750473	-28.6193464710736	172.80623772781	
811900000	-27.4726751353088	-99.560847700958	-0.0871341962838087	-51.4044685772955	-0.0862448034901006	-51.3720057895679	-28.3777173256078	173.743461658492	
813600000	-27.6245846416559	-98.4290360430425	-0.0848145789514028	-51.5280799255973	-0.0916778006437984	-51.6031426851212	-28.3586872113429	173.613656163746	
815300000	-27.5385074794362	-98.7963622482434	-0.0811674074397804	-51.6904925344652	-0.103028746189178	-51.5954724993272	-28.1162509134029	172.370723993519	
817000000	-27.4245355786198	-99.6222734824191	-0.0909754113708998	-51.5738983085635	-0.0860271951304432	-51.7282299681327	-28.5620848731069	174.44279386238	
818700000	-27.1905552893837	-99.2310500620888	-0.0823689035058001	-51.8078500653191	-0.11027514634318	-51.859762432626	-28.3436188425899	173.076450221119	
820400000	-27.0959045493456	-100.278357732132	-0.0878660179158876	-51.9363034224403	-0.0913571482992422	-51.9284018020729	-28.5598381588794	174.858168763599	
822100000	-27.1586262225227	-100.198587107003	-0.0814354599020011	-51.9387877089436	-0.0831566260199994	-52.146835824137	-28.242637539391	174.101643978231	
823800000	-27.1050405541695	-99.4082589128371	-0.0823843165943703	-52.1519891679593	-0.0984450513012133	-52.1889701801541	-28.7349015417372	172.482581105214	
825500000	-26.9566686546745	-101.397312009485	-0.0952341506256738	-52.2082522729161	-0.0808170709654637	-52.3070347362638	-28.5756528110791	171.213046131779	
827200000	-26.7609313264401	-102.186725584051	-0.0784996813809308	-52.4950740250605	-0.0961553578033859	-52.4342946398304	-28.5072908066836	170.736232121111	
828900000	-27.1557377954781	-100.268430934802	-0.0812375134970526	-52.554827263778	-0.10330841433014	-52.5757031355819	-28.5901089867407	171.948619110385	
830600000	-26.7429061698184	-101.263579446472	-0.086748550921589	-52.6612849289566	-0.103039210026044	-52.6237290359553	-28.4692788432187	171.978679090804	
832300000	-26.847962843728	-103.117352518436	-0.0833036312345613	-52.6801644342697	-0.0940907053671798	-52.6325353479253	-28.2839023967563	170.788218609152	
834000000	-26.9304503383535	-101.26341407687	-0.0934656427912744	-52.8526258234366	-0.104327810053276	-52.6985930265548	-28.7650276167196	168.8438692947	
835700000	-27.0027406252892	-99.8850605133798	-0.083027020095484	-52.9163321971156	-0.0920031161185006	-52.8344521982085	-28.5054578693721	171.553247382446	
837400000	-26.801920110572	-101.295812485915	-0.0846739492834053	-52.9810814260434	-0.0926685620025869	-52.9413235440451	-28.5964696509964	168.725556728445	
839100000	-26.8644378498833	-100.652204810087	-0.0964261122808157	-53.2094954222208	-0.0989315156249748	-53.1011521665349	-28.6224979804265	169.252773118865	
840800000	-26.7706346700804	-101.708555644979	-0.10855338372422	-53.3130624705598	-0.09339495707214	-53.2610850447224	-28.6356941553533	165.778951710621	
842500000	-26.4922045766663	-100.559006599059	-0.101383922440775	-53.313320501798	-0.0964747547728243	-53.316627404476	-28.0777751278063	168.60454966138	
844200000	-26.5164564639549	-100.208729687697	-0.0887271835549524	-53.4483476379751	-0.0992954646159176	-53.5045433836679	-28.1190658712471	167.291485501591	
845900000	-26.6312379526976	-101.478341707986	-0.094511840904887	-53.5735520435574	-0.0974454588120379	-53.5582115125365	-28.3246800998592	167.507781540938	
847600000	-26.4779553276251	-100.712896337568	-0.085746609978204	-53.638515950548	-0.106242803361172	-53.5795726583402	-28.1927749609549	165.451580716131	
849300000	-26.6402889647942	-104.077868289059	-0.0896620222052422	-53.8347679320665	-0.0949945779615474	-53.7916474632642	-28.5397887808252	162.039825061205	
851000000	-26.5440995894487	-101.677525106949	-0.0817411585585722	-53.8941995426164	-0.0974557948252371	-53.9070286466486	-28.3088210696811	167.429979181929	
852700000	-26.4587148890558	-101.916174767749	-0.087419164487187	-53.9819720844514	-0.103949296979895	-54.0067535948323	-27.9841864311392	163.927996028261	
854400000	-26.5337342551376	-102.38051849311	-0.0963575580674985	-54.0826915584329	-0.0866790655170389	-54.0800184673054	-28.2158901512229	165.839747958776	
856100000	-26.2618846461537	-103.433194021912	-0.0774232866885918	-54.240136582958	-0.109431943724402	-54.1376026972816	-27.6979439631829	164.842277980065	
857800000	-26.1917419117151	-103.102825674242	-0.0801062023540693	-54.328233155681	-0.0964295119963993	-54.3085546326607	-27.7737895249075	161.537281591107	
859500000	-26.5442902942522	-103.530328050722	-0.0967160193813899	-54.3465373809952	-0.0961015610988259	-54.4477879859257	-27.8452055499644	162.680583140979	
861200000	-26.5375317384436	-102.779547172628	-0.0926041410451674	-54.4676452540101	-0.100671837743899	-54.5121654384618	-28.2727295511487	164.026627640816	
862900000	-26.5462202921278	-102.77308814575	-0.0695894920626481	-54.639613368514	-0.103928018904615	-54.5770475043355	-27.8695608574743	163.32949414305	
864600000	-26.5506607545227	-102.482880054473	-0.0627347069837524	-54.6989310386061	-0.0974117389962822	-54.7359840043868	-27.9667669415094	162.281065275126	
866300000	-26.7264697274882	-104.479508823221	-0.100449809422952	-54.7712412615122	-0.100548036076533	-54.8325861347316	-27.8816034871567	159.534889792802	
868000000	-26.6973322146363	-104.071516582064	-0.092257956411312	-54.8760195219737	-0.0963112322042145	-55.0177562468816	-27.9190755703554	163.542713073048	
869700000	-26.8037136220857	-101.395841765915	-0.092464636112294	-55.0290934563563	-0.103243302797959	-55.0732694144307	-27.3167945483525	163.511352753334	
871400000	-26.7627779807568	-103.396294765006	-0.0854702396320725	-55.1521915477153	-0.1042153566082	-55.1772080695626	-27.401075645848	163.325373814194	
873100000	-26.5348523717142	-102.94440482941	-0.0916151894768751	-55.2921054649186	-0.109554857803017	-55.2644196523632	-27.4502475100082	163.265438920891	
874800000	-26.7529390833276	-103.58819783494	-0.0876955631534774	-55.3443959070989	-0.0915375257082773	-55.4571319941776	-27.5668934709218	162.141261183074	
876500000	-26.6394013687606	-103.970001112776	-0.089195707829034	-55.6132961096459	-0.0995091899304864	-55.4662884144932	-27.2684967999737	161.641878465886	
878200000	-26.736819368166	-106.112847461779	-0.0961718078333595	-55.5944112408513	-0.0910399619812295	-55.5437588404903	-27.2988619904634	160.96432524154	
879900000	-26.6870818415378	-102.832595489502	-0.103227038336358	-55.694432976397	-0.0964542782334218	-55.6181616125065	-27.1038967229607	162.841500199851	
881600000	-27.129916685283	-101.241658523335	-0.0826261225378589	-55.7613874586225	-0.101977869233075	-55.7778546152028	-27.2024473532201	161.852633121707	
883300000	-26.8826385789911	-102.344714514276	-0.0817644642099978	-55.9621528357863	-0.0903697783794131	-55.989513618294	-27.1870791906239	162.491513894467	
885000000	-26.9543387405002	-103.092287151829	-0.0927401590535663	-55.9899810544124	-0.101793571062569	-55.9765444365539	-27.2859469108017	160.492688059338	
886700000	-26.5431597037585	-104.475850361969	-0.0803919289675356	-56.1261544731745	-0.105574419016908	-56.1374912693645	-27.1120043260014	163.522365455942	
888400000	-26.9654935316449	-104.319885955701	-0.0944043047675454	-56.1856309269006	-0.0918722401505333	-56.2014556886772	-26.9135541995658	158.043529424669	
890100000	-27.0710005731858	-101.749593794258	-0.0879151392951571	-56.2855333277703	-0.0904184524715668	-56.3616511117959	-27.0643165787301	160.153361571096	
891800000	-26.7966097480438	-102.7055786104	-0.0825033031116984	-56.5346520231357	-0.0966325913743339	-56.3787652947818	-26.7876059836319	159.487420435017	
893500000	-26.8231564648886	-103.416304766314	-0.0975633489628477	-56.5730989532542	-0.110463332935857	-56.5240150946155	-27.2561830142089	162.997555925941	
895200000	-26.7520969997483	-102.912676686533	-0.0841106199251564	-56.7456045838357	-0.109064985550443	-56.5575532103792	-27.2205123670167	160.444708309334	
896900000	-26.9360247336162	-103.652481408481	-0.0986964960646089	-56.8004014693191	-0.105732226395867	-56.7626516823673	-26.8185717754123	159.24811373048	
898600000	-26.8501839047726	-100.691140095079	-0.0904904762144171	-56.9171843343186	-0.109057124973986	-56.8564668314509	-26.9696864764523	160.867314054536	
900300000	-27.0371735668843	-102.232386372119	-0.0787010891159306	-56.9064051572789	-0.103391834133642	-56.9829027594639	-27.2976521663536	164.247039366708	
902000000	-26.7781406971507	-101.318297175218	-0.085951517608531	-57.1739467911762	-0.111524396876774	-57.09705764345	-26.8234452096714	161.167530292525	
903700000	-27.0234367590366	-101.328035827879	-0.0824755386338485	-57.2426064195392	-0.0939319274541938	-57.2445432837019	-26.5443769904537	159.312991308541	
905400000	-26.9886033030221	-102.577487301737	-0.0866282102344941	-57.2466547368156	-0.103928706736717	-57.4142416484247	-27.1664384876429	161.198046399607	
907100000	-27.251045299654	-100.855995552857	-0.0903836824641137	-57.4174902026112	-0.114553100190326	-57.5033295733162	-27.0504011928736	161.010861608469	
908800000	-26.8929522573074	-104.247475105057	-0.0912516478000813	-57.5939390341178	-0.0945844150317689	-57.5159201724515	-26.7187224718019	161.992517228125	
910500000	-26.8543685450308	-101.672841143262	-0.0751180155978352	-57.6584788356624	-0.111483734936332	-57.6014697004857	-26.8647418730658	159.782997308138	
912200000	-27.0603657195422	-103.278623176076	-0.103556771945186	-57.7114842251439	-0.106634273315848	-57.7902937715871	-27.1444722794423	162.96007119552	
913900000	-26.6169434505998	-100.504963028949	-0.0917496197362984	-57.8394639628766	-0.0998410515742877	-57.8435360837698	-27.0092135256448	163.406650458207	
915600000	-27.1238383066578	-100.58858433298	-0.089268176022674	-58.0139642817338	-0.0965104954639903	-57.9019918285688	-26.8796098594247	162.113017765548	
917300000	-26.7882888487987	-101.600962712694	-0.0837228780001366	-58.0595732772032	-0.102950495122114	-58.0483755328342	-27.1279826913928	160.310413186004	
919000000	-26.717886375409	-102.141068923479	-0.0926249189701672	-58.2600936461721	-0.114143933898597	-58.2120142669922	-26.9067176069133	162.803676296043	
920700000	-26.5174117079259	-103.207056851251	-0.0987350352309835	-58.276250869644	-0.096329649105608	-58.2771027786356	-26.8415628591149	157.99502293887	
922400000	-26.8467285585041	-101.622750298968	-0.103112513337414	-58.5473078374862	-0.123101677713473	-58.3278342721377	-27.05721781053	161.039142434223	
924100000	-26.4856100668899	-100.841556782447	-0.100008125293892	-58.562428605473	-0.10405795876965	-58.4435299053573	-26.9986967415132	161.891120057635	
925800000	-26.4228902451879	-101.381141698492	-0.0904464568605756	-58.5990230255579	-0.0958515448326391	-58.6431416866488	-27.1030734597119	157.656834084164	
927500000	-26.33722240283	-101.612782832123	-0.0970214564880852	-58.6976637124597	-0.111654024055697	-58.724692509177	-27.198512667931	160.181151314292	
929200000	-26.5887291261491	-101.538976651075	-0.104169389124593	-58.8274513696909	-0.0986337773786532	-58.790479578413	-27.1931034313693	160.136224860793	
930900000	-26.5358673955667	-100.58617185795	-0.106398077225604	-58.994622681404	-0.11461098752913	-58.9135588926639	-27.4321788674764	158.401083944998	
932600000	-26.3474463388211	-101.371666250403	-0.104559443091018	-59.0319523245925	-0.101609002500199	-59.0551554940588	-27.139310368434	160.372461573459	
934300000	-26.5402204828018	-102.614084198289	-0.101095422576052	-59.1583640313002	-0.104167226926179	-59.1304643074839	-27.2655689823138	157.3442612181	
936000000	-26.3532763783932	-101.139336008355	-0.0800727757421542	-59.2829272289373	-0.0993272606412727	-59.2165258408903	-27.3155255944625	157.8706172491	
937700000	-26.2860981247652	-100.407802087229	-0.0925894580562859	-59.3021216891808	-0.109045423964367	-59.4645113408111	-27.4267248277608	158.626005245797	
939400000	-25.88208646171	-101.68806087117	-0.0957394549654726	-59.4704359510173	-0.110491571899524	-59.4581293279025	-27.3549114613226	154.873755625241	
941100000	-25.6778611432199	-102.406315238331	-0.0983755415027666	-59.56248306241	-0.10055239226738	-59.4949024806557	-27.373396923525	157.625003265289	
942800000	-26.009141200114	-102.718930015588	-0.102332943117515	-59.6825737092374	-0.111916581923521	-59.6517495945817	-27.6113973072651	157.856884731815	
944500000	-26.1247846686661	-103.391142096845	-0.0898142372675879	-59.7693914502162	-0.0979043152193217	-59.7210561827028	-27.0027384274842	155.57762639216	
946200000	-25.9051885501099	-104.318363517497	-0.109005755708956	-59.934785545563	-0.115645588953842	-59.8811374600285	-27.4593293424389	154.523313498525	
947900000	-25.8394734399312	-104.207771024838	-0.0807731258923545	-59.9547165233873	-0.097041670882505	-59.9159865550929	-27.7008587419435	157.726500169257	
949600000	-25.7051901102223	-100.932373115271	-0.100569677829609	-60.1035572611261	-0.118749733743739	-60.0521694500929	-27.6244325306824	154.802382521481	
951300000	-25.9912603460896	-103.40874953635	-0.105452246176019	-60.1614093313357	-0.100699932872175	-60.2546560700004	-27.2155516657169	155.262760836506	
953000000	-25.6089879445085	-103.489579896544	-0.0789616521260238	-60.2547307802843	-0.108555214664641	-60.2894769160554	-27.3831367008345	154.217572819786	
954700000	-25.538921186965	-103.327999952006	-0.11504984503689	-60.3931955736622	-0.11276240839966	-60.4264064694764	-27.3956540206462	154.798150012934	
956400000	-25.706665497099	-103.996589498203	-0.103206082969289	-60.4193491691856	-0.105312826540456	-60.4800624313905	-27.1895386679897	154.185414663044	
958100000	-25.6901034449011	-104.306200882391	-0.106191226792209	-60.7124902769948	-0.105711849463397	-60.6163955646281	-27.0034682509879	154.976901765321	
959800000	-25.5606404300678	-101.563056358719	-0.0973924258998493	-60.7125956904187	-0.108575986846343	-60.7853124946758	-27.1668567824847	152.347884891743	
961500000	-25.6716065978839	-103.911351257749	-0.0879886145024875	-60.7931733870535	-0.108278811774025	-60.7423363015917	-27.3728405759457	151.789625663219	
963200000	-25.5273848271456	-105.240201430954	-0.095583146321066	-60.8786806133861	-0.110448382164723	-60.9376597678532	-27.3732188580028	151.917780909788	
964900000	-25.589236602165	-104.757453505392	-0.0991445650825635	-60.9670871980218	-0.114384846959598	-61.0358100600679	-27.3690609968132	150.838108967894	
966600000	-25.2916645769623	-104.686090506179	-0.0876311081725312	-61.1554135854508	-0.0895802329662433	-61.110315930958	-27.0442047912998	151.850338070952	
968300000	-25.3962379857055	-106.295135012065	-0.0900724575857899	-61.2901644580602	-0.116583442129221	-61.1821806973732	-27.1725770246257	152.085318925584	
970000000	-25.2986623901076	-105.898563894522	-0.0904719811260195	-61.4041973722776	-0.0969724292565892	-61.3737533634641	-26.8218350115597	151.731649000798	
971700000	-25.6810524451311	-106.185489517541	-0.0887435878018045	-61.4129564802046	-0.100028130188397	-61.4093911050889	-26.8927988041159	150.299797448833	
973400000	-25.1218335458836	-106.664553129822	-0.101061114358283	-61.6153910657036	-0.112296972810378	-61.6843863741472	-26.9231068615243	150.38371586253	
975100000	-25.4494209298121	-105.344146497676	-0.0963393310416145	-61.7390435760743	-0.1100586031077	-61.7094383657515	-27.2071913302528	149.903920546329	
976800000	-25.5073464703035	-103.904592191054	-0.0908736883329666	-61.8322136864834	-0.113736303588364	-61.7683941607648	-26.4334662762442	149.134105188412	
978500000	-25.5988932575379	-104.481193986937	-0.094238810942212	-61.9606447624516	-0.104744438131996	-61.916306499617	-26.5774941078011	146.71878493352	
980200000	-25.3439867320005	-106.407768656089	-0.0910424772292886	-62.0217466350293	-0.112618382297423	-61.9713797199229	-26.5799514056972	147.913947072425	
981900000	-25.4135692327268	-105.08640829224	-0.0939202766825571	-62.2125706632202	-0.0872929945386624	-62.0700829697124	-26.4395472660694	147.283247016735	
983600000	-25.4754700506353	-105.292143171386	-0.105193394090917	-62.3000911439784	-0.103867658443213	-62.232535187583	-26.7559407849425	144.426752036784	
985300000	-25.3919177441827	-106.801898041579	-0.102534243015583	-62.4332684141928	-0.111186568057868	-62.3580579309609	-25.8722732085348	148.030568721022	
987000000	-25.5925993370543	-106.394138071364	-0.0859337958077473	-62.4205839876815	-0.1144300988957	-62.4391525135679	-26.1989673485689	148.781699834915	
988700000	-25.3755189671531	-103.688489355866	-0.106777073679572	-62.4866075626205	-0.0982282468876213	-62.5470415342997	-25.9333143309676	147.3185427975	
990400000	-25.4238455057151	-103.924459607489	-0.096173410461347	-62.647069733133	-0.100949822854918	-62.6068279003345	-26.0555784617578	147.639018358511	
992100000	-25.5012061538296	-105.282154169936	-0.0894711357680018	-62.7776630972849	-0.112599078351306	-62.7971213772225	-26.2160908597006	149.29886725969	
993800000	-25.5684267439778	-105.381345005064	-0.126332706372594	-62.8105932636641	-0.111340997157479	-62.9383111116815	-25.94069184798	151.181912851935	
995500000	-25.7391824259117	-105.431125014441	-0.104634260401023	-63.0278359133721	-0.10045767724528	-63.0263629280399	-26.194760172131	149.443671848487	
997200000	-25.6737718854224	-105.674625646084	-0.116121169210246	-63.1023095660119	-0.0993288823224631	-63.0270377324429	-25.9849391791162	146.466349048489	
998900000	-25.861907909682	-104.579061785669	-0.0853014308321223	-63.1422736519552	-0.121279960354862	-63.1637731436023	-25.9182331855875	147.007577035726	
1000600000	-25.9733304316149	-104.206566924386	-0.106614844998743	-63.3354255644686	-0.122639458496466	-63.2575443662442	-25.6585026798456	150.101216717271	
1002300000	-25.8790170229722	-106.276370132424	-0.0888518585556627	-63.3922128547597	-0.113437212742174	-63.372172515542	-26.1205963484559	147.115422221933	
1004000000	-25.6844199837253	-104.894059436468	-0.107324033269325	-63.5174591964775	-0.114763022572961	-63.4821989624337	-25.9504303598634	147.001721070057	
1005700000	-25.6477352628164	-103.438986226507	-0.100555466889891	-63.5730123204266	-0.117814856375155	-63.6018002016604	-25.8856304134497	147.43899355447	
1007400000	-25.8472828623594	-105.388484596579	-0.0966292869650843	-63.7654651651027	-0.102067496751061	-63.6986478754533	-25.8706703257833	146.827814848262	
1009100000	-25.6067348263176	-103.941749996571	-0.0944060012127352	-63.7315689212244	-0.10919670225589	-63.8508053930555	-25.5772118846935	145.243465336722	
1010800000	-26.0485866581369	-104.416781007268	-0.0919365464862047	-63.9904903941392	-0.107893197109212	-63.8997625088064	-25.8515082414964	145.892175923004	
