!Keysight Technologies N9950B: A.12.38
!Date: Friday, 12 May 2023 13:36:04
!Timezone: (UTC-06:00) Central Time (US & Canada)
!Model: N9950B
!Serial: MY61131330
!GPS Latitude: 
!GPS Longitude: 
!GPS TimeStamp: 0001-01-01 00:00:00Z
!GPS Seconds Since Last Read: 0
!CHECKSUM:0387232495
!Correction: S11(ON U)S21(ON U)S12(ON U)S22(ON U)
!S2P File: Measurements:S11,S21,S12,S22:
# Hz S DB R 50
800000000	-16.9178911730211	-154.425810641733	-0.24144447934818	-56.7222631412167	-0.25496191211587	-56.7138119975902	-16.7818912705486	-148.681513093618	
801700000	-16.9557453160603	-154.213166967064	-0.255326094734136	-56.8636020034586	-0.256305862083988	-56.8712068310135	-16.7007410687421	-148.513946222465	
803400000	-16.8625437822555	-154.348871921567	-0.238845785084739	-57.0525862592082	-0.256375643008807	-56.9935226746891	-16.8291010851945	-149.020270309751	
805100000	-16.8869150159753	-153.711841730633	-0.238853677488443	-57.1385979604957	-0.253705153095398	-57.1409894778828	-16.7950368910765	-149.029813093299	
806800000	-16.807943812309	-154.625939756384	-0.234713089269998	-57.2875409276996	-0.265240028371799	-57.2255113110513	-16.7388281073281	-148.890810871033	
808500000	-16.9004866950871	-153.953145266353	-0.254904568616286	-57.4754241571854	-0.272324899408185	-57.4074464495287	-16.8709070667825	-148.912979703811	
810200000	-16.8689244807791	-154.081787328317	-0.247461055981072	-57.5280669074297	-0.266351192164515	-57.4945433792093	-16.8853650043683	-149.303339237846	
811900000	-16.7792548981584	-154.505307131065	-0.242469667953387	-57.5678765097133	-0.265428262970856	-57.6340546289273	-16.8325203194699	-149.45651898946	
813600000	-16.85505567523	-154.468106443556	-0.240538201296403	-57.7594281469691	-0.265461148671922	-57.845079873748	-16.8092243988826	-149.811257315052	
815300000	-16.8476527360731	-154.745639111127	-0.253916289281105	-57.882574830284	-0.261264490296461	-57.7976802437251	-16.7393540940649	-150.151756387339	
817000000	-16.7648507466123	-154.793567894484	-0.25857469698109	-57.872207783164	-0.260978960511715	-57.953418770734	-16.7919430261782	-149.53471806956	
818700000	-16.7185825759031	-154.557770797834	-0.262404422514822	-58.0950359984149	-0.272388700905489	-58.095678739413	-16.7644462305768	-150.016053817754	
820400000	-16.6439390696888	-154.667235744389	-0.258380527756849	-58.2317588444298	-0.272567913661224	-58.2494689248575	-16.7341629006614	-149.603844879935	
822100000	-16.6674385182333	-154.722155007717	-0.251887206691991	-58.229474425325	-0.25944772219916	-58.3791576009146	-16.6939113268287	-150.265794671636	
823800000	-16.651893717445	-154.766765510184	-0.249915412494731	-58.4071472081609	-0.269088125738805	-58.5053669328699	-16.7776887569302	-150.121322498241	
825500000	-16.5657728785474	-155.028413951358	-0.274679380653782	-58.4727991441604	-0.253030536329368	-58.6019764942899	-16.7890745305896	-150.557586108902	
827200000	-16.5073393630104	-155.355423501521	-0.265988724924332	-58.7440160472054	-0.255113878867184	-58.7522459402816	-16.736842995992	-150.817636211151	
828900000	-16.627110763128	-155.487704159491	-0.262191996183219	-58.784233083356	-0.263194792831508	-58.8787244235194	-16.7230550137071	-150.878013114082	
830600000	-16.4977007306059	-155.145214852081	-0.260563943041559	-58.9733353652375	-0.290505886053936	-58.8524611872123	-16.6812256057337	-150.904236859696	
832300000	-16.4811142580733	-155.760917705415	-0.283755866178128	-58.9853955347001	-0.282422168965504	-59.0409728355691	-16.6509961170398	-151.755759830136	
834000000	-16.5031409810572	-155.699682642372	-0.258430312513752	-59.1192031193107	-0.2899830265275	-59.1302105789052	-16.7718150461725	-151.565283480463	
835700000	-16.5315353066745	-155.636587572887	-0.259982934116722	-59.2597788169454	-0.289715568658463	-59.1413782645278	-16.644248645875	-151.452932456315	
837400000	-16.4614161395607	-155.851783133788	-0.270984321106661	-59.3687652430599	-0.282028556233344	-59.3327838831193	-16.6770268798868	-151.935059781379	
839100000	-16.4602742838585	-155.849106560764	-0.272201642015617	-59.5597347533899	-0.292050800414213	-59.5826438095066	-16.6554216011048	-152.126425034131	
840800000	-16.403495938272	-156.115325481039	-0.269537185751525	-59.6848412854486	-0.284157132194374	-59.6382604572261	-16.7257126056387	-152.554176664818	
842500000	-16.3454266919506	-155.684177162058	-0.277148662087166	-59.6593414077845	-0.274260483764327	-59.760119922315	-16.536449399005	-152.751041853325	
844200000	-16.3764253588874	-155.572625260749	-0.264550112336284	-59.8653733849542	-0.295480900633251	-59.8986189922724	-16.5518083705157	-153.120090066996	
845900000	-16.3289530256143	-156.30075958135	-0.280641199813529	-60.0135737321365	-0.293538181414133	-59.9567584555107	-16.5663967428415	-152.938809436983	
847600000	-16.2952059446723	-156.128475861333	-0.256620175947711	-60.0705503342284	-0.294989892440034	-60.082281383626	-16.5943836395093	-153.548983411165	
849300000	-16.2341821532045	-157.04500575406	-0.276484852907021	-60.2367543156281	-0.288466191499687	-60.203846010776	-16.671184719253	-153.58852602621	
851000000	-16.2584021259103	-156.641312743968	-0.273785710989136	-60.4478612272195	-0.284594593667855	-60.3945460533744	-16.4672245299011	-153.181382536078	
852700000	-16.2103746650406	-156.653056030033	-0.273989006563634	-60.4916285479861	-0.289239773868699	-60.5025267366929	-16.5031978487855	-154.056840154344	
854400000	-16.2166092369838	-156.995059826202	-0.280692958115961	-60.5338776244341	-0.276501013140967	-60.6264973192098	-16.427600482752	-153.438994658922	
856100000	-16.115204994144	-157.015819638499	-0.266468957771238	-60.6889632172888	-0.289830463868643	-60.6798167548072	-16.3596732555491	-154.45580343473	
857800000	-16.1054500447744	-157.066301383362	-0.273990118637458	-60.7499283340826	-0.295482728226194	-60.8499226084066	-16.440244240029	-154.823234603102	
859500000	-16.14984500898	-157.879236866855	-0.286431301889116	-60.9278991203068	-0.277396872565401	-60.9548137617608	-16.4125758765515	-154.632101228668	
861200000	-16.1668891340284	-157.680276143844	-0.291470006528553	-60.9938137363521	-0.292050483150008	-61.1071175774084	-16.4089645642304	-153.98510607044	
862900000	-16.1300950648218	-157.996241390583	-0.28320510929759	-61.2097231511575	-0.29443818753808	-61.1517854260673	-16.3223046229949	-154.494492346859	
864600000	-16.1354469727138	-157.943312269922	-0.280566728466712	-61.280570903062	-0.28756253863226	-61.32258023873	-16.3696766615609	-154.725949024454	
866300000	-16.1083867913489	-158.703323696981	-0.282954600510165	-61.34667815529	-0.297710275261114	-61.3595486684788	-16.4008335133808	-155.102442968797	
868000000	-16.1046806067795	-158.739224197	-0.27590357570665	-61.4272655814598	-0.287647272093212	-61.5491344087681	-16.2686559096742	-154.62879873812	
869700000	-16.167326009256	-158.618743839954	-0.293148923102817	-61.6185300608849	-0.297219258995174	-61.6920984428529	-16.1778230985004	-155.301950570113	
871400000	-16.1038332084314	-158.977922036068	-0.277285425518565	-61.7896634658398	-0.302713790718578	-61.8571383818456	-16.159489427591	-155.23413660139	
873100000	-16.0894053020996	-158.721565292819	-0.270069165198989	-61.8507252822858	-0.298752544159474	-61.8452636605437	-16.1283999976382	-155.072945907896	
874800000	-16.0417439227034	-159.559221645823	-0.280673716584731	-61.9348974988347	-0.295254122582438	-62.1115016287375	-16.1640537829378	-155.332453825686	
876500000	-16.0159972692631	-159.38857747915	-0.286263859073858	-62.1079770068363	-0.287344656676146	-62.1480560367709	-16.1259224293461	-155.754367060189	
878200000	-15.9690366448295	-160.041449679847	-0.286189955220982	-62.2184254241302	-0.288238953556777	-62.1613012366844	-16.1174325649282	-155.780924586234	
879900000	-16.040182908823	-159.540817059806	-0.286496627283421	-62.2848971949647	-0.300938848220374	-62.2810272155309	-16.0378240524337	-155.589571494699	
881600000	-16.1594072839829	-159.853365705075	-0.264219061234759	-62.3517817595091	-0.294463361445841	-62.3170506648012	-16.0296903942797	-155.576827286485	
883300000	-16.0375961919648	-160.055446343298	-0.27960657748081	-62.5816924558826	-0.298318497479778	-62.620420591198	-16.0107299313682	-155.696682748677	
885000000	-16.0528804507429	-160.491964616039	-0.291608917239126	-62.6081818043036	-0.303528243423626	-62.6442305304625	-16.0518365107436	-155.61135372589	
886700000	-15.9050193940393	-160.113182570457	-0.275394856907403	-62.80758819039	-0.305553609819168	-62.8164785162256	-15.9157675511663	-155.565351030507	
888400000	-15.9794519702596	-160.811149175499	-0.298377856716571	-62.8648122085298	-0.291037726912561	-62.8267104761195	-16.0463594049992	-156.604016359792	
890100000	-16.0573698593149	-160.760443472075	-0.293287750103539	-62.9830480450588	-0.284830761198563	-63.0849727978435	-16.0003650027197	-156.254245396982	
891800000	-15.9801691125509	-160.847758923086	-0.278737316516292	-63.2151937719211	-0.296178159720469	-63.112790447285	-15.9463965839413	-156.553295636842	
893500000	-15.9519499691978	-160.972019415846	-0.289074199353099	-63.3053240602511	-0.30639160048518	-63.3279282101503	-15.9179981542222	-155.649794458531	
895200000	-15.9722831632425	-160.815752757584	-0.277772087301188	-63.4062492428979	-0.299646385904437	-63.3050307302844	-15.9399232953968	-155.74009420942	
896900000	-15.9571283915918	-161.37970003428	-0.29159672932408	-63.4841541620989	-0.284237871915544	-63.5403536217457	-15.9236891530009	-156.69792631214	
898600000	-16.0170178030912	-160.997396468147	-0.282440464328474	-63.7192262240886	-0.303548210101322	-63.5990925161921	-15.8744760861823	-156.22890900307	
900300000	-16.0158155378961	-161.770117532019	-0.277630436561321	-63.7376950466463	-0.306621535087408	-63.7698681582115	-15.8512338568659	-155.507557102831	
902000000	-15.9577177236142	-161.265125548833	-0.287305234914732	-63.959975552023	-0.306295632138569	-63.8782206825846	-15.8628306559945	-156.415812321102	
903700000	-15.9959401841607	-161.806135334621	-0.286074797386455	-63.9339002635094	-0.287187739121634	-63.9433546350865	-15.8311050321564	-157.034937348474	
905400000	-15.968247254065	-162.178361823002	-0.289837958656284	-64.0938410012224	-0.300112190951672	-64.1921939570911	-15.8488963426212	-156.263339117305	
907100000	-16.0692776632654	-162.464462600776	-0.292045114145003	-64.224632619867	-0.298981456991645	-64.3699436242093	-15.8380543210997	-156.500885944278	
908800000	-15.8594458480317	-162.66416653427	-0.295315690170562	-64.4346858265252	-0.27769969532142	-64.3523935385534	-15.7231650993033	-156.731017605828	
910500000	-15.926986069158	-162.134462524495	-0.286278986090489	-64.5014521915136	-0.296687340235695	-64.4730097275188	-15.8211643893955	-156.933325591363	
912200000	-15.9294642073404	-162.996712477507	-0.304401799303361	-64.640679856564	-0.289997496056336	-64.6365707848915	-15.7275421959997	-156.149306218935	
913900000	-15.9409044997308	-161.889708627654	-0.29264783643054	-64.7192038496945	-0.311360483733069	-64.7757059566914	-15.7618011813929	-156.215954052571	
915600000	-15.9937309965583	-162.838347721388	-0.285664384617889	-64.8270853366987	-0.299264058411838	-64.8659455957138	-15.7588175294579	-156.919042266335	
917300000	-15.8978172471791	-162.668079170675	-0.287961913347125	-65.0057564271792	-0.307740624129056	-64.9254640206122	-15.8548279777142	-156.743367086477	
919000000	-15.8866822624374	-162.862035981303	-0.293574879588487	-65.0964163782722	-0.308030733386318	-65.1066163325233	-15.707724064071	-156.72542481018	
920700000	-15.8159211967781	-162.832921082164	-0.307498456494358	-65.289956182803	-0.295919814134229	-65.2012128326025	-15.8182492207367	-157.84461815999	
922400000	-15.8853000501724	-163.092959977676	-0.308386434777062	-65.3515519828866	-0.311895820129381	-65.2785383668438	-15.7501037305312	-157.064459128468	
924100000	-15.8507810434516	-162.512821669983	-0.283322560392321	-65.4155123870649	-0.30382505021115	-65.3851385263567	-15.700574460692	-157.061525756065	
925800000	-15.7996337506869	-162.923313564921	-0.290748348655989	-65.5736312965042	-0.298117078898467	-65.5993338416398	-15.8794090009764	-157.574198346198	
927500000	-15.8107223125902	-162.776361943768	-0.310037307656049	-65.681620560883	-0.30951530625109	-65.63801763654	-15.7662470014645	-157.310676298543	
929200000	-15.802945216222	-163.327961846967	-0.2966576523082	-65.8174266595154	-0.296538089329424	-65.7514128851156	-15.745613931519	-157.567905370012	
930900000	-15.8401117549564	-163.202554529317	-0.296080247768413	-65.9222481778735	-0.32095172815597	-65.9419080242352	-15.856713140948	-157.488501243903	
932600000	-15.7331750758469	-163.234777231094	-0.297711862100246	-66.1149738429416	-0.298977623130102	-66.0837259993228	-15.7262926514741	-157.717095591881	
934300000	-15.7394501724012	-163.76096846593	-0.289138367990724	-66.1155437901988	-0.307638958402618	-66.1621031144037	-15.8498259347138	-158.192702256196	
936000000	-15.7678079227703	-163.50313375784	-0.30201992336402	-66.3446876811227	-0.318598577896227	-66.295908328814	-15.822279426413	-158.180151284716	
937700000	-15.7395982682147	-163.486090922637	-0.304105656826656	-66.3501392699614	-0.320422118194888	-66.4238763853252	-15.7798762444136	-158.055234664833	
939400000	-15.6289663088378	-163.190808729613	-0.307689660556536	-66.5111832555492	-0.306346912282359	-66.5638159414348	-15.8308410419008	-158.559393806154	
941100000	-15.5748879656313	-162.968029081784	-0.300248186180907	-66.6697479901632	-0.309241530066785	-66.6375927839874	-15.7562646892738	-158.413143975923	
942800000	-15.6028675165573	-163.672066185112	-0.310249766097793	-66.6911332087424	-0.319005784430592	-66.6645866354707	-15.7569966239049	-158.183406400773	
944500000	-15.6113572202083	-164.120767457606	-0.298619259663251	-66.8359837841372	-0.311019401898287	-66.8779615574272	-15.7486516252781	-159.595074781008	
946200000	-15.4939148727152	-164.260365502781	-0.304121544778713	-67.0622697818575	-0.322514495687166	-67.0154888057301	-15.8038582085081	-159.167989979567	
947900000	-15.4618126711765	-164.135231122323	-0.282881958440399	-67.211954971373	-0.316452253696778	-67.1090094586477	-15.7262350546327	-158.506038201477	
949600000	-15.5682804648225	-163.3775089039	-0.310707992392639	-67.1999388343408	-0.318332216496688	-67.23332630652	-15.7629975825539	-159.10065509206	
951300000	-15.5088631719418	-164.666651440435	-0.312048248749535	-67.4061246686071	-0.326981716217581	-67.4072582760782	-15.6978566006828	-159.759916707272	
953000000	-15.4403973121487	-164.205628173545	-0.298123238325602	-67.4368168441064	-0.327089200066969	-67.479232368573	-15.7370341959197	-159.872884092673	
954700000	-15.4298066263663	-164.146491698209	-0.326403614865402	-67.601526934439	-0.327592062733847	-67.6721036572101	-15.6797319149863	-159.742711411213	
956400000	-15.3850726733755	-164.260838128043	-0.308809927379663	-67.5811553698684	-0.323733159526778	-67.7695238981871	-15.6109304012033	-160.156932072722	
958100000	-15.3724348258408	-164.659528943404	-0.308505829503433	-67.8492034111904	-0.315596511638657	-67.8454741625876	-15.5850146398215	-160.448779076739	
959800000	-15.4524115816026	-164.345723019572	-0.313523746770429	-67.9183449278442	-0.32273972319573	-67.977359180325	-15.6333058256307	-160.768753488672	
961500000	-15.374103433454	-164.773039929823	-0.3241990628815	-67.9846357834137	-0.340193878354704	-68.0500965567346	-15.6614754172746	-160.554988338177	
963200000	-15.274956722323	-165.10706708294	-0.30997923972569	-68.1014772730091	-0.338376902205194	-68.1577228835549	-15.6579200145667	-160.793118066753	
964900000	-15.3149281139419	-165.306272244788	-0.318253372432689	-68.2287166249427	-0.333908814190924	-68.2851664366758	-15.6596735628279	-160.996981279594	
966600000	-15.2446017337089	-164.919691912604	-0.315594825634816	-68.4650304381078	-0.328581349696885	-68.3202954549021	-15.5390987940891	-161.36386607956	
968300000	-15.1877776865368	-165.333086821095	-0.306401696297398	-68.4380440054472	-0.328177011821867	-68.4993213897424	-15.5398204125204	-161.276441055135	
970000000	-15.1492400004469	-165.472737966074	-0.31200571244864	-68.6246688877663	-0.332440562009879	-68.6158274052269	-15.4677897787175	-161.828962803005	
971700000	-15.1971334385064	-166.228404081254	-0.309354023788034	-68.7048688109177	-0.350498150716641	-68.7486009558953	-15.4881515578362	-161.919309935654	
973400000	-15.1163915866472	-165.624066152066	-0.335784561922078	-68.8531331726852	-0.334777112530814	-68.9857562083728	-15.4685918234817	-161.90014803441	
975100000	-15.1909369423006	-166.116531799941	-0.338585349609926	-69.0969954305586	-0.329872743433292	-69.0102592019473	-15.4974629936243	-161.509764478328	
976800000	-15.2056120642212	-165.902747520144	-0.315396156616053	-69.0635387151075	-0.33736459043572	-69.0413776993163	-15.4194821060289	-163.072733918263	
978500000	-15.1984299296291	-166.346699908847	-0.331972277670519	-69.1708079448568	-0.341669372094014	-69.2284504482662	-15.4810905789913	-163.084010770456	
980200000	-15.0877129725095	-166.650315139234	-0.327588750245164	-69.2887887755084	-0.331539856044659	-69.3589151164004	-15.406886133107	-162.940064874766	
981900000	-15.1124761726751	-166.70589796827	-0.325367618095228	-69.488546943722	-0.321523335202629	-69.4657654109987	-15.385833369399	-163.179113245961	
983600000	-15.1206862948572	-166.909715313495	-0.330019042777449	-69.5967498249617	-0.333649920682301	-69.5727732971989	-15.4951220629411	-163.190136664954	
985300000	-15.0267766814879	-167.472061299593	-0.33644278961576	-69.7511169770814	-0.349649236747665	-69.6268340877801	-15.1934578275091	-164.07148079615	
987000000	-15.0814844610516	-167.727924087962	-0.326158969126188	-69.8439318534709	-0.339699730280363	-69.8009689064117	-15.2188189706477	-163.428072011437	
988700000	-15.1139026765459	-167.002810763232	-0.336897940998639	-69.9232140683559	-0.349186303433899	-69.8801996939802	-15.2226284934141	-163.926240096581	
990400000	-15.1361857073434	-167.267270208298	-0.321577669228572	-69.9766107927025	-0.336331666832473	-70.0424366282406	-15.2063356960043	-163.865406539811	
992100000	-15.0630214563883	-167.719089063029	-0.319609565991424	-70.1670854539651	-0.35499566499344	-70.0780538839893	-15.1231430031718	-163.287048142659	
993800000	-15.0441977490624	-167.984884222889	-0.359929307460856	-70.3226867580039	-0.34736142955072	-70.2823109081485	-15.0125961435591	-163.740668140703	
995500000	-15.0398801360817	-168.356369148207	-0.330384741671844	-70.3523639063213	-0.335475159860361	-70.4078892174733	-15.0869594934678	-163.631816253749	
997200000	-15.0240237321619	-168.418752943094	-0.333871285579576	-70.5062451007564	-0.337361708348998	-70.4866075472756	-15.1466247736557	-164.052926312993	
998900000	-15.107412689713	-168.610897110681	-0.327620545369634	-70.5222610143637	-0.354956863444189	-70.5439352493325	-15.1049558556143	-164.127823483403	
1000600000	-15.1195125582538	-169.058131846289	-0.339504498718035	-70.791347611976	-0.343209001688556	-70.7231540707288	-14.9535255189011	-164.079422682902	
1002300000	-15.0380704068998	-169.407133436009	-0.331511414446025	-70.8335339845048	-0.3507117104526	-70.806930429095	-15.073643091859	-163.835656459743	
1004000000	-15.0270000680283	-168.869087570358	-0.33194005666555	-70.9483775789591	-0.3407523669415	-70.9076179598933	-15.0430342472586	-163.874549878355	
1005700000	-15.0752525712831	-168.847573159674	-0.329828674483223	-70.9641323667068	-0.342849229528315	-71.054797433432	-15.0121473990598	-164.242068417687	
1007400000	-15.0226097834445	-169.728810305778	-0.315818556592055	-71.2169036890836	-0.353131091010325	-71.2378009483611	-15.0027981927865	-164.143099763486	
1009100000	-14.9936048893772	-169.340263327038	-0.324973172587051	-71.3054840017956	-0.360392201737693	-71.4102257460431	-15.0328541608794	-165.068249218068	
1010800000	-15.0559818527024	-170.024877369095	-0.313764976113599	-71.4336045499921	-0.335631963883651	-71.4127244622127	-15.0239095561811	-164.447384853432	
