!Keysight Technologies N9950B: A.12.38
!Date: Friday, 12 May 2023 12:02:31
!Timezone: (UTC-06:00) Central Time (US & Canada)
!Model: N9950B
!Serial: MY61131330
!GPS Latitude: 
!GPS Longitude: 
!GPS TimeStamp: 0001-01-01 00:00:00Z
!GPS Seconds Since Last Read: 0
!CHECKSUM:0781336921
!Correction: S11(ON U)S21(ON U)S12(ON U)S22(ON U)
!S2P File: Measurements:S11,S21,S12,S22:
# Hz S DB R 50
800000000	-52.7934388095607	-3.2163514964863	-0.0191014702861348	-48.1465687964592	-0.0253228744204928	-48.0654387957672	-50.3699278673973	-5.17044137467296	
801700000	-49.8881464132932	8.82130349843065	-0.015771950996196	-48.1573998240847	-0.0233633159135906	-48.2097359400518	-52.5325196646541	-40.6497458759403	
803400000	-51.9719853238207	-0.391477078928134	-0.0204975123355819	-48.3263841468454	-0.0229460245423151	-48.3322543501211	-50.1515392229808	11.3585855675163	
805100000	-47.4539305022838	-19.4463891745643	-0.0159606264058932	-48.4070518420304	-0.0215221514009216	-48.3962835044871	-52.2735331688281	-5.07534284390522	
806800000	-56.4926678243981	-23.8917856908661	-0.019341123415804	-48.4239652349943	-0.0290117525972306	-48.4730629915062	-51.2531185155905	-29.5362359493963	
808500000	-47.3418838425183	-13.7298155763205	-0.020364598468308	-48.5972107983163	-0.0261369766587528	-48.5583074645709	-47.5302596648292	0.411544256496653	
810200000	-48.1149281111197	-10.7388497263215	-0.0218795382293755	-48.7398360574799	-0.0341593430122535	-48.7417853840471	-48.3562271492389	8.60592381199485	
811900000	-50.23226250726	-16.1033936464019	-0.0231629028632084	-48.7152161607534	-0.0211031650125625	-48.7438776408779	-48.5175634443733	1.32188144023611	
813600000	-47.3778706835444	-1.31520948299565	-0.00818912828393048	-48.9757310939665	-0.0222301799042916	-49.0049399856306	-51.1491904936345	6.779621271577	
815300000	-48.4423210029453	7.68043605722816	-0.01234276585533	-49.0000691211457	-0.0383447124340568	-49.0097509669997	-53.8434810859529	24.5200844604451	
817000000	-50.6437521624547	4.372288789612	-0.0268413458564126	-49.023947200872	-0.0228598546538917	-49.0607361821831	-49.107311444408	-9.24067552603293	
818700000	-50.0750888156004	-14.721051493066	-0.0167028537557024	-49.214940376889	-0.0258681105565726	-49.2304457048767	-51.3028608036118	2.75337917498015	
820400000	-51.270061860026	-20.3052793441731	-0.0244373502754252	-49.3389386064491	-0.0243026392448625	-49.3210970815313	-47.813885833267	-24.6902743729957	
822100000	-50.3655811337686	-5.39892796324107	-0.00727123313532871	-49.2999999034335	-0.0108655507900205	-49.4640180093094	-52.5126988352306	-29.0604732157056	
823800000	-49.3873556658474	-3.21081999970071	-0.0229996363399536	-49.5436018318782	-0.0158878316142494	-49.4747285327492	-47.5549739050054	-8.82054991801466	
825500000	-52.1159639783036	-16.3129369049923	-0.0304330860731268	-49.5073926500948	-0.0143965233158594	-49.6236702002978	-49.4394295378467	11.6035922995245	
827200000	-53.0094566804137	-31.2833014380979	-0.0164173978484354	-49.775144761955	-0.00606286141241579	-49.7598117906569	-49.7915232384608	-1.57644087615557	
828900000	-49.8030416351036	5.91141810258858	-0.000972438174027564	-49.8286313154449	-0.0249343033721283	-49.826233296885	-48.8740238835988	-13.8849080676577	
830600000	-50.8244904211864	-23.8054748137444	-0.0185272244161061	-50.0204513444593	-0.0319938853994831	-49.991618419771	-49.4280590527568	-18.7657752161244	
832300000	-56.2736280738937	1.80237174834578	-0.0182305147869566	-50.0106923340752	-0.0281581287964324	-49.9305717021508	-54.3186468048882	3.92681281866318	
834000000	-50.9310166124741	3.5568701454744	-0.0178388232366161	-50.1198776319537	-0.024315772028583	-50.1535468682656	-48.4694706433349	1.26188293826926	
835700000	-48.6647546895146	15.5828650570037	-0.015519356165756	-50.1873160797571	-0.0324429068952038	-50.1515370215619	-50.5115120668459	-26.9023154155628	
837400000	-51.0630050257202	5.67795821950438	-0.0269087069693712	-50.3331124847962	-0.0177963179103271	-50.2284225164468	-49.7576290817991	3.22635842142649	
839100000	-49.4767273751155	4.66542702932546	-0.0227134881801945	-50.466086193876	-0.0277160238312674	-50.4055050781403	-48.5077300647546	-4.49288736089944	
840800000	-50.2754280745875	2.44923549467255	-0.0368353731773372	-50.581513760309	-0.029500071333737	-50.5972537002614	-47.5543116299341	13.7609230590886	
842500000	-49.1126940357934	-16.3806615411618	-0.0410572349442135	-50.5657203203863	-0.0234089689792035	-50.601488892501	-57.6749328989047	-24.9125702399368	
844200000	-47.1380078304394	-22.2584261053913	-0.0153019972158907	-50.7782546872531	-0.033559343681964	-50.7532005764355	-53.8497849969659	-0.382811910294892	
845900000	-49.654013203846	-10.4113513985732	-0.0179472767115682	-50.8254974307652	-0.0291508887793955	-50.8206032826187	-50.485011284719	-8.15760991098638	
847600000	-48.5815334624139	-17.3346141585041	-0.00685957500992835	-51.0053937142827	-0.0351334625348065	-50.8420894308852	-50.7333965130676	20.1413997650801	
849300000	-55.7563758112697	-13.5374381350097	-0.0175810351619066	-51.0588546604146	-0.0303572288137405	-51.011511546768	-45.5357715593757	16.5550531228833	
851000000	-50.5348446597457	-15.1347264519159	-0.0273864488490176	-51.1592043992563	-0.0144210456642483	-51.2644243005504	-47.8015197469466	-23.230562727146	
852700000	-49.8580575167744	-21.6872788130922	-0.01349005995366	-51.324711938277	-0.0223418309354347	-51.3146512876268	-51.3225485499975	22.1710691776488	
854400000	-50.017865328335	-10.8002375650951	-0.0370229547324906	-51.3509934780426	-0.0197783252848155	-51.3602015535275	-48.6973562675429	-13.5508919990195	
856100000	-51.4830383516269	-36.3779812295918	-0.0144642002554714	-51.4693485131977	-0.0296833464735488	-51.423987457726	-55.4929242538668	-0.28132350392238	
857800000	-49.3302187504923	-43.1094780057006	-0.0278400568109316	-51.6107402460716	-0.0260480062919599	-51.6022972380303	-49.7155639602262	33.4866295398325	
859500000	-53.1538436422922	-13.3015446242031	-0.01994673317159	-51.6107965657126	-0.0222081636852658	-51.6791568089204	-49.5613804943335	16.1150521669749	
861200000	-50.6398493449296	-9.71906621716409	-0.0313230431065946	-51.722143949964	-0.0279369657600134	-51.8283531272513	-46.4033456942124	-13.8535481907294	
862900000	-50.4875335229344	-13.6918417547886	-0.00303559704015739	-51.8857665157378	-0.0303805019410756	-51.8780303713616	-48.541700211922	-12.7234597526341	
864600000	-49.2721769527002	-16.9327146490377	-0.0114228789620803	-52.0530957576329	-0.0187421322883086	-52.0044552231748	-47.5786161867036	8.87688120696283	
866300000	-53.3136781400165	1.13246778897831	-0.029399210432091	-52.0562559470103	-0.0232434780535227	-52.0880486545401	-46.4556351085587	17.8573653858287	
868000000	-53.2213708250437	-7.15695270287295	-0.0136579997055461	-52.145230047331	-0.0356381559640369	-52.2724535398319	-47.0483386659205	-16.3931773680861	
869700000	-47.2238609937671	1.43333225583556	-0.0315936236960368	-52.2023778018534	-0.0307373410822923	-52.3025191716194	-52.8685884871474	-25.526540006159	
871400000	-49.5916024024944	-0.683465775682391	-0.0170902641414411	-52.4096539755736	-0.0285083537955374	-52.4056794885806	-50.6252899495382	-25.253525087403	
873100000	-48.5668840153099	-20.5552199518131	-0.0181291088622252	-52.4624665526768	-0.0332961861179591	-52.495101973616	-50.4116263646398	-28.1265355359902	
874800000	-50.7749941115007	1.02649812859906	-0.0206637848067289	-52.5375969454972	-0.0179676213199713	-52.6665054650717	-49.7330074820931	-8.20099139002987	
876500000	-50.508659104218	-23.9182166964125	-0.0347407738443467	-52.7632590626491	-0.0216712210775504	-52.6649581161494	-50.2695081439433	6.19167706902792	
878200000	-57.7249367254115	-28.087541450742	-0.0255171400386287	-52.732521307137	-0.0212711901823995	-52.7548199270166	-49.360549077414	6.85752224988267	
879900000	-48.0404786452851	-21.1580427448664	-0.0155156095168025	-52.9146375850273	-0.0246950050571698	-52.8347862326048	-50.884971582917	-10.7319493245105	
881600000	-46.1500663679418	4.43649876377932	0.000435598413796162	-53.031288331249	-0.0175782603580608	-52.9124734998717	-49.4984361104436	-11.986863692588	
883300000	-48.905751460268	-10.1885996829457	-0.0182797740918679	-53.1554229731315	-0.028064507842509	-53.0770527331361	-49.7742487041739	-27.1506806148084	
885000000	-51.4653028736438	-10.514753593587	-0.0295480782482561	-53.2073699299007	-0.0296732211229564	-53.1206009432767	-48.2181974373307	-0.035306503961664	
886700000	-49.525546163106	-53.1653821835499	-0.0199642340931983	-53.2695315841508	-0.0293633887218661	-53.3557936737052	-49.4104727362556	-32.9735793985952	
888400000	-51.807793749355	-20.1629788284164	-0.0160686065788569	-53.4467025341672	-0.0112873758411041	-53.3389852401608	-48.0458659530315	26.0064601150558	
890100000	-47.7569246897827	-8.20371233677955	-0.0152254071075032	-53.5154416550442	-0.0208678987279018	-53.4731033112491	-49.794825004634	2.45334087278369	
891800000	-49.0085372967438	-28.3019450120037	-0.0183908313642212	-53.6708936522753	-0.0320142196530897	-53.5705464885219	-50.2206818076107	22.5593167690504	
893500000	-50.5221981736895	-34.2158530976749	-0.0262713368741386	-53.7324413453805	-0.0308742442299509	-53.7401858335439	-47.4826355740948	-21.683240088625	
895200000	-49.3035175061404	-32.9764094135397	-0.0135231888860207	-53.8813672576695	-0.024889581116239	-53.7402359151295	-46.4734268478607	-0.407223195266481	
896900000	-49.419874352993	-19.4699350550236	-0.0295995618445702	-53.9390143393861	-0.0330059906897102	-53.8697239444839	-49.9960842769606	16.0102816503996	
898600000	-47.1398710161108	-22.5951017549419	-0.00902069442899422	-54.0825052410652	-0.0348576743233843	-54.0382797396183	-50.270099987369	-0.451459196622904	
900300000	-49.6576327415679	-3.63761329665305	-0.0158149255669493	-54.1124066010295	-0.036211614087303	-54.0890176848909	-46.7924730629622	-31.9461714277023	
902000000	-48.0949453608758	-35.4206921744192	-0.0229751862688226	-54.198300947459	-0.024432261189286	-54.2267344926674	-51.3266082202168	-16.1376144667094	
903700000	-48.2713516049496	-9.58096512541565	-0.0322902796744592	-54.2937315240891	-0.0280409025879064	-54.3356324969847	-52.1507815245979	32.9636669550165	
905400000	-51.4709326292911	-9.26060752724152	-0.0229662761949327	-54.3817036993388	-0.0243523104388022	-54.5232279076052	-49.0664590920487	-14.6637729045369	
907100000	-48.057402998262	7.65552762656332	-0.0185160341531542	-54.5153023420285	-0.0429667620369728	-54.5900524926392	-48.6455499896494	-15.1038617145627	
908800000	-55.6266397571132	-13.538036774741	-0.0218816693258324	-54.7680120646714	-0.0158660248875411	-54.5973648269989	-54.70319620143	-28.179045431827	
910500000	-49.4850918590291	-15.5612949237848	0.00165635551879435	-54.8141357284187	-0.0289872480189876	-54.6826951816001	-52.0273345988116	20.0105414824517	
912200000	-53.3761587298507	13.6698259230913	-0.0328300311979261	-54.8208283835801	-0.021517053117739	-54.871809799127	-48.2569508920203	-36.0505752710752	
913900000	-47.1019039938671	-27.6033137243279	-0.0165303599509108	-54.9923788725322	-0.0302326593249478	-54.919245946464	-48.0063411752657	-35.172085658006	
915600000	-46.2864707973141	12.4771744213969	-0.022103439078412	-55.014972771538	-0.0284965632090293	-55.0370848424606	-52.9928408138695	-30.5501705817577	
917300000	-50.010246317449	-14.2448017190909	-0.0219034817414891	-55.1441252576416	-0.0322378246480534	-55.0650875672583	-47.6450298302421	-3.14034496659225	
919000000	-51.4263071812477	-3.16437254096064	-0.0190376176156963	-55.262420738166	-0.0269164810593952	-55.2778957389041	-52.2656362571827	-48.5278692072303	
920700000	-53.0415967843251	-25.4586524777939	-0.0211749434843525	-55.4048590173145	-0.0271005197342017	-55.3764205382357	-51.6927800270454	31.1314112210507	
922400000	-49.3069246005563	2.6181590072391	-0.0367687131456093	-55.4120998216689	-0.039498909237226	-55.4656997772504	-53.3467737875796	-35.6424542354583	
924100000	-48.2301976673753	-18.4190909237427	-0.0326995858915337	-55.6177017824538	-0.0237273121419607	-55.5055305131333	-51.4248797618122	-40.138187808562	
925800000	-48.1559391737428	-19.7766309918851	-0.0210087412179104	-55.5923937698289	-0.0222807322033075	-55.6445021994193	-48.945818835294	11.2362442799921	
927500000	-49.0391325631239	-23.2593520544974	-0.0416219223152013	-55.75250735875	-0.0295163123502556	-55.7958814585958	-52.1164717971619	-19.2991576999194	
929200000	-50.0838233278655	5.37921352569812	-0.0255817877925775	-55.8887435821028	-0.0206138833714205	-55.7857474795613	-49.9450001875913	-20.8169767592166	
930900000	-48.004133034031	-1.32988627957414	-0.03016489541211	-56.0248444864924	-0.0272568190860559	-55.9516214538944	-48.0952682675143	-8.28005513945751	
932600000	-51.1506559739075	-12.9636156945481	-0.022233194332608	-56.0631149390271	-0.018968772586542	-56.0665958052437	-51.0807100285461	-26.5350434550443	
934300000	-51.0776015990524	25.1499103751287	-0.0210290092726787	-56.1604724545544	-0.030414068375921	-56.188466291924	-48.7060338555268	15.7239998627739	
936000000	-48.1288497753074	5.30301926436965	-0.0209042620503279	-56.2947950504748	-0.0298110655252595	-56.2089760673627	-49.0295491856773	-5.50530985333358	
937700000	-48.2088421543983	4.54957463441732	-0.0270992531870564	-56.3531148613561	-0.03169927891692	-56.4229667192339	-49.8637755193728	-20.4178681673541	
939400000	-49.2553675755243	-31.4895535307646	-0.0203619986298206	-56.4776501762871	-0.0273202227350879	-56.4999953855825	-47.87355087381	12.7700604474573	
941100000	-48.8890471425948	-45.3887386281229	-0.0153675554557489	-56.5948970290626	-0.0243504128315675	-56.4801644032273	-49.7109672379613	-11.740267230093	
942800000	-51.4479178210623	-12.4777250985972	-0.033169985717046	-56.6367156519734	-0.0289461237695065	-56.6644028694147	-48.3407499495246	-24.9369045577006	
944500000	-50.3478441406864	18.1363557072455	-0.0154645407024771	-56.7778972460885	-0.0128071936728539	-56.7695791451529	-53.4125539441425	19.0799046337751	
946200000	-56.2939690785169	-10.9782219517361	-0.0276297431371345	-56.9190967555147	-0.0260489254400995	-56.8298320778253	-48.4179245210079	7.29170922491043	
947900000	-54.4152111954608	-9.54466256758382	-0.0177424565926846	-56.931657885498	-0.0229529161990815	-56.9583094478143	-47.0596197802806	-36.5735110055639	
949600000	-46.9665860198459	-18.8918596813416	-0.0232715319807601	-57.0879292253808	-0.0203508991296555	-57.0334153005227	-48.0926736537062	-13.208822403508	
951300000	-52.3543119354012	16.7795069433034	-0.0195672329320827	-57.1727877008182	-0.0306934086378095	-57.2649591128056	-52.1633981563958	-21.4259948830785	
953000000	-50.2045325917322	-26.4100890431547	-0.00557670325353451	-57.2205079230611	-0.0314541078077145	-57.2160936221895	-50.5946379992151	0.160182909737103	
954700000	-50.3984343154597	-30.1564120231466	-0.0255834296107414	-57.3868312586642	-0.0311905333413573	-57.4149470062749	-48.8346606915742	-20.403590577345	
956400000	-50.3717107380353	-10.2162881256323	-0.0200280701247816	-57.4046688478265	-0.0178497498770002	-57.572121729692	-50.8776360580132	-21.163008165322	
958100000	-50.6704426325707	-4.84439646390069	-0.0207007488290762	-57.6645739901794	-0.0267131865289861	-57.5509883296108	-52.9335812983199	-32.8315060410393	
959800000	-46.6207255212932	-11.6774421882147	-0.0212227120785492	-57.7449985807461	-0.0286114908850122	-57.7467873419421	-51.2380389350031	-9.83310873938111	
961500000	-48.6545597465747	-6.85854992943124	-0.0179093243521547	-57.7941864930145	-0.0258883858190402	-57.7374278271914	-46.4582730813637	-15.0405249290471	
963200000	-54.2593150140206	-17.712501328936	-0.0260072815553673	-57.7870954582529	-0.0219916280797932	-57.8861001279456	-47.4144444408412	-13.5098538294945	
964900000	-51.261437182421	-4.98376215232213	-0.0293239992762464	-57.9773243073207	-0.0223360369751477	-57.938894720145	-46.9145228516658	-11.5492904649737	
966600000	-48.9353952304678	-37.4472474392658	-0.0196088884029706	-58.2282798442054	-0.00946793448045796	-58.054732686646	-50.086356645262	-16.3450979515071	
968300000	-53.8902185803975	-38.0501856614281	-0.0133769006823407	-58.1277382890392	-0.0310792649337099	-58.1640981505893	-47.4413375033193	-24.0967468581173	
970000000	-55.7851221848178	-51.3261498805684	-0.0194012015282341	-58.3439911411033	-0.019622875020821	-58.2729177163067	-51.9603446532376	-30.8584421396204	
971700000	-53.2686708778305	30.619620696483	-0.0193978043425724	-58.327224327687	-0.0249150941530367	-58.3814732837442	-50.8359089221189	-19.1189723371353	
973400000	-50.7573188933745	-67.256734526593	-0.0339547772222753	-58.4343338962071	-0.03053736758939	-58.6173678953376	-48.781651469677	-22.8858051137645	
975100000	-51.0605760757853	-26.2971553541729	-0.0255086642993962	-58.6093904216924	-0.0275661168933945	-58.485065576427	-46.3515063442419	-14.4490777573363	
976800000	-47.6534721679287	-11.1574053183651	-0.0089938750012378	-58.7431886100365	-0.0230744302749214	-58.6668158613101	-55.1793639987496	14.5688792055674	
978500000	-48.5978458020638	-12.6866784375186	-0.0271666906917857	-58.797790519218	-0.033469184728287	-58.831069024671	-49.3225919919235	13.9507824459458	
980200000	-53.2660429795653	-36.5554096301705	-0.0257296689356163	-58.9151738982122	-0.015375176117063	-58.8785427132045	-49.9956292490491	9.7917779616239	
981900000	-50.6921332046309	-27.487399079568	-0.0229474200408067	-59.0373792905354	-0.0160539493175382	-59.0383168727967	-49.1339765065139	6.83266398178514	
983600000	-50.3509259297182	-26.0853114607642	-0.0245780102569135	-59.1904500912913	-0.0130831806972656	-59.1406941979655	-43.7909666117828	11.6392371479103	
985300000	-55.8946214112703	-49.8699882718852	-0.0307822742249214	-59.3193684117127	-0.0253990830019019	-59.1907580652048	-61.0399779886668	74.1548277097627	
987000000	-55.4739660334872	-6.85738615541033	-0.0220170389961344	-59.3677846475407	-0.0391063232200776	-59.2669355642741	-52.3553380267192	-17.3837074761595	
988700000	-47.444646014384	-31.157011108377	-0.0214846850831941	-59.3614400887696	-0.0284806897675375	-59.4071939114363	-54.9330455303466	23.8240981279067	
990400000	-47.3959554852126	-19.2884634234521	-0.0125690011957229	-59.4641117621135	-0.0246526122345532	-59.4646209726934	-52.1559458662397	-2.63426818866501	
992100000	-49.8309656375051	-26.8134293849519	-0.0056153702551013	-59.6666748792101	-0.0316184634912007	-59.5919784171609	-51.2730199637808	-35.7902802477972	
993800000	-50.4135669412625	-33.5346201080333	-0.0477091652284302	-59.6968325691094	-0.0226047844145562	-59.7514821626345	-52.0738328243363	-58.9973291959096	
995500000	-53.199474665163	-8.54655275184387	-0.0149716665113696	-59.8409582776713	-0.0305669732090579	-59.8938878522174	-49.0132944691978	-40.1327499666835	
997200000	-52.3864299271156	-21.8245404914291	-0.023922827288514	-59.9814941254907	-0.0233432889307687	-59.8745762812142	-50.2822407319	3.42165298115249	
998900000	-48.7647713602245	-2.31651353435111	-0.0311742543983462	-60.0031545909851	-0.0378968669852773	-59.9949216944371	-51.1773168369562	-3.52927084035081	
1000600000	-48.7546483038078	3.52309747211071	-0.032227687372332	-60.1682616026292	-0.0410034194787389	-60.154726243577	-55.5441529047178	-80.3419673877315	
1002300000	-55.0379302443527	-5.99880834827764	-0.00991194105834335	-60.3498502775323	-0.0295127752581528	-60.2518432763329	-48.2826012967668	-15.6446056030685	
1004000000	-49.4282236174706	-34.1740347879861	-0.0289439309810272	-60.3123681108224	-0.0279677500737173	-60.2458412051257	-49.0362182157329	-22.6443020074065	
1005700000	-46.9906318363352	-26.5723708000737	-0.0135109080196684	-60.437452013687	-0.0270817138975885	-60.4988693072975	-51.1807799352252	-23.495189607158	
1007400000	-52.5127251818036	-12.4221623598026	-0.0241217071097115	-60.6378928216617	-0.0220091208822467	-60.5518948325449	-51.1104523695852	-22.1180344278419	
1009100000	-48.2760573968208	-42.0466002499343	-0.0231581024610909	-60.691139006758	-0.0189080381851778	-60.6460888946061	-52.3562306942905	33.6336939909433	
