%Frequency  / Hz	S1,1 Zr: 50 Ω Mag	S1,1 Zr: 50 Ω Phase / °	S2,1 Zr: 50 Ω Mag	S2,1 Zr: 50 Ω Phase / °	S1,2 Zr: 50 Ω Mag	S1,2 Zr: 50 Ω Phase / °	S2,2 Zr: 50 Ω Mag	S2,2 Zr: 50 Ω Phase / °
800000000.000000000	0.003505394	-38.027340659	1.000212552	-29.786557929	1.000162294	-29.711208342	0.005111658	164.179995608
801700000.000000000	0.003634131	-28.659546753	1.000220868	-29.828503237	1.000395698	-29.777602533	0.005033428	159.030235413
803400000.000000000	0.003782111	-20.602029611	1.000225176	-29.879666398	1.000630210	-29.819802027	0.004953384	155.289053815
805100000.000000000	0.003931755	-15.337561663	1.000254463	-29.921469961	1.000852515	-29.875831686	0.004911196	152.516144552
806800000.000000000	0.004054976	-11.648995925	1.000276844	-29.960950070	1.001066160	-29.951671357	0.004913714	151.262254480
808500000.000000000	0.004164501	-9.890565330	1.000315529	-30.001046503	1.001268083	-30.018044011	0.004968244	150.328810649
810200000.000000000	0.004246950	-10.445699469	1.000389727	-30.050119744	1.001493869	-30.083921915	0.005066093	149.044309463
811900000.000000000	0.004319627	-12.838835358	1.000462650	-30.103576122	1.001683694	-30.151911453	0.005197880	147.999854819
813600000.000000000	0.004395466	-12.935904549	1.000567736	-30.156756156	1.001867127	-30.219967244	0.005353769	146.431678938
815300000.000000000	0.004421597	-13.781207223	1.000701964	-30.205031078	1.002018810	-30.287120965	0.005553614	145.517010921
817000000.000000000	0.004441668	-15.413297388	1.000769104	-30.261511464	1.002052746	-30.356789420	0.005753433	144.831779285
818700000.000000000	0.004446000	-18.014236770	1.000882599	-30.312072396	1.002032728	-30.434146191	0.006015779	144.433224140
820400000.000000000	0.004437632	-20.813387257	1.001037948	-30.366834700	1.001980613	-30.508145932	0.006285911	144.420507335
822100000.000000000	0.004371382	-24.093554737	1.001154003	-30.427831296	1.001959356	-30.585257618	0.006575627	144.558087192
823800000.000000000	0.004311065	-27.831326049	1.001243307	-30.484587973	1.001922284	-30.665032897	0.006879375	144.862737209
825500000.000000000	0.004245809	-31.320193997	1.001309456	-30.544367919	1.001917443	-30.736033111	0.007183723	145.129684807
827200000.000000000	0.004166878	-34.939898216	1.001348273	-30.602241104	1.001757617	-30.819396266	0.007487905	145.388421227
828900000.000000000	0.004134455	-38.132171509	1.002035189	-30.670552637	1.001611141	-30.901867024	0.007733378	145.279121602
830600000.000000000	0.004214737	-41.039670337	1.004647150	-30.752950053	1.001473454	-30.978407819	0.007765756	144.573443218
832300000.000000000	0.004398141	-43.267378461	1.008292742	-30.828591582	1.001248282	-31.051464969	0.007641356	143.173549861
834000000.000000000	0.004620147	-44.762601206	1.011811373	-30.877266650	1.001093644	-31.126459474	0.007334216	140.681731299
835700000.000000000	0.004875046	-45.607154279	1.014072049	-30.917963858	1.000809000	-31.197109139	0.006935461	138.178354467
837400000.000000000	0.005073025	-45.949980341	1.014218389	-30.985583710	1.000551696	-31.261167852	0.006425841	136.349909982
839100000.000000000	0.005133865	-40.094053053	1.013961817	-31.056946409	1.000306735	-31.308933174	0.005725236	139.875437071
840800000.000000000	0.005248004	-34.211108842	1.013695697	-31.134119940	1.000111152	-31.357102763	0.005005320	145.156159435
842500000.000000000	0.005393801	-28.727837372	1.013415090	-31.202530778	0.999941797	-31.401699360	0.004479931	151.904092163
844200000.000000000	0.005572128	-23.175930448	1.013061702	-31.272626130	0.999979583	-31.446597392	0.004075112	158.731873451
845900000.000000000	0.005772341	-18.013832493	1.012691834	-31.336826511	1.000026798	-31.490463428	0.003733255	166.236471975
847600000.000000000	0.006029442	-12.817246784	1.012288470	-31.393070029	1.000019510	-31.523962394	0.003459767	173.201784497
849300000.000000000	0.006310810	-7.737802694	1.011905602	-31.454443654	1.000068847	-31.559914707	0.003225952	-179.875220930
851000000.000000000	0.006594925	-3.034760565	1.011510746	-31.513323957	1.000141565	-31.593984467	0.003017168	-173.073512873
852700000.000000000	0.006896542	1.401889931	1.011137695	-31.577043045	1.000226895	-31.617089999	0.002844619	-166.813775841
854400000.000000000	0.007088749	5.007393256	1.010174735	-31.637758903	1.000221801	-31.642246544	0.002710312	-160.871773501
856100000.000000000	0.007069240	8.429081288	1.007429878	-31.679664678	1.000158600	-31.672774165	0.002624254	-154.809822295
857800000.000000000	0.006923317	11.345703126	1.003726533	-31.732739476	1.000108242	-31.702700924	0.002568756	-149.099027732
859500000.000000000	0.006738142	13.782522144	1.000210481	-31.812924538	0.999979198	-31.733716233	0.002536039	-142.805580901
861200000.000000000	0.006554272	15.901170594	0.997954964	-31.901058169	0.999868434	-31.773163576	0.002536169	-136.542497667
862900000.000000000	0.006462967	17.765573711	0.997905549	-31.963264192	0.999759895	-31.819317605	0.002575682	-131.482389794
864600000.000000000	0.006531015	13.745565557	0.998208050	-32.024251250	0.999588836	-31.879127990	0.002692881	-132.515378297
866300000.000000000	0.006537344	9.795632820	0.998544927	-32.085796080	0.999311764	-31.938566392	0.002841626	-136.546859176
868000000.000000000	0.006493135	6.223512370	0.998871826	-32.150583648	0.999052377	-32.000598084	0.002950539	-143.590594163
869700000.000000000	0.006399532	3.374565604	0.999204554	-32.216458241	0.998690646	-32.062249918	0.002984078	-151.682074058
871400000.000000000	0.006261698	0.820505593	0.999518672	-32.290783757	0.998261274	-32.130560656	0.003025286	-161.015161990
873100000.000000000	0.006054406	-1.085128557	0.999816230	-32.367511178	0.997881784	-32.203217347	0.003050693	-170.982778422
874800000.000000000	0.006047952	-2.149514574	1.000070873	-32.438873902	0.997445299	-32.278187398	0.003102936	178.099692772
876500000.000000000	0.006152127	-3.243543964	1.000253914	-32.508881784	0.997042086	-32.360478984	0.003210157	166.622823961
878200000.000000000	0.006293868	-4.008109317	1.000321096	-32.573390992	0.996674850	-32.444034888	0.003315487	155.517380879
879900000.000000000	0.006500576	-4.188042415	1.000432141	-32.632607615	0.996379797	-32.526392546	0.003438268	145.035462111
881600000.000000000	0.006758927	-4.228003999	1.000369012	-32.698024190	0.996126704	-32.602576361	0.003582254	135.223246954
883300000.000000000	0.007065920	-4.231318113	1.000353831	-32.759927798	0.995893055	-32.682939628	0.003744076	126.613781395
885000000.000000000	0.007447180	-4.075471013	1.000283899	-32.815675751	0.995742788	-32.761934928	0.003935483	118.334458505
886700000.000000000	0.007884796	-3.856328671	1.000082983	-32.869018288	0.995679359	-32.832699796	0.004114126	110.205868647
888400000.000000000	0.008390800	-3.671478797	0.999888465	-32.920032098	0.995594185	-32.903677153	0.004299585	102.689431657
890100000.000000000	0.008953050	-3.397998042	0.999707242	-32.964729599	0.995563639	-32.969569159	0.004521900	95.945302237
891800000.000000000	0.009582992	-3.245862800	0.999506465	-33.009019878	0.995519021	-33.037497018	0.004769356	90.270223687
893500000.000000000	0.010294053	-3.223674913	0.999395881	-33.051025457	0.995567455	-33.110130260	0.004992310	85.952959456
895200000.000000000	0.011077448	-3.810490364	0.999330570	-33.094603158	0.995584461	-33.174611418	0.005268398	82.825503469
896900000.000000000	0.011903504	-4.537514897	0.999242639	-33.134555985	0.995637901	-33.234641952	0.005478010	80.174634702
898600000.000000000	0.012807159	-5.839141277	0.999219302	-33.173412726	0.995734978	-33.297718543	0.005705627	78.768586536
900300000.000000000	0.013195459	-8.072101034	0.999244989	-33.219602396	0.995831059	-33.352406539	0.005826315	78.328611962
902000000.000000000	0.013116801	-10.345046460	0.999393027	-33.269871149	0.995900260	-33.409424182	0.005897352	78.668480456
903700000.000000000	0.012764419	-13.027107547	0.999554839	-33.330815552	0.996002736	-33.472065904	0.005998801	79.474015494
905400000.000000000	0.012154585	-16.333161956	0.999566407	-33.395777927	0.996159984	-33.543582164	0.006121728	80.744206962
907100000.000000000	0.011431632	-20.104947960	0.999629162	-33.467408411	0.996325330	-33.622508394	0.006289479	82.750076572
908800000.000000000	0.010592188	-24.202802908	0.999536901	-33.539950951	0.996543474	-33.709955242	0.006452418	85.273524132
910500000.000000000	0.009729491	-27.218684809	0.999484344	-33.612907483	0.996693241	-33.790389412	0.006575725	88.037693503
912200000.000000000	0.008922793	-29.690177545	0.999593985	-33.686589742	0.996886371	-33.873542231	0.006696447	90.875415405
913900000.000000000	0.008188572	-30.798469259	0.999506431	-33.765143274	0.997029423	-33.956770194	0.006771903	93.659479161
915600000.000000000	0.007575361	-31.159734011	0.999457665	-33.838897129	0.997198859	-34.042376844	0.006806966	96.435841376
917300000.000000000	0.007081632	-30.799727231	0.999323773	-33.909314714	0.997421069	-34.125662237	0.006842417	99.263461178
919000000.000000000	0.006670556	-29.897684076	0.999200916	-33.977746277	0.997545048	-34.202931033	0.006790626	102.728385937
920700000.000000000	0.006340002	-28.485509257	0.999112948	-34.044101804	0.997703105	-34.280042323	0.006723957	105.984083470
922400000.000000000	0.006090972	-26.626067660	0.999037360	-34.107248994	0.997819109	-34.355642803	0.006645784	109.606115063
924100000.000000000	0.005926579	-24.482334910	0.998961007	-34.168096700	0.997917574	-34.430731558	0.006523976	113.657571011
925800000.000000000	0.005824814	-20.983459965	0.999061085	-34.233642909	0.994746603	-34.536927881	0.006420854	118.769970208
927500000.000000000	0.005847562	-16.145325015	0.999289946	-34.302453048	0.988435275	-34.652347929	0.006364894	125.335846070
929200000.000000000	0.006021902	-10.445003879	0.999743404	-34.365422004	0.979772685	-34.755848932	0.006351401	132.209170728
930900000.000000000	0.006338061	-3.761385010	1.000367472	-34.424117329	0.969507341	-34.839416233	0.006344989	138.969615403
932600000.000000000	0.006774966	3.790949315	1.001010217	-34.476425328	0.958364075	-34.899960310	0.006362709	145.488728995
934300000.000000000	0.007342134	11.949962632	1.001642844	-34.527124341	0.947132271	-34.929745632	0.006388011	151.621908850
936000000.000000000	0.007989632	19.279602779	1.002202936	-34.577265150	0.936450483	-34.946639087	0.006472533	157.606686337
937700000.000000000	0.008635435	26.065535150	1.002577752	-34.632383186	0.926873212	-34.946297814	0.006541260	163.534226313
939400000.000000000	0.009248516	31.309448587	1.002969610	-34.690618683	0.919163205	-34.927987530	0.006623526	169.279104614
941100000.000000000	0.009759795	35.313565909	1.003117361	-34.752544603	0.913969546	-34.915460987	0.006686948	174.679253744
942800000.000000000	0.010115104	37.782567072	1.003139166	-34.818680260	0.911831368	-34.920329019	0.006735925	179.432456887
944500000.000000000	0.010505131	37.858312168	1.002980381	-34.887899112	0.911796296	-34.972202720	0.006184558	179.026696370
946200000.000000000	0.010677638	37.513066872	1.002970270	-34.961626563	0.911883414	-35.025133801	0.005783688	-174.166046977
947900000.000000000	0.010529756	37.070531864	1.003122063	-35.036694092	0.911984282	-35.085896295	0.005610219	-166.261005006
949600000.000000000	0.010244522	36.568825773	1.003254757	-35.118513793	0.912177601	-35.143103931	0.005593722	-158.314012647
951300000.000000000	0.009962306	35.360524890	1.003144797	-35.192455396	0.915252689	-35.171593760	0.005617015	-151.687462321
953000000.000000000	0.009644265	33.036764890	1.002812026	-35.259727519	0.921285247	-35.182484865	0.005615234	-146.251052164
954700000.000000000	0.009265235	30.194521397	1.002323751	-35.327575137	0.929576772	-35.201189887	0.005558131	-141.394140068
956400000.000000000	0.008842806	26.809307292	1.001693503	-35.396221389	0.939589704	-35.231690752	0.005460445	-136.774229301
958100000.000000000	0.008392854	22.993357584	1.001002845	-35.463949450	0.950669075	-35.285813698	0.005312232	-132.182061325
959800000.000000000	0.007948986	19.168469972	1.000374774	-35.526443092	0.962098388	-35.362960062	0.005132794	-127.593814794
961500000.000000000	0.007548028	14.838846664	0.999739655	-35.594505637	0.973251039	-35.457188881	0.004919313	-122.379717696
963200000.000000000	0.007211350	10.652393667	0.999182726	-35.655883743	0.983459101	-35.572411954	0.004705511	-117.500046710
964900000.000000000	0.006947605	6.513439958	0.998687680	-35.716481776	0.991908089	-35.699765524	0.004448517	-111.620097873
966600000.000000000	0.006766921	2.781091609	0.998349593	-35.775561073	0.997718891	-35.828132201	0.004195663	-105.122037081
968300000.000000000	0.006630668	0.026611941	0.998259051	-35.833112055	1.000233223	-35.938960815	0.003903056	-97.330630938
970000000.000000000	0.006447531	-1.012459224	0.998344878	-35.890499292	1.000496480	-36.001044021	0.003898043	-83.141752123
971700000.000000000	0.006371278	-2.181147253	0.998215115	-35.946386305	1.000598858	-36.068244779	0.003696606	-71.378834508
973400000.000000000	0.006437098	-3.693377079	0.998034654	-36.009032033	1.000707588	-36.127826665	0.003477940	-59.214535092
975100000.000000000	0.006538655	-5.808488113	0.997968419	-36.067822180	1.000641294	-36.190395275	0.003149365	-44.839413715
976800000.000000000	0.006611569	-8.185961621	0.997932684	-36.130894060	1.000712626	-36.253863252	0.002909602	-29.634323868
978500000.000000000	0.006674125	-10.903868864	0.997996225	-36.196769790	1.000777400	-36.314075319	0.002661674	-14.137447152
980200000.000000000	0.006740927	-13.892942896	0.998037285	-36.263926349	1.000830786	-36.374922397	0.002481489	2.601852631
981900000.000000000	0.006781085	-16.811611593	0.998056476	-36.332991776	1.000818663	-36.434526504	0.002341557	19.622597362
983600000.000000000	0.006828903	-19.531260345	0.998037527	-36.399256435	1.000832998	-36.492725324	0.002246472	36.993413130
985300000.000000000	0.006867222	-22.334085087	0.998000071	-36.470381442	1.000829652	-36.549089319	0.002181527	54.719989438
987000000.000000000	0.006903242	-24.651245577	0.998002205	-36.540087357	1.000752900	-36.610481870	0.002152666	72.268010978
988700000.000000000	0.006932703	-27.000697276	0.998008123	-36.613310044	1.000660962	-36.665604059	0.002134684	90.174044370
990400000.000000000	0.006937908	-29.029512488	0.997957973	-36.678909511	1.000537651	-36.728937184	0.002169574	107.404116846
992100000.000000000	0.006923845	-30.851959105	0.997934465	-36.750691515	1.000455000	-36.786940126	0.002232666	124.410387010
993800000.000000000	0.006912000	-32.625736204	0.997935128	-36.822179115	1.000326814	-36.846147910	0.002342437	140.945498526
995500000.000000000	0.006907905	-34.150748593	0.997873928	-36.898712446	1.000187543	-36.908239428	0.002547265	155.968597095
997200000.000000000	0.006930141	-35.466662763	0.997818080	-36.971300475	1.000035329	-36.971477379	0.002853648	166.144749722
998900000.000000000	0.007007891	-36.700455939	0.997573343	-37.038549998	0.999889214	-37.032945233	0.003087648	174.125326872
1000600000.000000000	0.007124136	-37.518118884	0.997204535	-37.103511029	0.999820493	-37.098852559	0.003350654	178.844904513
1002300000.000000000	0.007294423	-38.562273503	0.996820115	-37.166825097	0.999715645	-37.161919172	0.003468371	-178.286910341
1004000000.000000000	0.007469344	-39.320479227	0.996420683	-37.228617927	0.999631502	-37.235086325	0.003587397	-177.182328022
1005700000.000000000	0.007632986	-40.000167092	0.996019975	-37.291346693	0.999517355	-37.299648284	0.003632632	-178.525465242
1007400000.000000000	0.007844398	-40.615987691	0.995777224	-37.349474633	0.999444795	-37.368449502	0.003624696	179.424245039
1009100000.000000000	0.008039332	-41.338773772	0.995570392	-37.411954347	0.999338495	-37.436887181	0.003581694	175.973543818
1010800000.000000000	0.008255313	-42.311376660	0.995424636	-37.475256684	0.999284773	-37.501590333	0.003557882	171.720467982
1012500000.000000000	0.008433813	-43.476851271	0.995473886	-37.538402498	0.999322635	-37.565640327	0.003466629	166.849772882
1014200000.000000000	0.008605456	-44.723757395	0.995609659	-37.602548972	0.999390916	-37.632539520	0.003394654	161.690428015
1015900000.000000000	0.008724066	-45.968159559	0.995861104	-37.670399137	0.999455904	-37.697449727	0.003302410	156.489372843
1017600000.000000000	0.008684881	-47.064906775	0.996268836	-37.733719941	0.999534954	-37.763399953	0.003202534	151.744395497
1019300000.000000000	0.008482906	-46.678083396	0.996799508	-37.789775374	0.999678522	-37.829319751	0.003077562	147.421199793
1021000000.000000000	0.008175433	-44.283407963	0.997436452	-37.843477679	0.999777856	-37.900603075	0.002970763	143.235298721
1022700000.000000000	0.007862268	-41.284191659	0.998016921	-37.897424774	0.999880607	-37.965503752	0.002906542	138.719402860
1024400000.000000000	0.007504660	-37.729528253	0.998658856	-37.949540014	0.999941656	-38.032507244	0.002906908	134.398482903
1026100000.000000000	0.007165614	-33.462456398	0.999342883	-38.004411847	0.999931381	-38.092095511	0.002950558	130.327370968
1027800000.000000000	0.006856594	-28.622976968	0.999959451	-38.060080189	0.999820352	-38.156826297	0.003090496	127.288456747
1029500000.000000000	0.006569258	-23.711851338	1.000565458	-38.111309162	0.999710739	-38.216660654	0.003260356	125.234626226
1031200000.000000000	0.006314239	-18.718548875	1.001149460	-38.161430538	0.999604475	-38.283743196	0.003431836	124.171121647
1032900000.000000000	0.006079337	-13.794753947	1.001581934	-38.217405045	0.999447030	-38.346303162	0.003628271	123.196278408
1034600000.000000000	0.005863357	-9.121898700	1.001974414	-38.264448571	0.999316172	-38.413065431	0.003798314	122.720488707
1036300000.000000000	0.005675273	-4.541836714	1.002330741	-38.315788495	0.999097360	-38.483581856	0.003929317	122.594432900
1038000000.000000000	0.005512020	-0.326351619	1.002463700	-38.363798759	0.998880139	-38.549117881	0.004116928	122.439218084
1039700000.000000000	0.005384079	3.670081318	1.002492941	-38.417327953	0.998603641	-38.616497894	0.004273344	122.477541433
1041400000.000000000	0.005306728	7.257753420	1.002510898	-38.465878843	0.998438270	-38.679682869	0.004437041	122.306320842
1043100000.000000000	0.005330098	10.226771819	1.002388031	-38.518452406	0.998268458	-38.741622861	0.004604074	121.238847859
1044800000.000000000	0.005579979	12.241131544	1.003007858	-38.598275658	0.999716583	-38.870518130	0.004730190	118.950799368
1046500000.000000000	0.006225625	13.162806715	1.006839762	-38.713076713	1.007797547	-39.125591822	0.004816491	109.379289204
1048200000.000000000	0.007041696	13.748314789	1.012579162	-38.801630082	1.020574427	-39.274826478	0.005121337	98.467119701
1049900000.000000000	0.007923158	13.931613725	1.018214688	-38.833849512	1.032958009	-39.220694699	0.005427900	87.382449879
1051600000.000000000	0.008591410	12.617401856	1.021713708	-38.847719020	1.040192124	-39.102504847	0.005593467	75.634509629
1053300000.000000000	0.008936616	6.759318478	1.021688617	-38.914298692	1.040558469	-39.154014997	0.005461787	60.720883609
1055000000.000000000	0.008962489	2.042683252	1.021394045	-38.985125962	1.040516942	-39.219696018	0.005453978	38.250086222
1056700000.000000000	0.008900670	-3.099970586	1.021132236	-39.053505572	1.040497411	-39.283449562	0.005467763	15.554731085
1058400000.000000000	0.008750994	-8.303679701	1.020904419	-39.121545115	1.040471953	-39.350530503	0.005479380	-6.911957162
1060100000.000000000	0.008594454	-13.515831440	1.020709416	-39.195819301	1.040449347	-39.413926445	0.005502801	-29.298227505
1061800000.000000000	0.008361636	-18.755794998	1.020516601	-39.266563327	1.040596367	-39.476741712	0.005551355	-51.986786006
1063500000.000000000	0.008083697	-23.515936863	1.020345335	-39.344053488	1.040714659	-39.546195828	0.005575595	-74.714988189
1065200000.000000000	0.007688942	-28.221438196	1.020271926	-39.415611143	1.040946044	-39.613606594	0.005634378	-97.391225281
1066900000.000000000	0.007294899	-32.600020323	1.020106483	-39.494331964	1.041109413	-39.681400554	0.005684517	-119.961571145
1068600000.000000000	0.006823940	-36.776383234	1.019898228	-39.572702994	1.041274717	-39.754220811	0.005756172	-142.287297588
1070300000.000000000	0.006109179	-46.904243381	1.018879818	-39.633540147	1.039766837	-39.760731794	0.005934939	-164.007968397
