!Keysight Technologies N9950B: A.12.38
!Date: Monday, 27 February 2023 17:47:31
!Timezone: (UTC-06:00) Central Time (US & Canada)
!Model: N9950B
!Serial: MY61131330
!GPS Latitude: 
!GPS Longitude: 
!GPS TimeStamp: 0001-01-01 00:00:00Z
!GPS Seconds Since Last Read: 0
!CHECKSUM:0763983349
!Correction: S11(ON U*)S21(ON U*)S12(ON U*)S22(ON U*)
!S2P File: Measurements:S11,S21,S12,S22:
# Hz S DB R 50
800000000	-49.1052643219727	-38.0273406591679	0.00184600692492873	-29.7865579293844	0.00140955149052862	-29.7112083416185	-45.8287638683074	164.179995607774	
801700000	-48.7919874908237	-28.6595467530436	0.00191822585838596	-29.8285032373797	0.00343631224140497	-29.7776025329855	-45.9627231742109	159.030235413395	
803400000	-48.4453147556052	-20.602029610594	0.00195563303596705	-29.8796663975356	0.00547220908304828	-29.8198020271637	-46.1019605914172	155.289053814666	
805100000	-48.1082707557502	-15.3375616627678	0.00220995394557465	-29.9214699610143	0.00740169701042904	-29.8758316855793	-46.1762546906016	152.516144552456	
806800000	-47.8402351231521	-11.6489959247623	0.00240430256273368	-29.9609500696587	0.00925561615109231	-29.9516713573617	-46.1718026932044	151.26225448045	
808500000	-47.6087407442128	-9.89056532987973	0.00274022070002889	-30.0010465028523	0.0110074538327663	-30.0180440106847	-46.075941300401	150.328810648784	
810200000	-47.4384561173154	-10.4456994689929	0.00338446258427418	-30.0501197442633	0.0129658969150499	-30.0839219154538	-45.9065371353323	149.044309462689	
811900000	-47.2910754868444	-12.8388353576005	0.00401760175311126	-30.1035761218737	0.014612086701438	-30.151911453397	-45.6834756766659	147.999854819282	
813600000	-47.1399006404139	-12.9359045492765	0.00492989689053393	-30.1567561555199	0.0162025368050185	-30.2199672442276	-45.426808158901	146.431678938368	
815300000	-47.088416358647	-13.7812072234685	0.00609504455770185	-30.2050310783811	0.0175174863980166	-30.2871209648804	-45.1084867894516	145.517010921331	
817000000	-47.0490790809233	-15.4132973879788	0.00667778578208962	-30.2615114640334	0.0178116540507745	-30.3567894198476	-44.8014594225686	144.831779284966	
818700000	-47.0406104013367	-18.0142367697349	0.00766278042181905	-30.3120723959341	0.0176381265532345	-30.4341461912185	-44.4141632365933	144.433224140165	
820400000	-47.0569740370826	-20.8133872567992	0.00901082834378246	-30.3668346997276	0.0171863741929803	-30.5081459322762	-44.0326354398218	144.420507335058	
822100000	-47.1876238705161	-24.0935547372608	0.0100177629397346	-30.4278312959291	0.0170021004692638	-30.5852576184419	-43.641256279065	144.558087191551	
823800000	-47.3083089229857	-27.8313260493014	0.0107925199781359	-30.4845879728803	0.0166807167050489	-30.6650328969985	-43.2490209109809	144.862737208524	
825500000	-47.440791525886	-31.3201939974696	0.0113663474270795	-30.5443679186081	0.0166387471522989	-30.7360331114741	-42.873008830317	145.129684806911	
827200000	-47.6037839827828	-34.939898215773	0.0117030630854076	-30.6022411037686	0.0152530697102687	-30.8193962657238	-42.5127935958849	145.388421226515	
828900000	-47.6716351560399	-38.1321715091732	0.0176594640558096	-30.6705526371686	0.0139829302297452	-30.9018670242141	-42.2326149774133	145.279121601549	
830600000	-47.5045911817573	-41.0396703374163	0.0402711308855981	-30.7529500527052	0.0127888390865205	-30.9784078193996	-42.1963251976489	144.573443217675	
832300000	-47.1346164774385	-43.2673784610907	0.0717328164372037	-30.8285915822116	0.0108356821534425	-31.0514649685784	-42.336590907647	143.173549861365	
834000000	-46.7068836478973	-44.7626012062469	0.101991137360889	-30.877266649878	0.00949408100154187	-31.1264594742016	-42.6929266545881	140.681731298634	
835700000	-46.2404254004741	-45.6071542786815	0.121376248099839	-30.9179638581695	0.00702404565375979	-31.1971091391214	-43.1784936688529	138.178354466734	
837400000	-45.8946606242404	-45.9499803414981	0.122629611786876	-30.9855837104706	0.00479065138210615	-31.2611678518988	-43.8414003673859	136.349909982372	
839100000	-45.7911115443059	-40.0940530526288	0.120432021352174	-31.0569464093502	0.00266385803107839	-31.3089331740168	-44.8441315391387	139.875437070877	
840800000	-45.6001161873934	-34.2111088416044	0.118152059780155	-31.1341199404171	0.000965401551816928	-31.3571027631692	-46.0113626367351	145.156159434999	
842500000	-45.3621015119616	-28.727837371723	0.115747335681135	-31.202530778255	-0.000505562703547249	-31.4016993596729	-46.9745735341942	151.904092162541	
844200000	-45.0795786057326	-23.1759304477804	0.112717950705566	-31.2726261296151	-0.000177340883749058	-31.446597392194	-47.797209044409	158.731873451202	
845900000	-44.7729597792435	-18.0138324926616	0.109546159895498	-31.3368265113956	0.000232762648016774	-31.490463428313	-48.5582475764411	166.236471975098	
847600000	-44.3944577046887	-12.8172467844358	0.106085803727398	-31.3930700292171	0.000169457584637224	-31.5239623937632	-49.2190632967255	173.201784497196	
849300000	-43.998298473	-7.73780269398866	0.102800006498435	-31.4544436536615	0.000597978515965309	-31.5599147074096	-49.8268410037086	-179.875220929504	
851000000	-43.6158030192818	-3.03476056457237	0.0994100178847999	-31.5133239572213	0.00122952673079438	-31.593984467148	-50.4080111033582	-173.073512872635	
852700000	-43.2273724248054	1.40188993057266	0.0962060214451379	-31.5770430445815	0.00197056282350706	-31.6170899988156	-50.9195185054726	-166.81377584092	
854400000	-42.9886081625312	5.00739325649771	0.0879300493358321	-31.6377589029799	0.00192632796714224	-31.6422465442025	-51.3396132311314	-160.871773500781	
856100000	-43.0125460466873	8.42908128778414	0.064296533858709	-31.6796646784394	0.00137747031775948	-31.6727741652971	-51.6198821669127	-154.80982229523	
857800000	-43.1937158295343	11.3457031261381	0.0323080969318414	-31.7327394762986	0.000940124979428588	-31.7027009241557	-51.805544044084	-149.099027731562	
859500000	-43.4291971464365	13.7825221439128	0.00182801956413408	-31.8129245376844	-0.000180689468284108	-31.7337162325132	-51.916882042437	-142.805580900856	
861200000	-43.6695106902837	15.9011705937678	-0.0177811422098767	-31.9010581688109	-0.00114283986699548	-31.7731635760033	-51.9164370326358	-136.542497667187	
862900000	-43.7913618697469	17.7655737105143	-0.0182112448002157	-31.9632641924649	-0.00208577368203252	-31.8193176048545	-51.7821566270849	-131.48238979439	
864600000	-43.7003858958146	13.7455655565134	-0.0155786418297586	-32.0242512498116	-0.00357205619819973	-31.8791279904963	-51.3956573983112	-132.515378296783	
866300000	-43.6919732403735	9.79563282044231	-0.0126478063910371	-32.085796080076	-0.00597999617413218	-31.9385663915027	-50.9286621289681	-136.546859175524	
868000000	-43.7509111968288	6.22351237005702	-0.00980472704451853	-32.1505836478863	-0.00823485121771286	-32.0005980841656	-50.6019715643083	-143.590594163495	
869700000	-43.8770353213135	3.37456560414395	-0.00691190121789928	-32.2164582412576	-0.0113803594524342	-32.0622499182184	-50.5037970898994	-151.682074057911	
871400000	-44.0661578744994	0.820505592946501	-0.00418176497141534	-32.290783757297	-0.0151155256338048	-32.1305606557169	-50.3846726490543	-161.015161990198	
873100000	-44.3585685589946	-1.08512855717603	-0.00159635606758308	-32.3675111782239	-0.0184180998816897	-32.2032173465543	-50.3120310173747	-170.982778421776	
874800000	-44.3678327172247	-2.14951457378376	0.000615571250231483	-32.4388739022156	-0.02221824253251	-32.2781873979106	-50.164544901902	178.099692771943	
876500000	-44.2194939431565	-3.24354396401002	0.00220518822801841	-32.5088817836724	-0.0257301907344741	-32.3604789841049	-49.8694748947552	166.622823960913	
878200000	-44.0216473360553	-4.00810931679742	0.00278855540806161	-32.5733909919042	-0.0289300143551869	-32.4440348880601	-49.5890522635574	155.517380879478	
879900000	-43.7409637862478	-4.18804241504269	0.0037527164321672	-32.632607615221	-0.0315017352542287	-32.5263925457542	-49.2732060416813	145.035462110779	
881600000	-43.4024451054141	-4.22800399940667	0.00320460582014554	-32.6980241899401	-0.0337083481547467	-32.602576360801	-48.9168726130365	135.22324695383	
883300000	-43.016625795109	-4.2313181134742	0.0030727917396424	-32.7599277978673	-0.0357459282019237	-32.6829396279836	-48.5331071606345	126.61378139474	
885000000	-42.5601625518897	-4.07547101318266	0.0024655660772705	-32.8156757505554	-0.0370566058620951	-32.7619349278339	-48.1000392069991	118.334458504614	
886700000	-42.0641909232015	-3.85632867105572	0.000720753156460386	-32.8690182882241	-0.0376099224232848	-32.8326997958643	-47.7144472206055	110.205868646782	
888400000	-41.5239323083142	-3.67147879671559	-0.000968837679205687	-32.9200320979166	-0.03835297226433	-32.9036771531621	-47.3314690123398	102.689431657274	
890100000	-40.9605800171379	-3.39799804163047	-0.00254323869368502	-32.9647295988353	-0.038619474535119	-32.9695691587532	-46.8935816112794	95.9453022365546	
891800000	-40.3699776896078	-3.24586280007255	-0.00428785148915668	-33.0090198784228	-0.0390087537970131	-33.0374970176252	-46.4308052539811	90.2702236871886	
893500000	-39.7482722893267	-3.22367491281852	-0.00524890023488813	-33.0510254565737	-0.0385861813209017	-33.1101302596813	-46.0339685680781	85.9529594556002	
895200000	-39.111205950306	-3.81049036365968	-0.00581654381360732	-33.0946031583558	-0.0384378084848822	-33.1746114181323	-45.5664279856751	82.8255034685672	
896900000	-38.4865034362024	-4.53751489708793	-0.00658084867817553	-33.1345559851461	-0.0379715895558842	-33.2346419518876	-45.2275438812478	80.1746347019223	
898600000	-37.8509437202604	-5.83914127691419	-0.0067837026826835	-33.1734127259137	-0.0371247331360938	-33.2977185425169	-44.8739322264291	78.7685865356417	
900300000	-37.5915101093491	-8.07210103441213	-0.00656042100618478	-33.2196023962825	-0.0362866488159842	-33.3524065388226	-44.6921208061043	78.3286119622278	
902000000	-37.6434410793682	-10.345046459771	-0.00527369797659151	-33.269871148635	-0.0356830806170711	-33.4094241824608	-44.5868583325086	78.668480455935	
903700000	-37.8799787015917	-13.0271075466814	-0.00386748447185338	-33.330815551798	-0.0347893678096229	-33.4720659044047	-44.4387105402249	79.4740154942108	
905400000	-38.30519720346	-16.3331619562488	-0.00376696081247196	-33.3957779269489	-0.0334181558201995	-33.5435821640693	-44.2625199280438	80.7442069617173	
907100000	-38.8378353990366	-20.1049479600104	-0.00322165817644876	-33.4674084107466	-0.0319765684488262	-33.6225083939403	-44.0277070372715	82.7500765721218	
908800000	-39.5002865119561	-24.202802907663	-0.00402336232772193	-33.5399509506181	-0.0300750081962224	-33.7099552416328	-43.8055498817093	85.2735241316577	
910500000	-40.2381972287504	-27.2186848093069	-0.0044800857303104	-33.6129074829518	-0.0287697415260719	-33.7903894116145	-43.6411273843501	88.0376935030647	
912200000	-40.989983463098	-29.690177544593	-0.00352732002503471	-33.6865897423285	-0.0270868283896037	-33.8735422313629	-43.4831106455611	90.8754154045506	
913900000	-41.735836495608	-30.7984692588228	-0.00428814253197387	-33.7651432740766	-0.0258404995472027	-33.956770193716	-43.3857850609435	93.659479160644	
915600000	-42.411933589879	-31.1597340105509	-0.00471193837800216	-33.8388971291837	-0.0243645379704869	-34.0423768442165	-43.3409285580225	96.4358413755572	
917300000	-42.9973332767515	-30.7997272314298	-0.00587562275729719	-33.9093147138149	-0.022429241243462	-34.1256622373637	-43.2958097340087	99.2634611782929	
919000000	-43.5167597027882	-29.8976840755105	-0.00694352836266792	-33.9777462774836	-0.0213496591131905	-34.2029310329339	-43.3618039959379	102.728385937389	
920700000	-43.9582117003371	-28.4855092566588	-0.00770825550369824	-34.0441018039974	-0.0199735230378153	-34.2800423234632	-43.4475014880813	105.984083469929	
922400000	-44.3062683201847	-26.6260676598135	-0.00836541503501639	-34.1072489939829	-0.0189636632942443	-34.355642802755	-43.5490752169746	109.606115063104	
924100000	-44.5439187767551	-24.4823349102774	-0.0090292732727311	-34.1680966995809	-0.0181065860657184	-34.4307315582721	-43.7097522797943	113.657571011272	
925800000	-44.6943584468104	-20.9834599647073	-0.00815914246038364	-34.2336429094661	-0.0457507095787364	-34.5369278813367	-43.848144412805	118.769970207554	
927500000	-44.6605033513185	-16.1453250154077	-0.00616964304746733	-34.3024530478043	-0.101035279472456	-34.6523479294305	-43.9241760697041	125.335846070378	
929200000	-44.4053262575401	-10.4450038787756	-0.00222905222863545	-34.3654220042323	-0.177493449753182	-34.755848932325	-43.9426094454401	132.209170728357	
930900000	-43.9608720836583	-3.76138501039578	0.00319123855831225	-34.4241173288573	-0.268977964550198	-34.8394162332006	-43.9513823407972	138.969615403341	
932600000	-43.3818574908843	3.79094931542655	0.00877020005585659	-34.4764253276007	-0.369389488863865	-34.8999603100277	-43.9271588684785	145.488728995445	
934300000	-42.6835532969529	11.949962632499	0.0142578570236254	-34.5271243409027	-0.471787315862698	-34.9297456315382	-43.8926864718398	151.62190884955	
936000000	-41.9494649726549	19.2796027790945	0.0191134129200493	-34.5772651501706	-0.570303641395489	-34.9466390874745	-43.7785145268591	157.606686336831	
937700000	-41.2743156217927	26.0655351496681	0.0223612629605994	-34.6323831859125	-0.659593385756383	-34.9462978136382	-43.6867715901501	163.534226312696	
939400000	-40.6785586433072	31.3094485866777	0.0257554817116411	-34.69061868335	-0.73214738166807	-34.9279875297697	-43.5782150919598	169.279104614195	
941100000	-40.2111858662128	35.3135659092968	0.0270349338827517	-34.7525446027616	-0.78136550338218	-34.9154609866466	-43.495441625636	174.67925374448	
942800000	-39.9005927321261	37.7825670722699	0.0272237390123407	-34.8186802599983	-0.801709432924145	-34.9203290185298	-43.4320550101805	179.432456887175	
944500000	-39.5719706387598	37.858312167745	0.0258487625996969	-34.8878991123935	-0.802043525149693	-34.9722027195559	-44.1738265791393	179.026696369522	
946200000	-39.4304960008224	37.5130668716769	0.0257611940712527	-34.9616265631877	-0.801213670910533	-35.0251338005307	-44.755903148288	-174.166046977073	
947900000	-39.5516338995628	37.0705318638468	0.0270756467756517	-35.0366940923002	-0.800252931003389	-35.0858962952831	-45.0204039823794	-166.261005006487	
949600000	-39.7901660941509	36.5688257726503	0.0282245550657333	-35.1185137930385	-0.798411923555448	-35.1431039314684	-45.0459819527759	-158.314012647344	
951300000	-40.0328022056234	35.3605248895119	0.0272724964507427	-35.1924553956078	-0.769179733158546	-35.1715937603285	-45.009887850809	-151.687462321267	
953000000	-40.3146172794358	33.0367648898075	0.0243906681479878	-35.2597275194561	-0.712117667428245	-35.1824848654319	-45.0126426023515	-146.25105216417	
954700000	-40.6628707958749	30.1945213965356	0.0201604310036531	-35.3275751365815	-0.634294738459714	-35.2011898871386	-45.101425122399	-141.394140068297	
956400000	-41.0681979269343	26.809307292067	0.0146971376688905	-35.396221389117	-0.541235015782544	-35.2316907520852	-45.2554398046191	-136.774229301102	
958100000	-41.5218062295993	22.9933575840182	0.00870624045424571	-35.4639494502625	-0.439412665282448	-35.2858136981226	-45.4944594410787	-132.182061324635	
959800000	-41.9937656290641	19.1684699716107	0.00325463373865045	-35.5264430921436	-0.335610263429739	-35.3629600624587	-45.7929231943182	-127.593814794379	
961500000	-42.4433304464937	14.8388466642474	-0.00226162427485139	-35.5945056374948	-0.23550247895818	-35.4571888813911	-46.1619112306989	-122.379717696323	
963200000	-42.8396685571823	10.6523936671429	-0.00710165335357233	-35.6558837426496	-0.144873923365644	-35.5724119544096	-46.5478644588149	-117.500046709588	
964900000	-43.1632976155486	6.51343995783952	-0.0114061502254489	-35.7164817763785	-0.0705713602744896	-35.6997655237891	-47.0356953181351	-111.620097873201	
966600000	-43.3921785052787	2.78109160915273	-0.0143470978116691	-35.7755610725444	-0.0198360895724693	-35.8281322009646	-47.5439875593554	-105.12203708059	
968300000	-43.5688549796085	0.026611940613187	-0.0151348713969172	-35.8331120554789	0.00202551174858265	-35.9389608150621	-48.1719037608286	-97.3306309378932	
970000000	-43.8121318438154	-1.01245922374122	-0.0143881154786971	-35.8904992915374	0.00431130121567165	-36.0010440205851	-48.1830669204453	-83.1417521233298	
971700000	-43.9154686498892	-2.18114725313579	-0.0155171668727429	-35.9463863050007	0.0052000570477653	-36.0682447792207	-48.6439356664799	-71.3788345080088	
973400000	-43.8261975837763	-3.69337707880761	-0.0170875789698829	-36.0090320326925	0.00614385689575662	-36.1278266651497	-49.1735582808415	-59.2145350924971	
975100000	-43.6902319896286	-5.80848811295064	-0.0176640365293009	-36.067822180131	0.00556842655783925	-36.1903952754257	-50.0355390404328	-44.8394137146354	
976800000	-43.5939090070978	-8.18596162115191	-0.0179750649448903	-36.1308940598665	0.00618758941390701	-36.2538632520056	-50.7233290413317	-29.634323867701	
978500000	-43.512113703057	-10.9038688638015	-0.0174220268564804	-36.1967697901892	0.00674978363771296	-36.3140753189081	-51.4969037838664	-14.137447151773	
980200000	-43.4256080031021	-13.892942896476	-0.0170646749984529	-36.2639263493866	0.00721312235322233	-36.3749223967821	-52.1057526510212	2.60185263092067	
981900000	-43.3740162318684	-16.811611593318	-0.0168976569357744	-36.3329917756997	0.00710790511880424	-36.4345265042919	-52.6099044314422	19.6225973615954	
983600000	-43.3129810628751	-19.5312603454094	-0.0170625725122136	-36.3992564348474	0.00723231615537856	-36.4927253239004	-52.9699806085392	36.993413129774	
985300000	-43.2643782841559	-22.334085087135	-0.0173885578415364	-36.4703814419105	0.00720327923506494	-36.5490893190278	-53.2247883841395	54.7199894384024	
987000000	-43.218938430081	-24.6512455771192	-0.01736998672973	-36.5400873569481	0.00653714856327902	-36.6104818697472	-53.3404674407164	72.2680109780338	
988700000	-43.1819476347823	-27.0006972758297	-0.0173184777671549	-36.6133100436458	0.0057391467256444	-36.6656040586082	-53.4133269066082	90.1740443698411	
990400000	-43.1754292684855	-29.0295124880709	-0.0177549596885056	-36.6789095105828	0.00466871972530772	-36.7289371837525	-53.272509547336	107.404116845913	
992100000	-43.1930533469119	-30.8519591053206	-0.0179595627632924	-36.7506915148002	0.00395118482046351	-36.7869401256495	-53.0235246010046	124.41038701006	
993800000	-43.2079255358661	-32.6257362040861	-0.0179537893977805	-36.822179114676	0.00283820324308791	-36.8461479095046	-52.6066429924799	140.945498526453	
995500000	-43.2130731203614	-34.1507485933862	-0.0184864877035539	-36.8987124459709	0.0016288270620616	-36.9082394276463	-51.8785163973809	155.968597095415	
997200000	-43.1851580080767	-35.4666627625975	-0.0189726180960371	-36.9713004745187	0.000306859565045943	-36.9714773791407	-50.8919918333301	166.144749721722	
998900000	-43.0882533783069	-36.7004559392627	-0.021103290654623	-37.0385499984951	-0.000962331455903054	-37.0329452333811	-50.2074452307713	174.125326872022	
1000600000	-42.9453554661531	-37.5181188836537	-0.0243151047067977	-37.1035110285366	-0.00155931581037517	-37.0988525588521	-49.4974080427529	178.844904512633	
1002300000	-42.7401811039933	-38.5622735034097	-0.0276641383485467	-37.1668250968241	-0.00247022527770914	-37.1619191720205	-49.1974888962203	-178.286910340737	
1004000000	-42.5343510084272	-39.3204792266978	-0.0311453218040702	-37.2286179265693	-0.00320132572136455	-37.2350863251312	-48.9044120579505	-177.182328021526	
1005700000	-42.3461112082231	-40.0001670918222	-0.0346390390268194	-37.2913466925407	-0.00419321635517459	-37.2996482838569	-48.795572327605	-178.525465241969	
1007400000	-42.1088075276491	-40.6159876908903	-0.0367562260900549	-37.3494746332763	-0.00482378536309026	-37.3684495016672	-48.8145677888791	179.42424503925	
1009100000	-41.8956010158059	-41.3387737722529	-0.0385605494897318	-37.4119543473669	-0.00574766217641184	-37.4368871807826	-48.9182312177534	175.973543818392	
