Frequency,S11 Re,S11 Im,S21 Re,S21 Im
1.7,-0.1851826459,-0.2996047139,0.9025267363,-0.2456427217
1.70018,-0.1852622032,-0.2995198071,0.9025729299,-0.2457460463
1.70036,-0.1852373183,-0.2993971705,0.9023579359,-0.2456703335
1.70054,-0.1853242964,-0.2994404137,0.9024401307,-0.2457662076
1.70072,-0.1853042841,-0.2994280457,0.902325809,-0.2458069175
1.7009,-0.1853052229,-0.2995093763,0.902343154,-0.2457454354
1.70108,-0.1853120625,-0.2994281948,0.902316153,-0.2457887083
1.70126,-0.1854609996,-0.2994405925,0.9023650885,-0.2458015382
1.70144,-0.1854469031,-0.2994613051,0.9021533728,-0.2457918823
1.70162,-0.1854835749,-0.2993931174,0.9021773934,-0.245729059
1.7018,-0.1856276244,-0.2994172573,0.9021179676,-0.2458299994
1.70198,-0.1856200546,-0.2993097007,0.9020612836,-0.2457218021
1.70216,-0.1856092662,-0.2993887961,0.9021266699,-0.2459555417
1.70234,-0.1855369657,-0.2994535565,0.9022200704,-0.2459488213
1.70252,-0.1855141222,-0.2994536161,0.9020034671,-0.2459961176
1.7027,-0.1855580658,-0.2994825542,0.9019650221,-0.2459837049
1.70288,-0.1855709255,-0.299546659,0.9020676613,-0.2459545135
1.70306,-0.1855511218,-0.2994810343,0.9021012783,-0.2460303903
1.70324,-0.1855584085,-0.2994547486,0.902102232,-0.2459772527
1.70342,-0.1855942905,-0.2994289398,0.9021796584,-0.2459754944
1.7036,-0.1856359839,-0.2993099988,0.9021613598,-0.2460753471
1.70378,-0.1855983883,-0.2992942929,0.9019623995,-0.2459645718
1.70396,-0.185699001,-0.2993961573,0.902012229,-0.2460361719
1.70414,-0.1857704669,-0.2994380891,0.9019110203,-0.245971486
1.70432,-0.1857724488,-0.2996053398,0.901914537,-0.2457219511
1.7045,-0.1857508123,-0.2994315922,0.901814878,-0.2459494472
1.70468,-0.1858312637,-0.2994716465,0.9018645883,-0.2460588068
1.70486,-0.1858703494,-0.2995065749,0.9020100236,-0.2461293638
1.70504,-0.1859024316,-0.2995299101,0.9019660354,-0.2461887151
1.70522,-0.1858248562,-0.2995502055,0.9019421935,-0.246109724
1.7054,-0.1859112084,-0.2994284034,0.9019137025,-0.2461616695
1.70558,-0.1858993769,-0.2993943691,0.9018558264,-0.2462147474
1.70576,-0.1860272884,-0.2994285524,0.9018690586,-0.2462854981
1.70594,-0.1859675795,-0.2993622422,0.9017968178,-0.2461367399
1.70612,-0.1859934628,-0.2994741201,0.9019058943,-0.2461358905
1.7063,-0.1860792935,-0.2994418144,0.9018206596,-0.2462218851
1.70648,-0.1860282123,-0.2994917929,0.901797533,-0.246338129
1.70666,-0.1861109585,-0.299510628,0.9016956091,-0.2463050038
1.70684,-0.1861341596,-0.2995434403,0.9017266035,-0.2464221269
1.70702,-0.1861955374,-0.2995767593,0.9018583894,-0.246345371
1.7072,-0.1862300187,-0.2994589806,0.9015901685,-0.246450007
1.70738,-0.1862816066,-0.2993989587,0.9015265703,-0.2465073466
1.70756,-0.1863493323,-0.2994827032,0.9017222524,-0.2465472519
1.70774,-0.1863137633,-0.2994363308,0.9017096758,-0.2464371622
1.70792,-0.1862450242,-0.2994276583,0.9015467763,-0.2463312
1.7081,-0.1862711608,-0.2995024323,0.9015204906,-0.2464000434
1.70828,-0.1864253283,-0.2994859815,0.9016196132,-0.2463752031
1.70846,-0.1863544732,-0.299536854,0.9015020728,-0.2463929504
1.70864,-0.186424315,-0.2995389104,0.9014806151,-0.2464209795
1.70882,-0.1864320189,-0.2995740771,0.9015555978,-0.246547848
1.709,-0.1865367591,-0.299621731,0.9014909863,-0.2465123832
1.70918,-0.1865952313,-0.2994985878,0.9014850259,-0.2465990782
1.70936,-0.1866423935,-0.2994797528,0.9014524817,-0.2465815544
1.70954,-0.1866540611,-0.299489975,0.9015175104,-0.246642068
1.70972,-0.1867140234,-0.2994523048,0.9015234709,-0.2467378229
1.7099,-0.1866428256,-0.2994736731,0.9015378952,-0.2464184463
1.71008,-0.1867260039,-0.2995276451,0.9014700651,-0.2466240525
1.71026,-0.1869293302,-0.2995939851,0.9014083743,-0.2467608303
1.71044,-0.1869824529,-0.2996271849,0.9015017748,-0.2465800047
1.71062,-0.1869873405,-0.2996891737,0.9014228582,-0.2466775924
1.7108,-0.1869931519,-0.2997150421,0.9014148712,-0.2466700673
1.71098,-0.1871217489,-0.2997795939,0.9014559388,-0.2466353178
1.71116,-0.1871804297,-0.2996267676,0.9013369083,-0.2468173653
1.71134,-0.1871796101,-0.2995697558,0.9013643861,-0.2466077805
1.71152,-0.1871902943,-0.2995742559,0.9013293982,-0.2468273938
1.7117,-0.1873425543,-0.2995497286,0.9013027549,-0.2468049526
1.71188,-0.1873074174,-0.2995555699,0.901147306,-0.2468545139
1.71206,-0.1872924864,-0.2995147705,0.9011445045,-0.2467294633
1.71224,-0.1873010099,-0.2995965779,0.9012303352,-0.2469070852
1.71242,-0.1873713732,-0.2994960546,0.9011573195,-0.2468073368
1.7126,-0.187465176,-0.29951033,0.9011563659,-0.2469750792
1.71278,-0.1874765307,-0.299513489,0.9011677504,-0.2469286174
1.71296,-0.1875602454,-0.2995404899,0.9011630416,-0.2470620126
1.71314,-0.1876198798,-0.2995311618,0.9011992216,-0.2469277382
1.71332,-0.1876929253,-0.2995838225,0.9013468623,-0.2468405515
1.7135,-0.1876767278,-0.2995450795,0.9012674093,-0.2467891872
1.71368,-0.187680319,-0.2995353639,0.9012882113,-0.2468697429
1.71386,-0.1877519488,-0.2994040847,0.9012368917,-0.247084707
1.71404,-0.1877492368,-0.2995149791,0.9011167288,-0.2468691319
1.71422,-0.1877594441,-0.2995982468,0.9013062119,-0.247004047
1.7144,-0.1877339035,-0.2996578813,0.9011500478,-0.2470186204
1.71458,-0.1879027188,-0.2996308208,0.9012797475,-0.2470353693
1.71476,-0.1879377365,-0.2996456027,0.9011878371,-0.2469808757
1.71494,-0.1879869252,-0.2996162772,0.901017487,-0.2469990104
1.71512,-0.1879672706,-0.299613595,0.901062429,-0.2470832765
1.7153,-0.1879577488,-0.2995454073,0.9009422064,-0.2469336092
1.71548,-0.188166827,-0.2996148765,0.901055932,-0.2470936924
1.71566,-0.1881798208,-0.2996231616,0.901081264,-0.2469144911
1.71584,-0.1882873029,-0.2996731102,0.9010561109,-0.2470425516
1.71602,-0.1882176995,-0.2997128367,0.9010978341,-0.2469621897
1.7162,-0.1882909387,-0.2996997535,0.9009437561,-0.2470025867
1.71638,-0.1881730556,-0.299620837,0.9008997679,-0.2468886375
1.71656,-0.188263163,-0.2996714711,0.9009287357,-0.2468948662
1.71674,-0.1883658469,-0.2997304797,0.9010662436,-0.2469822317
1.71692,-0.1884270757,-0.299767077,0.9010952115,-0.2469833195
1.7171,-0.1885095537,-0.2997896075,0.9009828568,-0.2469750345
1.71728,-0.1885062307,-0.299734205,0.9010653496,-0.2470503151
1.71746,-0.1885067523,-0.2997683883,0.9010341763,-0.247277528
1.71764,-0.1886229962,-0.2997939885,0.9010133743,-0.2473940998
1.71782,-0.1886510402,-0.2997668087,0.9007947445,-0.2473805845
1.718,-0.1886594743,-0.2997301817,0.9007781744,-0.2471209764
1.71818,-0.1886000633,-0.2997944653,0.9008101821,-0.2472270578
1.71836,-0.1886169761,-0.2997653186,0.9008648992,-0.2471250594
1.71854,-0.1887176037,-0.2997906804,0.9009535313,-0.2472296357
1.71872,-0.1886378676,-0.2998250127,0.9008841515,-0.2472329289
1.7189,-0.1887550056,-0.2999474406,0.9008099437,-0.2472049743
1.71908,-0.1887806803,-0.2998950779,0.9008616805,-0.2473191619
1.71926,-0.1888155937,-0.2999260128,0.9008259177,-0.24722597
1.71944,-0.1888606399,-0.2998369038,0.9008640647,-0.2472520322
1.71962,-0.1889228672,-0.2997644842,0.9007899165,-0.2472492307
1.7198,-0.188933447,-0.2997385561,0.9008613229,-0.2473057359
1.71998,-0.1888976991,-0.299852401,0.9008779526,-0.2472944558
1.72016,-0.1888647676,-0.2997973263,0.9006814957,-0.2473590672
1.72034,-0.1889428347,-0.2999116182,0.9006767273,-0.2473318875
1.72052,-0.1889911145,-0.2998501062,0.900760293,-0.2474339306
1.7207,-0.1890795976,-0.2998317182,0.9007176757,-0.2474907041
1.72088,-0.1891320497,-0.299890697,0.9008252025,-0.2474994808
1.72106,-0.1892311573,-0.2997942865,0.9007179141,-0.2474389672
1.72124,-0.1892998517,-0.2998708487,0.9006770849,-0.2475778908
1.72142,-0.1892527342,-0.2998491526,0.9006276131,-0.24750866
1.7216,-0.189383775,-0.2997617722,0.9007158279,-0.2476691902
1.72178,-0.1893946975,-0.2997719347,0.9005180597,-0.2476593554
1.72196,-0.189351052,-0.2998574674,0.9005854726,-0.2476920485
1.72214,-0.1893736571,-0.299954325,0.9006021619,-0.2475185394
1.72232,-0.1893981099,-0.2999901772,0.9005419612,-0.2478039712
1.7225,-0.18941769,-0.2999916077,0.9007457495,-0.2478254139
1.72268,-0.1892810315,-0.300015837,0.9006394744,-0.2477773577
1.72286,-0.189318493,-0.299969852,0.9006145597,-0.247695908
1.72304,-0.1893585473,-0.3000693619,0.9005843997,-0.2477250844
1.72322,-0.1894841194,-0.3001493514,0.9004859328,-0.2477528006
1.7234,-0.1895104945,-0.3001648784,0.9004116654,-0.2478081286
1.72358,-0.1896226257,-0.3002054095,0.9004772305,-0.2478464991
1.72376,-0.1896707267,-0.3001195788,0.9004283547,-0.2477437407
1.72394,-0.1896912754,-0.300152123,0.9004402757,-0.2476982027
1.72412,-0.1896345764,-0.3001508713,0.9003961682,-0.2477404177
1.7243,-0.1896791309,-0.3002313972,0.9005183578,-0.2477930784
1.72448,-0.1897041649,-0.3001720905,0.9003145099,-0.2478748411
1.72466,-0.1898165792,-0.3001362979,0.9005538225,-0.248047635
1.72484,-0.1898102611,-0.3001265824,0.9003892541,-0.2479991466
1.72502,-0.1897175759,-0.3002770245,0.9004140496,-0.2478437126
1.7252,-0.1898101717,-0.3002712429,0.900313139,-0.2479528636
1.72538,-0.1898896545,-0.3003782332,0.9003530145,-0.2480863631
1.72556,-0.1898251325,-0.300344497,0.900349915,-0.2479299307
1.72574,-0.1897842288,-0.3003440797,0.9002503157,-0.2479419559
1.72592,-0.1898147017,-0.3004024625,0.9003216028,-0.2481483519
1.7261,-0.1898941994,-0.3003996909,0.9003319144,-0.2479253262
1.72628,-0.1897932887,-0.3004773557,0.9002250433,-0.2479938418
1.72646,-0.1899019331,-0.3005007505,0.9003352523,-0.248115927
1.72664,-0.1898747236,-0.3005518615,0.9003640413,-0.2479724884
1.72682,-0.1898618191,-0.3005530834,0.9003785849,-0.2480718046
1.727,-0.1898233742,-0.3004933,0.9003260732,-0.2480012178
1.72718,-0.1898784637,-0.3004278839,0.9003306031,-0.2480880171
1.72736,-0.1898111552,-0.3004137576,0.9003395438,-0.2479023039
1.72754,-0.1898458898,-0.3004659712,0.9003320932,-0.2478300482
1.72772,-0.1899547279,-0.3005793393,0.9002185464,-0.248001948
1.7279,-0.1900080442,-0.3005870581,0.9001499414,-0.2480635941
1.72808,-0.190041706,-0.300627619,0.900090754,-0.2481333464
1.72826,-0.1900206655,-0.3006548285,0.9001990557,-0.2480732501
1.72844,-0.1900854558,-0.3006278276,0.9002444744,-0.2481206656
1.72862,-0.1901752055,-0.3007046282,0.9004151225,-0.2481147647
1.7288,-0.1900904179,-0.3006769419,0.9003784657,-0.2479312122
1.72898,-0.1901188493,-0.3006511927,0.9002498388,-0.2482765019
1.72916,-0.1902009845,-0.3006437421,0.9003891349,-0.2481651306
1.72934,-0.1900810301,-0.3007054925,0.9003334045,-0.2481628209
1.72952,-0.1900809556,-0.3005874753,0.9001559615,-0.2482770532
1.7297,-0.1900591254,-0.3007323146,0.9000892043,-0.2482671589
1.72988,-0.1900034994,-0.3007676601,0.9000435472,-0.2483243644
1.73006,-0.1900982559,-0.3008699417,0.9000676274,-0.2484333962
1.73024,-0.1901784092,-0.300830096,0.8999956846,-0.2483581454
1.73042,-0.1902324557,-0.3008388579,0.9000921845,-0.2484681159
1.7306,-0.1903591305,-0.3008461893,0.900148809,-0.2485136092
1.73078,-0.1902237236,-0.3009019494,0.9000213146,-0.2484734058
1.73096,-0.1902632415,-0.3008956313,0.8999932408,-0.2484128326
1.73114,-0.1901791245,-0.3009266555,0.9000412822,-0.2484179735
1.73132,-0.1901625842,-0.3008379042,0.8999727964,-0.2484508753
1.7315,-0.19035317,-0.3009368479,0.9000384212,-0.248482421
1.73168,-0.1902591735,-0.3009879589,0.8998166919,-0.2483589947
1.73186,-0.1904007494,-0.3009532392,0.8998656869,-0.2484045327
1.73204,-0.1903712451,-0.3010549247,0.8998939991,-0.2486188263
1.73222,-0.1904047579,-0.3011160791,0.8998502493,-0.2487275898
1.7324,-0.1902586222,-0.3010712564,0.8998894095,-0.2485867888
1.73258,-0.1902870536,-0.3010855019,0.8999142051,-0.2484014928
1.73276,-0.1902570426,-0.301068306,0.8997958899,-0.2485741079
1.73294,-0.1903050095,-0.301035285,0.8998058438,-0.24842529
1.73312,-0.1903517544,-0.3010807931,0.8998711109,-0.248622179
1.7333,-0.1903491318,-0.3011284173,0.8998670578,-0.2486139238
1.73348,-0.190396145,-0.3011009097,0.8998565078,-0.2486119568
1.73366,-0.1904731244,-0.3011553884,0.8999288678,-0.2486760765
1.73384,-0.1903835982,-0.3011749387,0.8998092413,-0.2486592829
1.73402,-0.1903979778,-0.3012805283,0.8997964263,-0.2487092763
1.7342,-0.1904392689,-0.3012585044,0.8998202682,-0.2487698942
1.73438,-0.1904586107,-0.3012549877,0.8997610807,-0.2486296892
1.73456,-0.1904729307,-0.3013027608,0.899790287,-0.2487669438
1.73474,-0.1904748529,-0.3012508154,0.8995987773,-0.2487491369
1.73492,-0.1904718131,-0.3012904227,0.8997249007,-0.2487581819
1.7351,-0.1904586554,-0.3013235331,0.8996297717,-0.2487399429
1.73528,-0.1904724538,-0.3012825549,0.899684906,-0.2488950193
1.73546,-0.1904325783,-0.3012459874,0.899631381,-0.2488506734
1.73564,-0.1905599535,-0.3012965322,0.8995526433,-0.2488894761
1.73582,-0.1905090362,-0.3013450801,0.8996634483,-0.2489232719
1.736,-0.1905208081,-0.3013135195,0.8996100426,-0.2490908206
1.73618,-0.1905774623,-0.3013710976,0.899618268,-0.2490569204
1.73636,-0.1906042099,-0.3014665842,0.8996554017,-0.249155283
1.73654,-0.1905318797,-0.3015088737,0.8996728659,-0.249094218
1.73672,-0.190559268,-0.3015099764,0.8995994329,-0.248957172
1.7369,-0.1906301081,-0.3014871478,0.8995001316,-0.2491368055
1.73708,-0.1905710548,-0.3014448881,0.8994380236,-0.2489893585
1.73726,-0.190651685,-0.3014068604,0.8995837569,-0.2489290237
1.73744,-0.1904757619,-0.3014039099,0.8995159864,-0.2489879876
1.73762,-0.1905594468,-0.3014030457,0.8995422125,-0.2490848452
1.7378,-0.1906281114,-0.3013994396,0.8994418383,-0.24914141
1.73798,-0.1905995607,-0.3013768494,0.8993276954,-0.2491168082
1.73816,-0.1905309409,-0.3014796376,0.8994027376,-0.2490508258
1.73834,-0.1907328218,-0.3014338911,0.899415195,-0.249042362
1.73852,-0.1907170564,-0.3015547693,0.8994294405,-0.2491024882
1.7387,-0.1906536818,-0.3015865684,0.8994582891,-0.2489732206
1.73888,-0.190688327,-0.3015636802,0.8994931579,-0.2490729839
1.73906,-0.1908559501,-0.3016585112,0.8994111419,-0.249060154
1.73924,-0.190885812,-0.3015961945,0.8993982673,-0.2492667288
1.73942,-0.1909634769,-0.3015975952,0.8994696736,-0.2493221909
1.7396,-0.1909519583,-0.3016444445,0.8994564414,-0.249365747
1.73978,-0.1908985525,-0.3015591204,0.8993589878,-0.24925448
1.73996,-0.1910005361,-0.3016268909,0.8994830251,-0.2494712621
1.74014,-0.1909771264,-0.3015303612,0.8992686272,-0.2494134754
1.74032,-0.1910323501,-0.3016580045,0.899274528,-0.2493540794
1.7405,-0.1911567599,-0.3015740216,0.8993188739,-0.2492729723
1.74068,-0.1911348403,-0.3015646338,0.8993155956,-0.2492467016
1.74086,-0.191258803,-0.301543355,0.89933604,-0.2493666112
1.74104,-0.191172272,-0.301674366,0.8992783427,-0.2493383884
1.74122,-0.1912043244,-0.3016832173,0.8993130326,-0.2494645268
1.7414,-0.1910862476,-0.3016679585,0.8992959261,-0.2493475825
1.74158,-0.1911567897,-0.3017168939,0.8992285728,-0.2492963374
1.74176,-0.1912143826,-0.3016084433,0.8991481662,-0.2493351549
1.74194,-0.1912840456,-0.3015535772,0.8991723657,-0.249319315
1.74212,-0.1913403124,-0.3016512692,0.8991586566,-0.2493324578
1.7423,-0.1913927644,-0.3015052974,0.899043262,-0.2493904531
1.74248,-0.1913040131,-0.3015449643,0.8990975618,-0.2493757308
1.74266,-0.1912136376,-0.3014501631,0.8990588188,-0.2495166212
1.74284,-0.191433534,-0.3015075326,0.899082303,-0.2494973838
1.74302,-0.1914487183,-0.3014133275,0.8991164565,-0.2494434118
1.7432,-0.1914298534,-0.3014065027,0.8991855383,-0.2495041639
1.74338,-0.1914230436,-0.3014743924,0.8992109895,-0.2495410293
1.74356,-0.1914514452,-0.3014166355,0.8991538286,-0.2493536174
1.74374,-0.191425249,-0.3014529049,0.8990448713,-0.2493174821
1.74392,-0.191508472,-0.3013778031,0.8990189433,-0.2494314909
1.7441,-0.1914571971,-0.3013979793,0.8990131021,-0.2495734692
1.74428,-0.1916440129,-0.3013596535,0.8989267945,-0.2495428324
1.74446,-0.1917825043,-0.3012906909,0.8990867138,-0.2496306598
1.74464,-0.1918162853,-0.3013652861,0.8989135623,-0.2495906055
1.74482,-0.1919519156,-0.3013960421,0.899179399,-0.2496426105
1.745,-0.1918680221,-0.3015017509,0.8991456628,-0.249509424
1.74518,-0.1919182092,-0.3015658855,0.8992393017,-0.2496327013
1.74536,-0.1920443028,-0.3014540374,0.89915061,-0.2495562583
1.74554,-0.1920817345,-0.3015094399,0.8991650343,-0.249677524
1.74572,-0.192073375,-0.3013686538,0.8990447521,-0.2496542782
1.7459,-0.1921651214,-0.3013731539,0.8990386128,-0.2497549653
1.74608,-0.1921417415,-0.301351577,0.8989310861,-0.249764204
1.74626,-0.1920777708,-0.301412493,0.8990640044,-0.2495383173
1.74644,-0.192233339,-0.3014435768,0.8989614844,-0.2495807707
1.74662,-0.1922098845,-0.3015048206,0.8989971876,-0.2495895475
1.7468,-0.1921393722,-0.3015343845,0.898968637,-0.2494884133
1.74698,-0.1921973228,-0.3013573885,0.8988700509,-0.2495592386
1.74716,-0.1921654046,-0.3014273345,0.8989192843,-0.2495933473
1.74734,-0.1922004372,-0.3014309108,0.8988631964,-0.2494904846
1.74752,-0.1922850758,-0.3013718128,0.8986825347,-0.249532938
1.7477,-0.1924787313,-0.3014042377,0.8987623453,-0.2498846203
1.74788,-0.1923713982,-0.3013166487,0.898598969,-0.2497157007
1.74806,-0.1924412847,-0.3012464941,0.8986642361,-0.2496882528
1.74824,-0.1924673021,-0.3012614846,0.8987691998,-0.2497732341
1.74842,-0.1925985366,-0.3013125062,0.898904264,-0.2497443855
1.7486,-0.1926037371,-0.3013804257,0.8990080357,-0.2497875988
1.74878,-0.1924951971,-0.3012340367,0.8987338543,-0.2496512532
1.74896,-0.1926175356,-0.3011899292,0.8988817334,-0.2498900443
1.74914,-0.1926592141,-0.3011678159,0.8989745975,-0.2500157356
1.74932,-0.1927108765,-0.301194787,0.8989085555,-0.250032872
1.7495,-0.1927356571,-0.3012166619,0.8987717032,-0.2499037385
1.74968,-0.1928569227,-0.3013274372,0.8987320662,-0.2499571592
1.74986,-0.1929123402,-0.3012642264,0.8987756968,-0.2497546971
1.75004,-0.192925483,-0.3013685644,0.8988425732,-0.2498718649
1.75022,-0.1929482222,-0.301338762,0.8989000916,-0.2497972995
1.7504,-0.1930686086,-0.3012275994,0.8988986611,-0.2497521341
1.75058,-0.192986384,-0.30122298,0.8988021612,-0.2498730421
1.75076,-0.1931272149,-0.3011412024,0.8986929059,-0.2499058545
1.75094,-0.1930146217,-0.3011273444,0.8985651731,-0.2498311847
1.75112,-0.1931337714,-0.3012296259,0.8986976743,-0.2497985363
1.7513,-0.1931777894,-0.3013169467,0.8987184763,-0.2498982698
1.75148,-0.193116039,-0.3012414277,0.8986808658,-0.2498807162
1.75166,-0.1931644678,-0.301392287,0.8986606598,-0.2499051541
1.75184,-0.1933115274,-0.3014030457,0.8987717628,-0.2500686944
1.75202,-0.1933958828,-0.3014181256,0.8986403942,-0.2502152622
1.7522,-0.1934736222,-0.3013174236,0.8986367583,-0.2500475049
1.75238,-0.1935216784,-0.3014006615,0.8985470533,-0.2501699924
1.75256,-0.1934156418,-0.3012369275,0.8986103535,-0.2500537038
1.75274,-0.1933551729,-0.3011687398,0.8986412883,-0.2500275671
1.75292,-0.1934197992,-0.3012177944,0.8986540437,-0.2502084374
1.7531,-0.1934311688,-0.3011815846,0.8986519575,-0.2502281368
1.75328,-0.1934793442,-0.3013447225,0.8987803459,-0.2500801086
1.75346,-0.1935413182,-0.3012597561,0.898632288,-0.2501689792
1.75364,-0.1936414987,-0.3013906479,0.8985489011,-0.2501686215
1.75382,-0.1936643124,-0.3012953699,0.8985609412,-0.2502116859
1.754,-0.1937199086,-0.3013995886,0.8985551,-0.2502494156
1.75418,-0.1938797235,-0.301309824,0.8985597491,-0.2502049208
1.75436,-0.1938674599,-0.3013040125,0.8985803723,-0.2502336502
1.75454,-0.1939370185,-0.3013431132,0.8985415697,-0.2502978742
1.75472,-0.1940080076,-0.301264286,0.8984709382,-0.2504073083
1.7549,-0.1939028054,-0.3012657464,0.8984829783,-0.2505133748
1.75508,-0.1939752847,-0.3012653589,0.8984217048,-0.2504194081
1.75526,-0.1940075159,-0.3014059663,0.898429215,-0.2503398359
1.75544,-0.1939763576,-0.3014289141,0.8985024691,-0.2503536344
1.75562,-0.1939549595,-0.3014598191,0.8984975815,-0.250456512
1.7558,-0.1940219253,-0.3014651537,0.8985905647,-0.2504040003
1.75598,-0.1941659003,-0.3015006483,0.8985550404,-0.2504259944
1.75616,-0.194232747,-0.3015385866,0.8985911012,-0.2504170537
1.75634,-0.1942440718,-0.3014869094,0.8985055089,-0.2503159642
1.75652,-0.1942439228,-0.3015499115,0.8983329535,-0.2502779365
1.7567,-0.1942501366,-0.3015334606,0.8984795809,-0.2503512204
1.75688,-0.1943440437,-0.3015474379,0.8983721733,-0.2503223717
1.75706,-0.194285512,-0.3015946448,0.8982263207,-0.2503374219
1.75724,-0.1943308115,-0.3015753627,0.8983339667,-0.2503761351
1.75742,-0.1944084018,-0.3015159667,0.8982922435,-0.2505255938
