Frequency,S11 Re,S11 Im,S21 Re,S21 Im
0.8,-0.03620357066,-0.1931150854,0.9665438533,-0.1417408884
0.80064,-0.03654016927,-0.1932283789,0.9662582278,-0.1418355554
0.80128,-0.04182161763,-0.1909110248,0.9663612247,-0.1426323801
0.80192,-0.04187600315,-0.1907002777,0.966167748,-0.1424899101
0.80256,-0.04169800505,-0.1910218149,0.9660781026,-0.1429695487
0.8032,-0.04200797155,-0.1910831481,0.9660486579,-0.1428166777
0.80384,-0.0419343859,-0.1911091506,0.9656882882,-0.1429834813
0.80448,-0.04219830409,-0.1914889365,0.9661293626,-0.1434633881
0.80512,-0.04220037162,-0.1919222623,0.9658275247,-0.1431182325
0.80576,-0.04205719754,-0.1915984601,0.9657827616,-0.1432072371
0.8064,-0.04246915132,-0.1921035796,0.9661179781,-0.1432991475
0.80704,-0.04294666275,-0.1918450594,0.9658364058,-0.1438962072
0.80768,-0.04259787127,-0.1926609725,0.9658079743,-0.1433128715
0.80832,-0.04295188189,-0.1927446723,0.9655663371,-0.1439498514
0.80896,-0.042885717,-0.1930789202,0.9659397602,-0.1435202658
0.8096,-0.04303000122,-0.1929158419,0.9657846689,-0.143682301
0.81024,-0.04270211607,-0.1930808127,0.9657331705,-0.1435405314
0.81088,-0.04351846501,-0.1931935549,0.9658432007,-0.1437219977
0.81152,-0.04334397987,-0.1934148222,0.9653859735,-0.1438992471
0.81216,-0.04331917688,-0.1935460567,0.96572119,-0.1442229003
0.8128,-0.04344336689,-0.1938973516,0.9654699564,-0.1439463645
0.81344,-0.04398708045,-0.1939803809,0.9654020667,-0.1442730427
0.81408,-0.04366739467,-0.1940407157,0.9653980732,-0.1439686269
0.81472,-0.043645069,-0.193925038,0.9651193023,-0.1442847997
0.81536,-0.04393311217,-0.1938332617,0.9651697874,-0.1442064792
0.816,-0.04409719259,-0.1939408779,0.9652784467,-0.1445124894
0.81664,-0.04386077821,-0.1943541914,0.9653375745,-0.1446373612
0.81728,-0.04424633086,-0.1944103241,0.965292871,-0.1446273029
0.81792,-0.04403481632,-0.194253251,0.965292871,-0.1446872503
0.81856,-0.04376825318,-0.1943848133,0.9650601745,-0.1445583254
0.8192,-0.04390026629,-0.1944369972,0.9646932483,-0.1446884722
0.81984,-0.04409646988,-0.1948921978,0.9648792148,-0.1451821774
0.82048,-0.04397565126,-0.194635272,0.9651222825,-0.1450847387
0.82112,-0.04379279912,-0.1949611604,0.9648526311,-0.1448996365
0.82176,-0.04387017712,-0.1949726641,0.9648142457,-0.145413965
0.8224,-0.04395953566,-0.1951656044,0.9651001692,-0.1453828663
0.82304,-0.04379180819,-0.195015654,0.9645537138,-0.1454869807
0.82368,-0.04410376027,-0.1953047365,0.9647769332,-0.1453404278
0.82432,-0.04404912144,-0.195521459,0.9644555449,-0.1457819492
0.82496,-0.04400652274,-0.1956398338,0.9644992948,-0.1458758116
0.8256,-0.04407992586,-0.1955243498,0.9645762444,-0.1459015161
0.82624,-0.04412677139,-0.1954506189,0.964212656,-0.1457379162
0.82688,-0.04389838129,-0.1959219724,0.9644632339,-0.1462513357
0.82752,-0.04423831403,-0.1959060282,0.9645187855,-0.1460436583
0.82816,-0.0443319343,-0.1961986721,0.9641025662,-0.1466945261
0.8288,-0.04406092316,-0.1961518377,0.9641000628,-0.1465387642
0.82944,-0.04404857382,-0.1961363554,0.964151144,-0.1463046968
0.83008,-0.04433586448,-0.1965003163,0.9642089605,-0.1468049437
0.83072,-0.04426101223,-0.1966179758,0.9639815688,-0.1468798071
0.83136,-0.04478992522,-0.1970776618,0.9639928341,-0.1466145068
0.832,-0.04453760386,-0.1971238405,0.9642279148,-0.1471494883
0.83264,-0.04481207207,-0.1971018314,0.9639117718,-0.147133112
0.83328,-0.04478917271,-0.1971087456,0.964155674,-0.1471379697
0.83392,-0.04457136616,-0.1974378228,0.9637258649,-0.1473238468
0.83456,-0.04483071342,-0.1974664778,0.9634523392,-0.1471450329
0.8352,-0.04504941776,-0.1976916045,0.9639018774,-0.1476420313
0.83584,-0.04526391253,-0.1979015172,0.9638229609,-0.1474633068
0.83648,-0.04542232677,-0.1981656551,0.9634168148,-0.1473769248
0.83712,-0.04565085471,-0.1981887072,0.9637382627,-0.1477416158
0.83776,-0.04558002204,-0.1982522756,0.9634735584,-0.147469759
0.8384,-0.04558528215,-0.1981999129,0.9637205005,-0.1479816586
0.83904,-0.04583293572,-0.1986586452,0.9634763002,-0.1482450962
0.83968,-0.04580916092,-0.1983854622,0.9632927179,-0.1479954571
0.84032,-0.04587093741,-0.1983554959,0.9633294344,-0.1483402699
0.84096,-0.04616805539,-0.199020192,0.9632030129,-0.1480380595
0.8416,-0.04618204013,-0.1987154484,0.963146925,-0.1486998051
0.84224,-0.04649252817,-0.1994209737,0.9635906219,-0.1485251039
0.84288,-0.04659694433,-0.199397698,0.9635276198,-0.1485699117
0.84352,-0.04703414068,-0.1992948055,0.9635218382,-0.1485051364
0.84416,-0.04664837569,-0.1994325072,0.9630935788,-0.1485102624
0.8448,-0.04690601677,-0.1998664141,0.9628146291,-0.1490088403
0.84544,-0.04674665257,-0.1995385438,0.9632033706,-0.1492343694
0.84608,-0.04692799971,-0.199936837,0.9631174803,-0.1492335498
0.84672,-0.04726915434,-0.1999405622,0.9632583857,-0.1495231092
0.84736,-0.04701200873,-0.2002715617,0.9629690051,-0.1490278989
0.848,-0.04716467112,-0.2001973987,0.9633637667,-0.1492547989
0.84864,-0.0473460108,-0.20033364,0.9629682302,-0.1496170163
0.84928,-0.04709571227,-0.2007889897,0.9628109932,-0.1495824456
0.84992,-0.04738555104,-0.2006720901,0.9628254771,-0.1497735828
0.85056,-0.04732813686,-0.2007024437,0.96291852,-0.1496319473
0.8512,-0.04770215973,-0.2009589374,0.9626706839,-0.1498744339
0.85184,-0.0474438183,-0.201333195,0.9625405669,-0.1503183991
0.85248,-0.04752579331,-0.2015279233,0.9628924727,-0.1501387954
0.85312,-0.047502812,-0.2014561743,0.9627568126,-0.149900645
0.85376,-0.04742188007,-0.2015744746,0.9627522826,-0.1504404396
0.8544,-0.04748023301,-0.2014751136,0.9625478387,-0.1504996121
0.85504,-0.04801472276,-0.2017956078,0.9625929594,-0.1508129835
0.85568,-0.04766306281,-0.2019696236,0.9624862671,-0.1504346281
0.85632,-0.04773636535,-0.2021842748,0.9629701972,-0.1506578326
0.85696,-0.04722727463,-0.2020283341,0.9621385336,-0.1507984251
0.8576,-0.04747372121,-0.2023642212,0.9624783397,-0.1510293335
0.85824,-0.04742342979,-0.2020973563,0.9624261856,-0.1510704607
0.85888,-0.04757201672,-0.2025448382,0.9619156122,-0.151177451
0.85952,-0.04774073139,-0.2025839686,0.9620902538,-0.1510898471
0.86016,-0.04772100598,-0.2031019032,0.9622252584,-0.1517432183
0.8608,-0.04770585895,-0.2029756904,0.9619975686,-0.1516869068
0.86144,-0.04784836993,-0.203153491,0.961846292,-0.1517845094
0.86208,-0.04802554101,-0.2034783512,0.9621509314,-0.1519680619
0.86272,-0.04776581377,-0.2033004463,0.9619992375,-0.1521158665
0.86336,-0.04795952886,-0.203369081,0.9615343213,-0.1516763717
0.864,-0.04824573174,-0.2039726228,0.961789906,-0.1521341801
0.86464,-0.04821114242,-0.2040015012,0.9620902538,-0.1518509835
0.86528,-0.04814516008,-0.2039140761,0.9617184401,-0.1522678882
0.86592,-0.04875451699,-0.2040234506,0.9616805315,-0.1522191912
0.86656,-0.04846584052,-0.2041742802,0.9615263343,-0.1523588896
0.8672,-0.0484881103,-0.2045212984,0.9616443515,-0.1526146531
0.86784,-0.04851913825,-0.2044796646,0.9613580108,-0.1530995369
0.86848,-0.04891968518,-0.2046748549,0.9615565538,-0.1526757628
0.86912,-0.04865247756,-0.2041637897,0.9614211917,-0.1529455632
0.86976,-0.04912922904,-0.2046951801,0.9613588452,-0.1531334966
0.8704,-0.04933032021,-0.2049676627,0.9613376856,-0.1533916593
0.87104,-0.04905153438,-0.2048186809,0.9612493515,-0.153351739
0.87168,-0.04939003661,-0.2051594704,0.9612189531,-0.1532851011
0.87232,-0.04932674393,-0.2054939568,0.9612037539,-0.1531252116
0.87296,-0.04970232025,-0.2052014172,0.961404264,-0.1535963118
0.8736,-0.04988077283,-0.2050720602,0.9609600902,-0.1540648043
0.87424,-0.04966284707,-0.205370307,0.9609097838,-0.1535119563
0.87488,-0.0500234738,-0.2054170519,0.9608324766,-0.1536120027
0.87552,-0.05021695793,-0.2056885511,0.9611085057,-0.1536757797
0.87616,-0.05059897155,-0.2059433907,0.9610350132,-0.1540679038
0.8768,-0.05020694062,-0.2057297081,0.9611597061,-0.1541789323
0.87744,-0.05049845949,-0.2059736848,0.9609100223,-0.1540569067
0.87808,-0.05054736882,-0.2061003149,0.9610085487,-0.1540232003
0.87872,-0.05058418959,-0.2062135637,0.9611347914,-0.1542326808
0.87936,-0.05106493086,-0.2064469308,0.9608725309,-0.1542890668
0.88,-0.05082107708,-0.206239894,0.9611192942,-0.1544088721
0.88064,-0.05092450976,-0.2066858709,0.9609228969,-0.1548298597
0.88128,-0.05121473223,-0.2067976147,0.9609842896,-0.1547926366
0.88192,-0.05097509921,-0.2066623718,0.9609382749,-0.1548268348
0.88256,-0.05102736503,-0.2067836523,0.9612603784,-0.154896453
0.8832,-0.05113980547,-0.2068111449,0.9605789781,-0.1549163014
0.88384,-0.05119404942,-0.2072161436,0.9608274102,-0.1550094783
0.88448,-0.05093322694,-0.2075115144,0.9609661102,-0.1549984217
0.88512,-0.05137097836,-0.2074992657,0.9608501196,-0.1552226096
0.88576,-0.0510596931,-0.2075731456,0.9604677558,-0.1552356333
0.8864,-0.05129065737,-0.207842648,0.961135447,-0.1554715186
0.88704,-0.05127033964,-0.2082422227,0.9606931806,-0.1551398337
0.88768,-0.05149884522,-0.2084153742,0.9607670903,-0.155785203
0.88832,-0.05152919888,-0.2083999515,0.9604498744,-0.1554241776
0.88896,-0.05143279955,-0.2087020129,0.9606932402,-0.1560376734
0.8896,-0.0518415086,-0.2089786679,0.9606266618,-0.1558800191
0.89024,-0.05165049434,-0.2089046985,0.9606095552,-0.1558126211
0.89088,-0.05144458637,-0.2090183944,0.9606023431,-0.1558829695
0.89152,-0.05144355074,-0.2097417861,0.9605843425,-0.1562918276
0.89216,-0.05156271905,-0.2095035017,0.9603076577,-0.1561247408
0.8928,-0.05179775879,-0.2097791284,0.9604066014,-0.1562409103
0.89344,-0.05172178149,-0.2100209445,0.9601380229,-0.1563068777
0.89408,-0.05155613646,-0.2101976871,0.9603201747,-0.1567935348
0.89472,-0.05187695101,-0.2100278288,0.9601987004,-0.1565002948
0.89536,-0.05164964125,-0.2103916705,0.9599349499,-0.1569809616
0.896,-0.05202887207,-0.2105059475,0.9603002667,-0.1568390876
0.89664,-0.0519487299,-0.2110255957,0.9600245357,-0.1569816619
0.89728,-0.05207296833,-0.2107871324,0.960080266,-0.1571216434
0.89792,-0.05231687054,-0.2111552656,0.9598562121,-0.1572645605
0.89856,-0.05233101174,-0.2110316008,0.9597541094,-0.1572110951
0.8992,-0.05226436257,-0.2114227563,0.959445715,-0.1572406143
0.89984,-0.05246952549,-0.2115799934,0.9598088264,-0.1573320329
0.90048,-0.05253559723,-0.2115636915,0.9595215321,-0.1575121284
0.90112,-0.05283819884,-0.2115717679,0.9595563412,-0.1577791274
0.90176,-0.05281336978,-0.2116513401,0.9598439336,-0.1577146351
0.9024,-0.05293848366,-0.2117540985,0.9591798186,-0.158017993
0.90304,-0.05312168598,-0.2117788196,0.9595736861,-0.1581520587
0.90368,-0.05288146064,-0.2121607959,0.9594388604,-0.1577512473
0.90432,-0.05335346237,-0.2117767036,0.9593707919,-0.1584067941
0.90496,-0.05330988392,-0.211801827,0.9590729475,-0.1581527293
0.9056,-0.05324571207,-0.2120626271,0.9590614438,-0.1587060243
0.90624,-0.05329689384,-0.2121210694,0.9588907957,-0.1579919308
0.90688,-0.05330906063,-0.2120852321,0.9591569901,-0.1587860137
0.90752,-0.05349933356,-0.212274,0.9591959715,-0.1584388018
0.90816,-0.05373787135,-0.2121144831,0.9588963985,-0.1588765383
0.9088,-0.0539303124,-0.2123807669,0.9588980079,-0.1591507494
0.90944,-0.05386293679,-0.2123918682,0.9587786198,-0.1590057313
0.91008,-0.05362201855,-0.2124078125,0.9588298202,-0.1587960869
0.91072,-0.05424860492,-0.2121679187,0.9587553144,-0.1595307589
0.91136,-0.05417276546,-0.2124266922,0.9588808417,-0.1594439745
0.912,-0.05440776423,-0.2124360055,0.9583835006,-0.1592376083
0.91264,-0.05435092747,-0.2123949528,0.9583198428,-0.1592934728
0.91328,-0.05404483154,-0.21268785,0.9586492181,-0.1596925259
0.91392,-0.05454983562,-0.2126247436,0.9584080577,-0.1596120149
0.91456,-0.05432761088,-0.2128428668,0.958314836,-0.1596268862
0.9152,-0.05453335866,-0.2127856463,0.958355248,-0.1597328186
0.91584,-0.05462166667,-0.2130474746,0.9584410191,-0.1599958688
0.91648,-0.05456193909,-0.2132943124,0.9583364129,-0.1601474285
0.91712,-0.05468711257,-0.2133421749,0.9581005573,-0.1601811796
0.91776,-0.05488253385,-0.2134062946,0.9579773545,-0.1602995545
0.9184,-0.05484828353,-0.2136975229,0.9581182003,-0.1604616344
0.91904,-0.05494280905,-0.2137690932,0.958311379,-0.1607894599
0.91968,-0.05467596278,-0.2140272707,0.9583461285,-0.1606659293
0.92032,-0.05489896238,-0.2138980478,0.9580657482,-0.1608354449
0.92096,-0.05496126413,-0.2142718434,0.9580600858,-0.1608235836
0.9216,-0.05494128913,-0.2145640254,0.9575324655,-0.1612602174
0.92224,-0.05494430289,-0.2145734131,0.9574227333,-0.1610265821
0.92288,-0.05506221578,-0.2147978097,0.9577471018,-0.1611899585
0.92352,-0.05529392883,-0.2149683535,0.9577729106,-0.1611722261
0.92416,-0.05539156124,-0.2150880992,0.957331717,-0.1614573747
0.9248,-0.05547133833,-0.2155071348,0.9578154683,-0.1616185009
0.92544,-0.05535722896,-0.2157039195,0.9573609233,-0.1613481045
0.92608,-0.05585284531,-0.2160980999,0.95763129,-0.161650002
0.92672,-0.05572792143,-0.2164011896,0.9571827054,-0.1615554392
0.92736,-0.05582016706,-0.2164705098,0.9573459029,-0.1619420499
0.928,-0.05596609041,-0.2165015787,0.95721066,-0.1619363576
0.92864,-0.05609228835,-0.2166616321,0.9572657347,-0.1620748639
0.92928,-0.05614901334,-0.2168482095,0.9569413662,-0.1621304601
0.92992,-0.05639192834,-0.2172253579,0.9572238922,-0.1622452587
0.93056,-0.05636473,-0.2173079699,0.9567986131,-0.1622599363
0.9312,-0.05622302368,-0.2171995789,0.9568678141,-0.1624325961
0.93184,-0.05642864481,-0.2178547531,0.9566964507,-0.1625923216
0.93248,-0.05648351833,-0.2179371268,0.9570156336,-0.1626057029
0.93312,-0.05675398931,-0.2181046009,0.9568562508,-0.1624000669
0.93376,-0.05672017857,-0.2182551175,0.9568322301,-0.162927106
0.9344,-0.05675436184,-0.218318969,0.9568116665,-0.1630670279
0.93504,-0.05709813535,-0.2181272358,0.9568017721,-0.1630200446
0.93568,-0.05727835372,-0.2184406072,0.9567896128,-0.1631970257
0.93632,-0.0571962595,-0.2186347097,0.9568258524,-0.1631451994
0.93696,-0.0574606061,-0.2186159492,0.9565262198,-0.1632697135
0.9376,-0.0574621968,-0.218564406,0.956756711,-0.1633836031
0.93824,-0.05755979568,-0.2187676877,0.956348002,-0.1632019728
0.93888,-0.05755793676,-0.2184237242,0.9564592242,-0.1638928652
0.93952,-0.0575925298,-0.2186626494,0.9561222196,-0.1638859957
0.94016,-0.0577458404,-0.2187987715,0.9563832879,-0.1638678163
0.9408,-0.05768302456,-0.2186710984,0.9563049078,-0.1640872061
0.94144,-0.05775900558,-0.2188460976,0.9563090801,-0.1638304889
0.94208,-0.05776673928,-0.2186209857,0.9562122822,-0.1641120613
0.94272,-0.05806117505,-0.2190244049,0.9563280344,-0.164272815
0.94336,-0.05787735432,-0.218871057,0.9562634826,-0.1644802839
0.944,-0.05775004625,-0.218895942,0.9562165141,-0.1647436768
0.94464,-0.05792544782,-0.2189392596,0.9559609294,-0.1647370905
0.94528,-0.05789444968,-0.2190606445,0.9560643435,-0.1648488492
0.94592,-0.05799006298,-0.2189666182,0.9559969306,-0.1647989452
0.94656,-0.05811909214,-0.21936737,0.9559565783,-0.1652191132
0.9472,-0.05785828084,-0.219166562,0.9561678171,-0.1651761085
0.94784,-0.05822193995,-0.2192579806,0.9560661912,-0.1652219892
0.94848,-0.05825559422,-0.2194794118,0.956143856,-0.1653378159
0.94912,-0.05803355947,-0.2194355279,0.9560775161,-0.165647313
0.94976,-0.05828797817,-0.2197789848,0.9559542537,-0.1657797247
0.9504,-0.05831214041,-0.2199026048,0.9561635852,-0.1656883955
0.95104,-0.05821713805,-0.2198553085,0.9558731914,-0.1659178585
0.95168,-0.05846694857,-0.2198954374,0.9557260871,-0.1658928692
0.95232,-0.05856522918,-0.2200181186,0.9557343125,-0.1661599129
0.95296,-0.05862593278,-0.220121488,0.9559848905,-0.1661752015
0.9536,-0.05845831707,-0.2203473002,0.9556460381,-0.1664782017
0.95424,-0.05888496339,-0.2204971164,0.9556802511,-0.1662572622
0.95488,-0.0586065352,-0.2205579281,0.9553468823,-0.1663366109
0.95552,-0.05887654424,-0.2208029777,0.955275476,-0.1666478366
0.95616,-0.05870066583,-0.2212886363,0.9554183483,-0.166644603
0.9568,-0.05928969383,-0.221288234,0.9552864432,-0.1667510122
0.95744,-0.05928914994,-0.2211986333,0.9549195766,-0.1670906544
0.95808,-0.05931602791,-0.2217781544,0.9550186396,-0.1669524908
0.95872,-0.05934916064,-0.2220557779,0.9548764825,-0.1672126502
0.95936,-0.05966433138,-0.2219063938,0.9547207355,-0.1671892256
0.96,-0.05973695964,-0.222325176,0.9549874067,-0.1674030721
0.96064,-0.05986860394,-0.22222808,0.9549170136,-0.1675323397
0.96128,-0.06009043753,-0.2224781066,0.9546669722,-0.1675235182
0.96192,-0.05991212651,-0.2229193747,0.9545934796,-0.1673915833
0.96256,-0.06039569527,-0.2226856947,0.9544689059,-0.1673176587
0.9632,-0.06046684086,-0.2233750522,0.9547561407,-0.1675109714
0.96384,-0.06074550003,-0.2233222574,0.9543395042,-0.1676513851
0.96448,-0.06066544354,-0.2234371901,0.954477787,-0.1678690761
0.96512,-0.06093458831,-0.2239206135,0.9542466998,-0.1680986136
0.96576,-0.06116259843,-0.223840639,0.954233706,-0.1678411067
0.9664,-0.06121468171,-0.2241491526,0.9544699788,-0.1679644883
0.96704,-0.06138148159,-0.2244551331,0.9540187716,-0.1681187451
0.96768,-0.06152151898,-0.224397555,0.9544238448,-0.1678684652
0.96832,-0.06164744124,-0.2243613005,0.9540411234,-0.1683538854
0.96896,-0.06178427488,-0.2247891873,0.9540110826,-0.1681347191
0.9696,-0.06183231995,-0.2247704715,0.9541720152,-0.1681579798
0.97024,-0.06213409826,-0.2247177213,0.9537236094,-0.1685286909
0.97088,-0.06191329286,-0.2247634977,0.9539241791,-0.1684635282
0.97152,-0.06208965927,-0.2250907272,0.95375067,-0.168861106
0.97216,-0.06222386286,-0.2252501994,0.9541036487,-0.16877985
0.9728,-0.06209394336,-0.2249523997,0.9538634419,-0.1686913222
0.97344,-0.06227977201,-0.225257948,0.9536457658,-0.1691401452
0.97408,-0.06233815849,-0.2253352255,0.953532815,-0.1690284163
0.97472,-0.06240808591,-0.2254142016,0.9532325268,-0.1692499071
0.97536,-0.06234368682,-0.2253298014,0.9537566304,-0.1694921851
0.976,-0.0622295551,-0.2254805714,0.9535357952,-0.1691340804
0.97664,-0.06243622303,-0.2253172249,0.9535393715,-0.1697599292
0.97728,-0.06229303032,-0.2255874574,0.9534283876,-0.1695931703
0.97792,-0.06247665733,-0.2256433666,0.953374207,-0.1694757342
0.97856,-0.06236673519,-0.2254812866,0.9532920718,-0.1698811352
0.9792,-0.06252512336,-0.2257671803,0.9532765746,-0.1697800905
0.97984,-0.06235205755,-0.2256976515,0.9531550407,-0.169893384
0.98048,-0.06244836375,-0.2257803231,0.953548193,-0.1699599773
0.98112,-0.06230961159,-0.2257517874,0.9529599547,-0.1703693867
0.98176,-0.06230129302,-0.226077497,0.9530767798,-0.1699852198
0.9824,-0.06247871369,-0.2258412093,0.9529927969,-0.1704385281
0.98304,-0.06245602295,-0.226337418,0.9529429078,-0.1709623039
0.98368,-0.06246045232,-0.226360172,0.953132391,-0.1709196121
0.98432,-0.06219797581,-0.2263868004,0.9531057477,-0.1708841324
0.98496,-0.06218213588,-0.2266319841,0.9529637098,-0.1708826721
0.9856,-0.0623764433,-0.2264395505,0.9527695179,-0.1713888347
0.98624,-0.06233345345,-0.2266773283,0.9525293708,-0.1714624017
0.98688,-0.06242940575,-0.2267631292,0.9524933696,-0.171386838
0.98752,-0.06273443997,-0.227052182,0.95238024,-0.17163302
0.98816,-0.06256937236,-0.2270005494,0.9523299932,-0.1716302931
0.9888,-0.06278979033,-0.2270932347,0.9527113438,-0.1718625724
0.98944,-0.06240301207,-0.2273681015,0.9520945549,-0.1719150394
0.99008,-0.06283571571,-0.2272570878,0.9519751072,-0.1721205562
0.99072,-0.06327867508,-0.2274079323,0.9520246983,-0.1725254059
0.99136,-0.06320421398,-0.2276687026,0.952110827,-0.1724199802
0.992,-0.06320291013,-0.2277436852,0.9519405365,-0.1724126041
0.99264,-0.06311437488,-0.2277252525,0.951838553,-0.1719370037
0.99328,-0.0634707585,-0.2281700671,0.951546967,-0.1723450571
0.99392,-0.06385409832,-0.2281771004,0.9519061446,-0.1726193577
0.99456,-0.06386538595,-0.2286077589,0.9514250755,-0.1723524034
0.9952,-0.06400866807,-0.228486076,0.9518257976,-0.1726815999
0.99584,-0.06404163688,-0.2288240641,0.9516122341,-0.1726737767
0.99648,-0.06433161348,-0.2288927734,0.9515770674,-0.1726448089
0.99712,-0.06454660743,-0.229173094,0.9512451887,-0.1725499034
0.99776,-0.06455148011,-0.2294751853,0.9516817331,-0.1730090529
0.9984,-0.06464248896,-0.2294991612,0.9513301849,-0.1728989333
0.99904,-0.06490723789,-0.2296344638,0.9514846206,-0.1729725301
0.99968,-0.06519574672,-0.2297193706,0.9512556195,-0.1731282324
1.00032,-0.06531529129,-0.229855448,0.9513219595,-0.1731908917
1.00096,-0.06545873731,-0.2300555408,0.9512574077,-0.1731078625
