!Created with skrf (http://scikit-rf.org).
# GHz S RI R 50.0 
!freq ReS11 ImS11 ReS21 ImS21 ReS12 ImS12 ReS22 ImS22
1.7 -0.01257379167 0.0006145261577 0.9847400784 0.1056924984 0.9854286909 0.1088635027 -0.00198174105 -0.01326870639
1.70018 -0.01264817454 0.0006110114628 0.9846751094 0.1053705513 0.9851477742 0.1085032225 -0.002088540234 -0.01312971674
1.70036 -0.01256425772 0.0007604634739 0.9847638011 0.1056479439 0.9852985144 0.1084157154 -0.002108789049 -0.01298213191
1.70054 -0.01260909811 0.0007477473118 0.9846022725 0.1054744348 0.9852620959 0.1084853858 -0.002099444624 -0.01287267264
1.70072 -0.01258892845 0.0007786237984 0.9847410917 0.1055440903 0.985373795 0.1082711145 -0.002139692893 -0.01295783464
1.7009 -0.01253751572 0.000748406339 0.9844871759 0.1055161357 0.9852440357 0.1080434769 -0.002171967877 -0.01303569321
1.70108 -0.01247357111 0.0007650723564 0.984531045 0.1055352241 0.9853246212 0.1080989614 -0.002264637966 -0.01309741475
1.70126 -0.01251655631 0.0007045404054 0.9845822453 0.1057355404 0.9852976203 0.1079730392 -0.002189116087 -0.01318259258
1.70144 -0.01254407782 0.000734479283 0.9846687913 0.1056291014 0.9854657054 0.1083367169 -0.002063753316 -0.01318001375
1.70162 -0.01266016625 0.0006494932459 0.9844887257 0.1057055369 0.9853595495 0.1081321537 -0.002047058428 -0.01317141671
1.7018 -0.01268089097 0.0006056379643 0.9843710065 0.1056004316 0.9853125215 0.1080632955 -0.00192038808 -0.01312407851
1.70198 -0.01268051285 0.0007363642217 0.984470129 0.105565086 0.985188961 0.1082260907 -0.001906467485 -0.01310977899
1.70216 -0.01259827893 0.0007250160561 0.9845508337 0.1055454612 0.9851965904 0.1082118899 -0.001995951403 -0.01300322637
1.70234 -0.01250913925 0.0008438603254 0.9844822288 0.1054017767 0.9852797389 0.1081483066 -0.002122615697 -0.01296370197
1.70252 -0.01245320681 0.0008309721015 0.9845640659 0.1056042314 0.9852073193 0.1081531942 -0.002017842373 -0.01299015898
1.7027 -0.01232502889 0.0007891339483 0.9844895005 0.1056452617 0.9851107597 0.1081130505 -0.001952338964 -0.01315618586
1.70288 -0.01236157771 0.0008664635243 0.9845867753 0.1055836976 0.9851919413 0.1083643436 -0.001904255128 -0.01327059418
1.70306 -0.01246393751 0.0007081404328 0.9846618176 0.1055916995 0.9852384329 0.108104974 -0.00177084608 -0.01334712934
1.70324 -0.01235278137 0.0008366492111 0.9845114946 0.1057251096 0.9850624204 0.1082149893 -0.001735108672 -0.01327445824
1.70342 -0.01233141404 0.000908534741 0.9844853282 0.1055582315 0.9853710532 0.1081589088 -0.001723230118 -0.01314665377
1.7036 -0.01237705629 0.0009708328289 0.9846149087 0.1056935191 0.9853267074 0.1080300212 -0.001729208743 -0.01295822673
1.70378 -0.01243848633 0.001022923854 0.9845334291 0.1055693552 0.9851445556 0.1083081663 -0.001684955088 -0.01294779032
1.70396 -0.0124006439 0.0009456902626 0.9846056104 0.1055806503 0.9852572083 0.1082862318 -0.001794317039 -0.01298058778
1.70414 -0.01244834904 0.0007841911865 0.9844644666 0.1057729647 0.9851237535 0.1082158387 -0.001655423548 -0.01303827111
1.70432 -0.01247297786 0.0008025338175 0.9843780994 0.105840072 0.9850073457 0.1080209613 -0.00169918302 -0.01300138887
1.7045 -0.01246759202 0.0009588996181 0.9846077561 0.1058199182 0.9848758578 0.1084083021 -0.001644850126 -0.01306863688
1.70468 -0.01225797366 0.0008516369853 0.9845606685 0.1058848426 0.9850032926 0.1082598269 -0.00180082419 -0.01298014075
1.70486 -0.01237383485 0.0008798270719 0.9845251441 0.1057954952 0.9850155115 0.1081195772 -0.001879268442 -0.01305421628
1.70504 -0.01234004181 0.0009354999056 0.9844754338 0.1057206765 0.9849092364 0.1080214828 -0.001772822579 -0.01295887027
1.70522 -0.01229062304 0.001007853774 0.9844682813 0.1059370041 0.9849889874 0.1081752554 -0.001742934342 -0.01299421117
1.7054 -0.01240414474 0.001022066339 0.9846760631 0.1057486013 0.9850426912 0.1081439778 -0.001517237397 -0.01302370522
1.70558 -0.01236422267 0.00093091483 0.9847119451 0.1057831794 0.9850331545 0.1080872491 -0.001468890929 -0.01311404072
1.70576 -0.01238616277 0.001057398506 0.9845610857 0.1058604792 0.984777987 0.1082273275 -0.001369956182 -0.01303591579
1.70594 -0.0123106204 0.001052770531 0.9845499992 0.1058597416 0.9850073457 0.1082734987 -0.001412685611 -0.01323969197
1.70612 -0.01238632482 0.001013907837 0.9845303893 0.1056758016 0.9850432873 0.1081463769 -0.001487047412 -0.01309907995
1.7063 -0.0123846801 0.001071857871 0.9845002294 0.1057587788 0.9849072099 0.1081520319 -0.001481970306 -0.01315328479
1.70648 -0.01234090794 0.001047156053 0.9844581485 0.1056800559 0.9851446748 0.1083118618 -0.001604578807 -0.01319553237
1.70666 -0.01230961271 0.001057008165 0.9844412804 0.1058057025 0.9851462841 0.1083131656 -0.001542349579 -0.01319686882
1.70684 -0.01233651955 0.0009158251341 0.9844366908 0.1057558879 0.9849145412 0.1084362492 -0.001516779186 -0.01311489381
1.70702 -0.01237017848 0.001008528983 0.9845945239 0.1056390479 0.9852232337 0.1085220203 -0.00149636087 -0.01309473254
1.7072 -0.01232162956 0.001020213123 0.9845241308 0.1057611555 0.9850518703 0.1083315536 -0.001548721921 -0.01302624121
1.70738 -0.01228385884 0.001093294472 0.9845380187 0.1057076305 0.9851521254 0.1084037498 -0.001445628935 -0.01303703152
1.70756 -0.0124422675 0.001047167461 0.9846274853 0.1056346893 0.9848841429 0.1082883105 -0.001447734656 -0.01290425751
1.70774 -0.01236687787 0.001157659106 0.984549582 0.1058343947 0.9850264788 0.1081854925 -0.00138819986 -0.01288739592
1.70792 -0.01230056211 0.001162730157 0.9844613075 0.1057023853 0.9850954413 0.1084436849 -0.001527102664 -0.01299783867
1.7081 -0.01228517946 0.001094403444 0.9845241904 0.1059084311 0.9850226641 0.1082080603 -0.001481733285 -0.01303841639
1.70828 -0.01226119231 0.001213899115 0.9844476581 0.1059384197 0.9850577116 0.1083003134 -0.00150014984 -0.01302855089
1.70846 -0.01227623224 0.001154957805 0.9842942357 0.1059790552 0.984952271 0.1083022803 -0.001571819186 -0.01308239345
1.70864 -0.01232518815 0.001132439706 0.9844844341 0.1058406383 0.9849109054 0.1085339785 -0.001459609484 -0.01311685424
1.70882 -0.01238255855 0.001114478684 0.9843665361 0.1058455706 0.9848155975 0.1084634438 -0.001554405782 -0.01312980801
1.709 -0.0123270601 0.001157619176 0.9844802618 0.1059457064 0.9848100543 0.1086461321 -0.001520278282 -0.01300359238
1.70918 -0.01237724721 0.001198429731 0.9842935205 0.1057952866 0.9849626422 0.1085650176 -0.001527615823 -0.01300335769
1.70936 -0.01232637092 0.001156957471 0.9843133092 0.1057934016 0.984803319 0.1086666286 -0.001371380757 -0.01284574717
1.70954 -0.01241971459 0.001136384788 0.9843410254 0.1059260219 0.9849883914 0.1084186137 -0.001575657981 -0.01297727507
1.70972 -0.01241615508 0.001140576322 0.9843400717 0.105886817 0.9848491549 0.1084743068 -0.001427934621 -0.01316483598
1.7099 -0.01241524611 0.001081719645 0.9844070077 0.1060743853 0.9847232103 0.1086357906 -0.001512695686 -0.01318962313
1.71008 -0.01250011474 0.001076445798 0.9844125509 0.1058996469 0.9844527245 0.1087995917 -0.001598622417 -0.01319598034
1.71026 -0.01253020205 0.001072260668 0.9844530225 0.1059913635 0.9846265912 0.1083425879 -0.00156780309 -0.01311564911
1.71044 -0.01251009945 0.00111799431 0.9844356179 0.1059839278 0.9849030375 0.1086306199 -0.001511425362 -0.01302494947
1.71062 -0.01254065521 0.001056019799 0.9844024777 0.1061180308 0.9849665761 0.1082907617 -0.001386399264 -0.01306000818
1.7108 -0.01253183465 0.00107984629 0.9844385386 0.1060449556 0.9849407673 0.1083740741 -0.001320337644 -0.01299895998
1.71098 -0.01249158755 0.001059409929 0.9844837189 0.1060774848 0.9847538471 0.1086845621 -0.001500208862 -0.01301401854
1.71116 -0.01261922158 0.001081006951 0.9842911959 0.1059461758 0.9848898649 0.1084797233 -0.001503689564 -0.01294837985
1.71134 -0.0127146719 0.001092548715 0.9842704535 0.1059454605 0.984824419 0.1086854488 -0.001448357478 -0.01283613686
1.71152 -0.01260352507 0.001074601547 0.9843621254 0.1060831025 0.984969914 0.1084527895 -0.001455635414 -0.01294298936
1.7117 -0.0125568537 0.001048166538 0.9844573736 0.105944939 0.9848177433 0.1084837615 -0.001412381884 -0.01290113013
1.71188 -0.01260040235 0.001205753884 0.9843812585 0.1060031056 0.9849472046 0.108357802 -0.001306156395 -0.01287070941
1.71206 -0.0125260409 0.001154844998 0.9842588305 0.1061303914 0.9848842621 0.1085671932 -0.001311553759 -0.01291906368
1.71224 -0.01256141067 0.001186727313 0.9842888117 0.1059617773 0.9849395156 0.1084832773 -0.001540246769 -0.01288850419
1.71242 -0.01250256039 0.001218657009 0.9844081402 0.1061558723 0.9848384261 0.108388342 -0.001595270005 -0.01280796342
1.7126 -0.01251059026 0.001290877583 0.9843288064 0.1061379388 0.984836936 0.1085585728 -0.001713406178 -0.01290307939
1.71278 -0.01265966333 0.001257214812 0.984356463 0.1060819104 0.984850049 0.1084213704 -0.001699679648 -0.01282595843
1.71296 -0.01268050727 0.001300056814 0.9843736291 0.1061105207 0.9846946597 0.1085654274 -0.001664690208 -0.01279741153
1.71314 -0.01276899595 0.001288738335 0.9843814969 0.1061914042 0.9848879576 0.1085318625 -0.001531157293 -0.01288481615
1.71332 -0.01288733818 0.001284184516 0.9845221043 0.1061987132 0.9851486087 0.1086254716 -0.00159765617 -0.01294193882
1.7135 -0.012866918 0.001262633828 0.9844174981 0.106386736 0.9850125909 0.1085668132 -0.001674704021 -0.01293777581
1.71368 -0.0127933668 0.001346689416 0.9844101667 0.106204249 0.9847853184 0.1085829884 -0.001668513287 -0.01283912733
1.71386 -0.01288604178 0.001443650806 0.9843386412 0.1062563658 0.9850232601 0.1086103916 -0.001523089595 -0.01292530075
1.71404 -0.01286930405 0.001438878011 0.9843329191 0.1061964408 0.9848906994 0.1085389107 -0.001536161988 -0.01291421987
1.71422 -0.01280947402 0.001412731479 0.9843773842 0.1062515602 0.9848647714 0.1087117344 -0.001697829459 -0.01285488345
1.7144 -0.01287318766 0.001273357077 0.9843880534 0.1062867716 0.9847672582 0.1089246497 -0.001475335215 -0.01286766864
1.71458 -0.01287051197 0.001173667144 0.9843004346 0.1063392982 0.9849556088 0.1086955741 -0.001582872821 -0.01301013865
1.71476 -0.01285727136 0.001307679689 0.9843469262 0.1063446626 0.9848489165 0.108832255 -0.001504546264 -0.01283735596
1.71494 -0.01288009062 0.001382723683 0.9842879176 0.1062948182 0.984711051 0.1086567044 -0.001206932124 -0.01278869621
1.71512 -0.01288423501 0.001351192011 0.9845085144 0.1061898395 0.984962523 0.108843334 -0.001308860374 -0.01272894628
1.7153 -0.01289352123 0.001267116866 0.9843452573 0.1062207893 0.9847247601 0.1087741852 -0.001292466419 -0.01278990693
1.71548 -0.01291364059 0.001283597667 0.984373033 0.1063223705 0.9846273661 0.1087083295 -0.001524023013 -0.01287186984
1.71566 -0.01313574985 0.001235907199 0.98432374 0.1064002812 0.9846553206 0.1089542657 -0.001386506716 -0.01296940446
1.71584 -0.01297686528 0.001246160013 0.9843809605 0.1062260866 0.9846843481 0.1090304628 -0.001533535542 -0.01283082273
1.71602 -0.01308759674 0.001250991016 0.9844604135 0.1064369977 0.9846203923 0.1087622344 -0.001547465217 -0.01293694694
1.7162 -0.01306647435 0.001321437536 0.9844124913 0.1065028682 0.9847121835 0.1088792607 -0.001529648318 -0.01290043443
1.71638 -0.01306848694 0.001273187692 0.9843466282 0.1065109968 0.9848477244 0.1087781265 -0.001530562877 -0.01294085477
1.71656 -0.01305969991 0.001262469799 0.9844470024 0.1065242514 0.984811902 0.1090038717 -0.001515107579 -0.01288346015
1.71674 -0.01303777471 0.001357797766 0.9843608737 0.1064287573 0.9849793911 0.108919248 -0.00152188167 -0.01285734959
1.71692 -0.01303656772 0.001255352632 0.984428525 0.1065472588 0.984785974 0.1089708433 -0.001465155976 -0.0126265483
1.7171 -0.01300300471 0.001267830376 0.9843217134 0.1065935642 0.9848358035 0.1089384556 -0.001491751871 -0.0126772169
1.71728 -0.01307111606 0.001235909294 0.9843776226 0.1064315438 0.9847902656 0.1089485437 -0.001412974787 -0.01265150122
1.71746 -0.01307680737 0.001261110418 0.9843581319 0.106415607 0.9846337438 0.1088488773 -0.001598861185 -0.01276698709
1.71764 -0.01313700248 0.001329788938 0.9843841195 0.1065275669 0.9847491384 0.108853735 -0.001647353405 -0.012837057
1.71782 -0.01314078737 0.001274119364 0.9844347239 0.1065335646 0.9846688509 0.108947359 -0.001716041239 -0.01286710892
1.718 -0.01313130744 0.001347696991 0.9844194055 0.1064647511 0.9845764637 0.1089256033 -0.001676023123 -0.01272295229
1.71818 -0.01316135377 0.001331399311 0.9843747616 0.106436424 0.9845791459 0.1090258509 -0.001686659874 -0.01258664858
1.71836 -0.0131455604 0.00134282792 0.9843533635 0.1064904779 0.9844502211 0.1089546382 -0.001682718983 -0.01268374268
1.71854 -0.01316397171 0.00140451733 0.984285593 0.1065941826 0.9846686721 0.1089007556 -0.001588971587 -0.01275891531
1.71872 -0.01318705548 0.001306294231 0.9844047427 0.1067327261 0.984777689 0.1089590415 -0.001678237575 -0.01266479492
1.7189 -0.01318729296 0.001360795111 0.984624505 0.1065932065 0.9846579432 0.1092217043 -0.001854692702 -0.01274818368
1.71908 -0.01314973272 0.001357004978 0.9844412804 0.1065616235 0.984891057 0.1090034842 -0.001769935479 -0.01269495487
1.71926 -0.01329538226 0.00140783051 0.9844325781 0.1064717397 0.9849418998 0.1090886667 -0.001602197881 -0.01264728885
1.71944 -0.0132754175 0.001400834299 0.9845315814 0.1067839116 0.9848139286 0.10925024 -0.001525271218 -0.0125486441
1.71962 -0.01327214763 0.001470940304 0.9843391776 0.1067615971 0.9847105742 0.1089532673 -0.001415419625 -0.01260515116
1.7198 -0.01328647602 0.001424180926 0.9844750166 0.1067032516 0.9846776724 0.109122321 -0.001454819459 -0.01248811185
1.71998 -0.01327211596 0.001528826659 0.9844264388 0.1065893173 0.9845915437 0.1091635302 -0.001457770239 -0.01257217862
1.72016 -0.01327855233 0.001477047568 0.9843406081 0.1067275479 0.9846773148 0.1091148108 -0.001381004229 -0.01258879155
1.72034 -0.01323442068 0.001460546511 0.984223187 0.1067463756 0.9847402573 0.1091864929 -0.001446145237 -0.0125186583
1.72052 -0.01330973487 0.00147318386 0.9843901396 0.106728889 0.9846147895 0.1092451215 -0.001595803653 -0.01280777436
1.7207 -0.01341778412 0.001466571819 0.9842983484 0.1065653265 0.9847794175 0.1091361344 -0.001773698954 -0.01285212021
1.72088 -0.01343422569 0.001412739861 0.9844176173 0.106697917 0.9846456051 0.1090114564 -0.001806443441 -0.01286480017
1.72106 -0.01341425162 0.001448223484 0.9842960835 0.1066812202 0.9848407507 0.1091135815 -0.00187774084 -0.01287177764
1.72124 -0.0134588182 0.001551259775 0.9841966629 0.1066036373 0.9848822951 0.1090645567 -0.00182029081 -0.01271154732
1.72142 -0.01347254682 0.001631552819 0.9844253659 0.1067086011 0.9848914146 0.1088990122 -0.001725076465 -0.01265028864
1.7216 -0.01354308613 0.001645977027 0.984397471 0.106675595 0.9848539829 0.1091609523 -0.001774756005 -0.01262910943
1.72178 -0.01352067664 0.001628352213 0.9845052958 0.1066581309 0.9848327637 0.1091364846 -0.001738245017 -0.01259374712
1.72196 -0.01346280426 0.001542096958 0.9843768477 0.1067072675 0.9846348763 0.1091712043 -0.001714469166 -0.01258169301
1.72214 -0.0133986976 0.001381317386 0.9843158126 0.1066860333 0.9847615957 0.1092307642 -0.001642777235 -0.01275575254
1.72232 -0.01339843776 0.001441220171 0.9844907522 0.1067942753 0.9845627546 0.109332338 -0.001716065453 -0.01277986635
1.7225 -0.01336299349 0.001544728642 0.9845277071 0.1066273078 0.9846591949 0.1094316989 -0.001642547664 -0.01273888536
1.72268 -0.01337668486 0.001624042518 0.9843384624 0.1068498194 0.9846562743 0.1091016531 -0.001759947045 -0.01264724787
1.72286 -0.01338869054 0.001672355807 0.9843239188 0.1067782417 0.9845517874 0.1095638126 -0.001799035352 -0.01277418435
1.72304 -0.01339194365 0.001591195352 0.9842717648 0.1067263484 0.9847512841 0.1093870997 -0.001717958832 -0.01265780441
1.72322 -0.01340733189 0.001570604858 0.9843033552 0.1067618206 0.9847767949 0.1093272269 -0.001601817901 -0.01265003346
1.7234 -0.01343865134 0.001455650316 0.9843271375 0.106731087 0.9846319556 0.1093534976 -0.001669645193 -0.01273016166
1.72358 -0.01341050956 0.001502946252 0.9843010306 0.1066103876 0.9847010374 0.1095542908 -0.001669891761 -0.01267315913
1.72376 -0.01343028527 0.001497854479 0.9843125939 0.1067646965 0.9848824143 0.1094711423 -0.001685232623 -0.01272339467
1.72394 -0.01347982697 0.001560750534 0.9842252731 0.1066626683 0.9848765731 0.1095725298 -0.001750172116 -0.01268041227
1.72412 -0.0135057969 0.001669766614 0.9842373729 0.106698662 0.9848887324 0.1095084101 -0.001767037553 -0.01279471256
1.7243 -0.01349872816 0.001664385898 0.9842896461 0.1067577228 0.984940052 0.1093767807 -0.001801850041 -0.01272925828
1.72448 -0.01357010845 0.001594342408 0.9844552279 0.1068513021 0.9847602844 0.1093309298 -0.001865088823 -0.01283556782
1.72466 -0.01344632916 0.001589554362 0.9843049645 0.1067565084 0.9846439958 0.1092782021 -0.001883710851 -0.01275773253
1.72484 -0.01343041658 0.001620682538 0.9845423698 0.1067748293 0.9845421314 0.1091176867 -0.00191611296 -0.01280556619
1.72502 -0.01342314947 0.001580476295 0.9844190478 0.1069060043 0.9844812751 0.1092409492 -0.001774917007 -0.01272016857
1.7252 -0.01347983629 0.001514745061 0.9844582677 0.1069085747 0.9844850898 0.1094486639 -0.001660733134 -0.01270016842
1.72538 -0.01347878575 0.001469495241 0.9843146205 0.1068484262 0.9845772386 0.1096614078 -0.001577854971 -0.0126545839
1.72556 -0.0134450309 0.001511296141 0.9841377139 0.1068580523 0.9843745232 0.1094131768 -0.001515639829 -0.01279815193
1.72574 -0.01345174387 0.001487998758 0.9843382239 0.1067803428 0.9844093919 0.1095110029 -0.001540326863 -0.01278630085
1.72592 -0.01345824916 0.001526826643 0.9842564464 0.106886819 0.9844062328 0.1097542793 -0.001534081413 -0.01269673556
1.7261 -0.01342461724 0.001491816714 0.9842104316 0.1068336889 0.9844931364 0.109593153 -0.001413282007 -0.01273576915
1.72628 -0.01343844086 0.001553788083 0.9842980504 0.1069381535 0.9845249653 0.1095839217 -0.001607391401 -0.01264827047
1.72646 -0.0133485198 0.001588101848 0.9843175411 0.1070494726 0.9845402241 0.1096258685 -0.001673324499 -0.01262077689
1.72664 -0.01335123647 0.001556776464 0.9843708873 0.1070039123 0.9846820831 0.1096860766 -0.001712654834 -0.0126706427
1.72682 -0.01326922048 0.001582301105 0.9844927192 0.1070436314 0.9845510125 0.1094161645 -0.00156614033 -0.01277383044
1.727 -0.01326736249 0.001665182994 0.9845820069 0.1069996655 0.9845750928 0.109459497 -0.001630172599 -0.01263584103
1.72718 -0.01332412101 0.001655837288 0.984198153 0.1071715876 0.9845871925 0.1095827967 -0.001513015712 -0.01257225405
1.72736 -0.01332218386 0.001759849605 0.9843643308 0.1072240919 0.9844360352 0.1094298512 -0.001482863561 -0.0126204025
1.72754 -0.01328949537 0.001707626972 0.9842094779 0.107169196 0.9846221805 0.1096446812 -0.001579054515 -0.01278638281
1.72772 -0.0132707702 0.001585956663 0.9843592048 0.1072324365 0.9843845963 0.1096042246 -0.001524470164 -0.01283082925
1.7279 -0.0133827161 0.00160643144 0.9842770696 0.1070906967 0.9842370749 0.1098524407 -0.001400657929 -0.01277492289
1.72808 -0.01340935938 0.001582733472 0.9843416214 0.1071832553 0.9844271541 0.1097850129 -0.001486363821 -0.01289486326
1.72826 -0.01333297417 0.001521664788 0.9842699766 0.1072713658 0.9844087362 0.1097619981 -0.001515749493 -0.01287917327
1.72844 -0.01331808511 0.001542065525 0.9845197797 0.1071981043 0.9845103621 0.1097173691 -0.001481269603 -0.01284070499
1.72862 -0.01334388182 0.001519814017 0.9845552444 0.1073065549 0.9845771194 0.109510392 -0.001443947898 -0.01296541188
1.7288 -0.01325811539 0.001470457646 0.9843471646 0.1073752046 0.9846274853 0.1095374599 -0.001552226953 -0.01285749953
1.72898 -0.01325327437 0.001623033546 0.9845189452 0.1073305309 0.984446466 0.1096132547 -0.001492394018 -0.01292664837
1.72916 -0.01334536355 0.001596150687 0.9843341112 0.1074037477 0.9844706059 0.109693028 -0.001483209664 -0.01282875333
1.72934 -0.01337805018 0.001633618027 0.9844067097 0.1073521003 0.9844309688 0.1095914841 -0.001445573638 -0.01288527343
1.72952 -0.01314806752 0.001759572071 0.9843090177 0.1072553098 0.9844856262 0.1096210852 -0.00158922025 -0.01291811466
