Frequency,S11 Re,S11 Im,S21 Re,S21 Im
1.7,-0.01257379167,0.0006145261577,0.9847400784,0.1056924984
1.70018,-0.01264817454,0.0006110114628,0.9846751094,0.1053705513
1.70036,-0.01256425772,0.0007604634739,0.9847638011,0.1056479439
1.70054,-0.01260909811,0.0007477473118,0.9846022725,0.1054744348
1.70072,-0.01258892845,0.0007786237984,0.9847410917,0.1055440903
1.7009,-0.01253751572,0.000748406339,0.9844871759,0.1055161357
1.70108,-0.01247357111,0.0007650723564,0.984531045,0.1055352241
1.70126,-0.01251655631,0.0007045404054,0.9845822453,0.1057355404
1.70144,-0.01254407782,0.000734479283,0.9846687913,0.1056291014
1.70162,-0.01266016625,0.0006494932459,0.9844887257,0.1057055369
1.7018,-0.01268089097,0.0006056379643,0.9843710065,0.1056004316
1.70198,-0.01268051285,0.0007363642217,0.984470129,0.105565086
1.70216,-0.01259827893,0.0007250160561,0.9845508337,0.1055454612
1.70234,-0.01250913925,0.0008438603254,0.9844822288,0.1054017767
1.70252,-0.01245320681,0.0008309721015,0.9845640659,0.1056042314
1.7027,-0.01232502889,0.0007891339483,0.9844895005,0.1056452617
1.70288,-0.01236157771,0.0008664635243,0.9845867753,0.1055836976
1.70306,-0.01246393751,0.0007081404328,0.9846618176,0.1055916995
1.70324,-0.01235278137,0.0008366492111,0.9845114946,0.1057251096
1.70342,-0.01233141404,0.000908534741,0.9844853282,0.1055582315
1.7036,-0.01237705629,0.0009708328289,0.9846149087,0.1056935191
1.70378,-0.01243848633,0.001022923854,0.9845334291,0.1055693552
1.70396,-0.0124006439,0.0009456902626,0.9846056104,0.1055806503
1.70414,-0.01244834904,0.0007841911865,0.9844644666,0.1057729647
1.70432,-0.01247297786,0.0008025338175,0.9843780994,0.105840072
1.7045,-0.01246759202,0.0009588996181,0.9846077561,0.1058199182
1.70468,-0.01225797366,0.0008516369853,0.9845606685,0.1058848426
1.70486,-0.01237383485,0.0008798270719,0.9845251441,0.1057954952
1.70504,-0.01234004181,0.0009354999056,0.9844754338,0.1057206765
1.70522,-0.01229062304,0.001007853774,0.9844682813,0.1059370041
1.7054,-0.01240414474,0.001022066339,0.9846760631,0.1057486013
1.70558,-0.01236422267,0.00093091483,0.9847119451,0.1057831794
1.70576,-0.01238616277,0.001057398506,0.9845610857,0.1058604792
1.70594,-0.0123106204,0.001052770531,0.9845499992,0.1058597416
1.70612,-0.01238632482,0.001013907837,0.9845303893,0.1056758016
1.7063,-0.0123846801,0.001071857871,0.9845002294,0.1057587788
1.70648,-0.01234090794,0.001047156053,0.9844581485,0.1056800559
1.70666,-0.01230961271,0.001057008165,0.9844412804,0.1058057025
1.70684,-0.01233651955,0.0009158251341,0.9844366908,0.1057558879
1.70702,-0.01237017848,0.001008528983,0.9845945239,0.1056390479
1.7072,-0.01232162956,0.001020213123,0.9845241308,0.1057611555
1.70738,-0.01228385884,0.001093294472,0.9845380187,0.1057076305
1.70756,-0.0124422675,0.001047167461,0.9846274853,0.1056346893
1.70774,-0.01236687787,0.001157659106,0.984549582,0.1058343947
1.70792,-0.01230056211,0.001162730157,0.9844613075,0.1057023853
1.7081,-0.01228517946,0.001094403444,0.9845241904,0.1059084311
1.70828,-0.01226119231,0.001213899115,0.9844476581,0.1059384197
1.70846,-0.01227623224,0.001154957805,0.9842942357,0.1059790552
1.70864,-0.01232518815,0.001132439706,0.9844844341,0.1058406383
1.70882,-0.01238255855,0.001114478684,0.9843665361,0.1058455706
1.709,-0.0123270601,0.001157619176,0.9844802618,0.1059457064
1.70918,-0.01237724721,0.001198429731,0.9842935205,0.1057952866
1.70936,-0.01232637092,0.001156957471,0.9843133092,0.1057934016
1.70954,-0.01241971459,0.001136384788,0.9843410254,0.1059260219
1.70972,-0.01241615508,0.001140576322,0.9843400717,0.105886817
1.7099,-0.01241524611,0.001081719645,0.9844070077,0.1060743853
1.71008,-0.01250011474,0.001076445798,0.9844125509,0.1058996469
1.71026,-0.01253020205,0.001072260668,0.9844530225,0.1059913635
1.71044,-0.01251009945,0.00111799431,0.9844356179,0.1059839278
1.71062,-0.01254065521,0.001056019799,0.9844024777,0.1061180308
1.7108,-0.01253183465,0.00107984629,0.9844385386,0.1060449556
1.71098,-0.01249158755,0.001059409929,0.9844837189,0.1060774848
1.71116,-0.01261922158,0.001081006951,0.9842911959,0.1059461758
1.71134,-0.0127146719,0.001092548715,0.9842704535,0.1059454605
1.71152,-0.01260352507,0.001074601547,0.9843621254,0.1060831025
1.7117,-0.0125568537,0.001048166538,0.9844573736,0.105944939
1.71188,-0.01260040235,0.001205753884,0.9843812585,0.1060031056
1.71206,-0.0125260409,0.001154844998,0.9842588305,0.1061303914
1.71224,-0.01256141067,0.001186727313,0.9842888117,0.1059617773
1.71242,-0.01250256039,0.001218657009,0.9844081402,0.1061558723
1.7126,-0.01251059026,0.001290877583,0.9843288064,0.1061379388
1.71278,-0.01265966333,0.001257214812,0.984356463,0.1060819104
1.71296,-0.01268050727,0.001300056814,0.9843736291,0.1061105207
1.71314,-0.01276899595,0.001288738335,0.9843814969,0.1061914042
1.71332,-0.01288733818,0.001284184516,0.9845221043,0.1061987132
1.7135,-0.012866918,0.001262633828,0.9844174981,0.106386736
1.71368,-0.0127933668,0.001346689416,0.9844101667,0.106204249
1.71386,-0.01288604178,0.001443650806,0.9843386412,0.1062563658
1.71404,-0.01286930405,0.001438878011,0.9843329191,0.1061964408
1.71422,-0.01280947402,0.001412731479,0.9843773842,0.1062515602
1.7144,-0.01287318766,0.001273357077,0.9843880534,0.1062867716
1.71458,-0.01287051197,0.001173667144,0.9843004346,0.1063392982
1.71476,-0.01285727136,0.001307679689,0.9843469262,0.1063446626
1.71494,-0.01288009062,0.001382723683,0.9842879176,0.1062948182
1.71512,-0.01288423501,0.001351192011,0.9845085144,0.1061898395
1.7153,-0.01289352123,0.001267116866,0.9843452573,0.1062207893
1.71548,-0.01291364059,0.001283597667,0.984373033,0.1063223705
1.71566,-0.01313574985,0.001235907199,0.98432374,0.1064002812
1.71584,-0.01297686528,0.001246160013,0.9843809605,0.1062260866
1.71602,-0.01308759674,0.001250991016,0.9844604135,0.1064369977
1.7162,-0.01306647435,0.001321437536,0.9844124913,0.1065028682
1.71638,-0.01306848694,0.001273187692,0.9843466282,0.1065109968
1.71656,-0.01305969991,0.001262469799,0.9844470024,0.1065242514
1.71674,-0.01303777471,0.001357797766,0.9843608737,0.1064287573
1.71692,-0.01303656772,0.001255352632,0.984428525,0.1065472588
1.7171,-0.01300300471,0.001267830376,0.9843217134,0.1065935642
1.71728,-0.01307111606,0.001235909294,0.9843776226,0.1064315438
1.71746,-0.01307680737,0.001261110418,0.9843581319,0.106415607
1.71764,-0.01313700248,0.001329788938,0.9843841195,0.1065275669
1.71782,-0.01314078737,0.001274119364,0.9844347239,0.1065335646
1.718,-0.01313130744,0.001347696991,0.9844194055,0.1064647511
1.71818,-0.01316135377,0.001331399311,0.9843747616,0.106436424
1.71836,-0.0131455604,0.00134282792,0.9843533635,0.1064904779
1.71854,-0.01316397171,0.00140451733,0.984285593,0.1065941826
1.71872,-0.01318705548,0.001306294231,0.9844047427,0.1067327261
1.7189,-0.01318729296,0.001360795111,0.984624505,0.1065932065
1.71908,-0.01314973272,0.001357004978,0.9844412804,0.1065616235
1.71926,-0.01329538226,0.00140783051,0.9844325781,0.1064717397
1.71944,-0.0132754175,0.001400834299,0.9845315814,0.1067839116
1.71962,-0.01327214763,0.001470940304,0.9843391776,0.1067615971
1.7198,-0.01328647602,0.001424180926,0.9844750166,0.1067032516
1.71998,-0.01327211596,0.001528826659,0.9844264388,0.1065893173
1.72016,-0.01327855233,0.001477047568,0.9843406081,0.1067275479
1.72034,-0.01323442068,0.001460546511,0.984223187,0.1067463756
1.72052,-0.01330973487,0.00147318386,0.9843901396,0.106728889
1.7207,-0.01341778412,0.001466571819,0.9842983484,0.1065653265
1.72088,-0.01343422569,0.001412739861,0.9844176173,0.106697917
1.72106,-0.01341425162,0.001448223484,0.9842960835,0.1066812202
1.72124,-0.0134588182,0.001551259775,0.9841966629,0.1066036373
1.72142,-0.01347254682,0.001631552819,0.9844253659,0.1067086011
1.7216,-0.01354308613,0.001645977027,0.984397471,0.106675595
1.72178,-0.01352067664,0.001628352213,0.9845052958,0.1066581309
1.72196,-0.01346280426,0.001542096958,0.9843768477,0.1067072675
1.72214,-0.0133986976,0.001381317386,0.9843158126,0.1066860333
1.72232,-0.01339843776,0.001441220171,0.9844907522,0.1067942753
1.7225,-0.01336299349,0.001544728642,0.9845277071,0.1066273078
1.72268,-0.01337668486,0.001624042518,0.9843384624,0.1068498194
1.72286,-0.01338869054,0.001672355807,0.9843239188,0.1067782417
1.72304,-0.01339194365,0.001591195352,0.9842717648,0.1067263484
1.72322,-0.01340733189,0.001570604858,0.9843033552,0.1067618206
1.7234,-0.01343865134,0.001455650316,0.9843271375,0.106731087
1.72358,-0.01341050956,0.001502946252,0.9843010306,0.1066103876
1.72376,-0.01343028527,0.001497854479,0.9843125939,0.1067646965
1.72394,-0.01347982697,0.001560750534,0.9842252731,0.1066626683
1.72412,-0.0135057969,0.001669766614,0.9842373729,0.106698662
1.7243,-0.01349872816,0.001664385898,0.9842896461,0.1067577228
1.72448,-0.01357010845,0.001594342408,0.9844552279,0.1068513021
1.72466,-0.01344632916,0.001589554362,0.9843049645,0.1067565084
1.72484,-0.01343041658,0.001620682538,0.9845423698,0.1067748293
1.72502,-0.01342314947,0.001580476295,0.9844190478,0.1069060043
1.7252,-0.01347983629,0.001514745061,0.9844582677,0.1069085747
1.72538,-0.01347878575,0.001469495241,0.9843146205,0.1068484262
1.72556,-0.0134450309,0.001511296141,0.9841377139,0.1068580523
1.72574,-0.01345174387,0.001487998758,0.9843382239,0.1067803428
1.72592,-0.01345824916,0.001526826643,0.9842564464,0.106886819
1.7261,-0.01342461724,0.001491816714,0.9842104316,0.1068336889
1.72628,-0.01343844086,0.001553788083,0.9842980504,0.1069381535
1.72646,-0.0133485198,0.001588101848,0.9843175411,0.1070494726
1.72664,-0.01335123647,0.001556776464,0.9843708873,0.1070039123
1.72682,-0.01326922048,0.001582301105,0.9844927192,0.1070436314
1.727,-0.01326736249,0.001665182994,0.9845820069,0.1069996655
1.72718,-0.01332412101,0.001655837288,0.984198153,0.1071715876
1.72736,-0.01332218386,0.001759849605,0.9843643308,0.1072240919
1.72754,-0.01328949537,0.001707626972,0.9842094779,0.107169196
1.72772,-0.0132707702,0.001585956663,0.9843592048,0.1072324365
1.7279,-0.0133827161,0.00160643144,0.9842770696,0.1070906967
1.72808,-0.01340935938,0.001582733472,0.9843416214,0.1071832553
1.72826,-0.01333297417,0.001521664788,0.9842699766,0.1072713658
1.72844,-0.01331808511,0.001542065525,0.9845197797,0.1071981043
1.72862,-0.01334388182,0.001519814017,0.9845552444,0.1073065549
1.7288,-0.01325811539,0.001470457646,0.9843471646,0.1073752046
1.72898,-0.01325327437,0.001623033546,0.9845189452,0.1073305309
1.72916,-0.01334536355,0.001596150687,0.9843341112,0.1074037477
1.72934,-0.01337805018,0.001633618027,0.9844067097,0.1073521003
1.72952,-0.01314806752,0.001759572071,0.9843090177,0.1072553098
1.7297,-0.01308252197,0.00163693889,0.9843168259,0.1073429063
1.72988,-0.01302376017,0.001619998715,0.9841724634,0.1071831733
1.73006,-0.01304067485,0.00174156623,0.9843565226,0.1072060317
1.73024,-0.0130622508,0.001658908091,0.984238565,0.1071521491
1.73042,-0.01318025496,0.00157853181,0.9843809009,0.1073109284
1.7306,-0.01313170139,0.001637589186,0.9844324589,0.1072058007
1.73078,-0.01313815732,0.001620606752,0.9843638539,0.1072466969
1.73096,-0.0130870631,0.001588647952,0.9844046235,0.1072395295
1.73114,-0.0129921576,0.001665568096,0.9841679335,0.1073088795
1.73132,-0.01308455132,0.001616356196,0.9841274619,0.1074409485
1.7315,-0.01310419757,0.001657552086,0.9842585921,0.1073556095
1.73168,-0.01306750812,0.001518248697,0.9842272997,0.1074430645
1.73186,-0.01309651323,0.001543016522,0.9841843247,0.1074339226
1.73204,-0.01297337934,0.001583684003,0.9842474461,0.1074707881
1.73222,-0.0128958812,0.001604226418,0.9841416478,0.1074603349
1.7324,-0.01294156257,0.001611760003,0.9842446446,0.1073874161
1.73258,-0.01276384573,0.00156570645,0.9841831923,0.1075062454
1.73276,-0.01285273302,0.001651637489,0.9842378497,0.1075788662
1.73294,-0.01284468453,0.001669768477,0.9841296673,0.1074687168
1.73312,-0.01277944446,0.001744825509,0.9843286276,0.1077033281
1.7333,-0.01270423736,0.001733247074,0.9842999578,0.1076007187
1.73348,-0.01269146055,0.001670726691,0.9841768742,0.1076261103
1.73366,-0.01275939122,0.00164630264,0.9844077229,0.1074338332
1.73384,-0.01275077928,0.001622141921,0.9844197035,0.1075856984
1.73402,-0.0126940906,0.001568456413,0.9844302535,0.1077200174
1.7342,-0.01264731213,0.001653039362,0.9842916131,0.1077722982
1.73438,-0.01268410869,0.001665075659,0.9843904376,0.1076699868
1.73456,-0.01267399546,0.001593451947,0.9841825366,0.107554622
1.73474,-0.01263579167,0.001601097058,0.9842791557,0.1076231599
1.73492,-0.01262464561,0.001514888834,0.9841915965,0.1076464653
1.7351,-0.01264449116,0.001584115089,0.9842749834,0.1076040864
1.73528,-0.01256981771,0.001636037254,0.9842166901,0.1076428294
1.73546,-0.01257120911,0.001573270885,0.9840716124,0.1076389998
1.73564,-0.01249700598,0.001737832092,0.9841748476,0.1076928377
1.73582,-0.01253415924,0.001751281554,0.9842181206,0.1075795293
1.736,-0.01244689897,0.001706534997,0.9843675494,0.10762427
1.73618,-0.01236511394,0.00162216858,0.9843899012,0.1076157838
1.73636,-0.01245908905,0.00165669946,0.9844360352,0.1076389179
1.73654,-0.01243063435,0.001612160471,0.9843483567,0.1076499522
1.73672,-0.0123261502,0.001570315217,0.9843865037,0.1077340171
1.7369,-0.01227833237,0.001561394078,0.984179914,0.107587412
1.73708,-0.0123592848,0.001573297195,0.9843538404,0.1078031212
1.73726,-0.01231188327,0.001631359919,0.9842669368,0.1077726036
1.73744,-0.01218617335,0.001694398234,0.9841677547,0.1077284217
1.73762,-0.01230436005,0.001743099187,0.9842276573,0.1077462509
1.7378,-0.01230718847,0.001730697462,0.9843115807,0.1078451127
1.73798,-0.01219265535,0.001764870714,0.9842669368,0.1077325568
1.73816,-0.01221018843,0.001697306172,0.9842259288,0.1077945605
1.73834,-0.01219609566,0.001731942291,0.9843483567,0.1076455787
1.73852,-0.01221121289,0.001683119684,0.9841837287,0.1078146994
1.7387,-0.01219384465,0.001690335223,0.9844290614,0.10786888
1.73888,-0.01218453329,0.001631820574,0.9843508005,0.1079127714
1.73906,-0.01223068405,0.001672246377,0.9842848182,0.1079740524
1.73924,-0.01214872953,0.001654538675,0.9844380617,0.1080778092
1.73942,-0.01215143129,0.001776067191,0.9845125079,0.1079270393
1.7396,-0.01229418535,0.001699024346,0.9844467044,0.107980147
1.73978,-0.01231026836,0.00168885442,0.9843788743,0.1077217087
1.73996,-0.01217380445,0.001737243263,0.9842969179,0.1078117564
1.74014,-0.01215874404,0.00174103817,0.9842657447,0.1078548655
1.74032,-0.01228579041,0.001696596388,0.9844278097,0.1079345495
1.7405,-0.01220321003,0.001812235336,0.9842377901,0.1078927293
1.74068,-0.01233352441,0.001670249854,0.9842964411,0.1079981774
1.74086,-0.01233530045,0.001724884496,0.9844002724,0.1080145389
1.74104,-0.01217452157,0.001759518869,0.9842582941,0.1079899147
1.74122,-0.01231348049,0.001798968762,0.9842566848,0.1079597846
1.7414,-0.01215435099,0.001777493162,0.9842345715,0.1079139784
1.74158,-0.01216588914,0.001755022444,0.9842026234,0.1080051512
1.74176,-0.01226592809,0.001781582367,0.9841644168,0.1080383658
1.74194,-0.01223532297,0.001790667186,0.984166503,0.1081098318
1.74212,-0.01236931141,0.001839388278,0.9842064381,0.1080633104
1.7423,-0.0122355856,0.001909428043,0.9841135144,0.1081106812
1.74248,-0.01223090291,0.001972730504,0.9842563272,0.1080550253
1.74266,-0.01220733486,0.002049242612,0.9841504097,0.1080300286
1.74284,-0.01227456983,0.001952038263,0.98425138,0.1081799716
1.74302,-0.0123243127,0.001971204067,0.9842001796,0.1081663594
1.7432,-0.01236291137,0.001960119698,0.9841965437,0.1080652773
1.74338,-0.01231476758,0.001984016737,0.9842330217,0.1080704704
1.74356,-0.01225907356,0.001962554175,0.984252274,0.1081993356
1.74374,-0.01231726259,0.002076786943,0.9841593504,0.1082767248
1.74392,-0.01221598685,0.002003304893,0.9841034412,0.1081944034
1.7441,-0.01224030741,0.002124788007,0.9841812849,0.1081933081
1.74428,-0.01233087759,0.002136524767,0.9842717052,0.1082122996
1.74446,-0.0123802973,0.002169478917,0.9842261672,0.1082958579
1.74464,-0.01233463269,0.002135325689,0.9842677116,0.1081924811
1.74482,-0.01242762525,0.002146175597,0.9842020273,0.108168751
1.745,-0.01241490711,0.00212601875,0.9843030572,0.1083659977
1.74518,-0.01238541119,0.001993656391,0.9843847752,0.1083956212
1.74536,-0.01240989286,0.001982346643,0.9845035076,0.1084942743
1.74554,-0.01247635391,0.002064525383,0.9843636751,0.1083866283
1.74572,-0.01243716478,0.002169568557,0.9843605161,0.1082831919
1.7459,-0.01253656019,0.002121560276,0.9842321873,0.1082301289
1.74608,-0.01249121595,0.002133635804,0.9842700958,0.1084587723
1.74626,-0.01245012134,0.002140171127,0.9842048287,0.1083526686
1.74644,-0.01244613063,0.002125690458,0.9842748046,0.1085545421
1.74662,-0.01244238019,0.002112858696,0.9841846228,0.1087659895
1.7468,-0.01241368987,0.002102171304,0.9842219353,0.1085851192
1.74698,-0.01252187509,0.002070944058,0.9840405583,0.1085772514
1.74716,-0.01244056132,0.002120270627,0.9840762019,0.1085353196
1.74734,-0.01253384165,0.002175932983,0.9840455055,0.1085093394
1.74752,-0.01247212477,0.002248924458,0.9840660691,0.1084699184
1.7477,-0.01253235526,0.002239422873,0.9840472937,0.1083725542
1.74788,-0.01251584757,0.002234160667,0.9841463566,0.1083713844
1.74806,-0.01255905721,0.002271709964,0.9839429259,0.1084325314
1.74824,-0.01262934692,0.002364828717,0.9840577841,0.1084160358
1.74842,-0.01261953916,0.002374009928,0.9840703607,0.1084700674
1.7486,-0.0126992017,0.002346988535,0.9840686321,0.108638145
1.74878,-0.0126599241,0.00251200702,0.9842214584,0.1085383594
1.74896,-0.01273624133,0.002424782608,0.9842366576,0.1085078418
1.74914,-0.01266611367,0.002479155548,0.9842767715,0.1085499823
1.74932,-0.01272005402,0.002420088509,0.9843233824,0.1086461768
1.7495,-0.01274584327,0.00244890363,0.9842894077,0.1086231545
1.74968,-0.01278964058,0.00238649291,0.9841348529,0.1085596904
1.74986,-0.01281442679,0.002399922581,0.9842534065,0.1085020602
1.75004,-0.01282743178,0.002414916642,0.9841567278,0.1088155434
1.75022,-0.01291189902,0.002418002579,0.9841074944,0.1089364737
1.7504,-0.01294296328,0.002473769477,0.9840633273,0.1087684855
1.75058,-0.01292640064,0.002482217737,0.9842075706,0.1086902544
1.75076,-0.01283919625,0.002605956746,0.9841791391,0.1088119447
1.75094,-0.01291114278,0.002599748084,0.9841640592,0.1090027094
1.75112,-0.01285247225,0.002607066417,0.9840481281,0.1090001389
1.7513,-0.01281464472,0.002604329959,0.9840256572,0.1088463515
1.75148,-0.01274965238,0.002570583718,0.9840944409,0.1088078544
1.75166,-0.01277490053,0.002596216043,0.9841374755,0.1089664474
1.75184,-0.01293978281,0.002519549802,0.9840553999,0.1087223664
1.75202,-0.01298989169,0.002559246728,0.9841915965,0.1088264138
1.7522,-0.0130083384,0.00240951241,0.9841268063,0.108804442
1.75238,-0.01308845542,0.002490802668,0.9840536714,0.1088588759
1.75256,-0.01308627147,0.002623566426,0.9841943979,0.1089324802
1.75274,-0.01306684874,0.002712313086,0.9842281342,0.1088785306
1.75292,-0.01302764658,0.002868012991,0.9841594696,0.1089389548
1.7531,-0.01302311383,0.002918443643,0.9842979312,0.1089374423
1.75328,-0.01301050838,0.002776145004,0.984148562,0.1088801101
1.75346,-0.01307018101,0.002761818934,0.9840391278,0.1090053618
1.75364,-0.01311363466,0.002707729582,0.9839926958,0.1090282798
1.75382,-0.01321974397,0.002733962378,0.9839844704,0.1089892238
1.754,-0.01326458994,0.002669094829,0.9842028022,0.1089825034
1.75418,-0.013283493,0.002704839222,0.9842068553,0.1090817302
1.75436,-0.01336655673,0.002690556226,0.9841672778,0.1090274379
1.75454,-0.01330197137,0.002826744691,0.984149754,0.108886078
1.75472,-0.01341672335,0.002895347774,0.9840233922,0.1089864224
1.7549,-0.01344618853,0.002961266553,0.9839912057,0.1092174128
1.75508,-0.01332975924,0.002973146038,0.9839962721,0.1090672091
1.75526,-0.01326916087,0.002984815044,0.9841135144,0.1091184318
1.75544,-0.01326817088,0.002939644735,0.9841123223,0.109075278
1.75562,-0.01326339226,0.002973483177,0.9840661287,0.1090503484
1.7558,-0.01338564418,0.00286430493,0.9841752648,0.1092164367
1.75598,-0.01328135468,0.002812064486,0.984378159,0.1091214046
1.75616,-0.01342759188,0.002708820859,0.98420012,0.1092312932
1.75634,-0.01332710497,0.002730648732,0.9842025042,0.1090812162
