!Created with skrf (http://scikit-rf.org).
# GHz S RI R 50.0 
!freq ReS11 ImS11 ReS21 ImS21 ReS12 ImS12 ReS22 ImS22
0.8 0.005954747088 -0.1720495969 0.9772117734 -0.1177560464 0.9770390987 -0.1169194356 -0.04479042813 -0.1601514965
0.80064 0.005640755873 -0.1721308529 0.9772761464 -0.1172535568 0.9765975475 -0.117102392 -0.04495994002 -0.1604901701
0.80128 0.0002025470603 -0.1700683236 0.9770912528 -0.1183604673 0.9768798351 -0.1177915186 -0.03941705823 -0.1602316499
0.80192 0.0003476788988 -0.1700830907 0.976837039 -0.1184024066 0.9766800404 -0.1183516234 -0.03961609304 -0.1600808948
0.80256 0.0005954169901 -0.1704507321 0.9771578312 -0.1187008172 0.9766738415 -0.1183546335 -0.03959392011 -0.1602623612
0.8032 0.000382977305 -0.170513168 0.9767373204 -0.1186684519 0.9765927792 -0.1185723692 -0.03911618143 -0.160511896
0.80384 0.0004153150367 -0.1703332812 0.976477325 -0.1187385172 0.9764778614 -0.1181794107 -0.03955456242 -0.1604446173
0.80448 0.0001773266704 -0.1706525534 0.9769868255 -0.1191636249 0.9758534431 -0.1185613349 -0.03927211091 -0.1604817063
0.80512 0.000272265519 -0.1711948663 0.9767827988 -0.118874006 0.9764368534 -0.1191811115 -0.03942539543 -0.1605943888
0.80576 0.0003138465981 -0.1708361357 0.9765840173 -0.1191051826 0.9767424464 -0.1187523827 -0.03948094696 -0.1608936638
0.8064 0.0002301394416 -0.1712722927 0.9766625166 -0.1189651564 0.9769554138 -0.1186649725 -0.03943824023 -0.1610729247
0.80704 -0.0002792023588 -0.1711411029 0.9764660597 -0.1195108145 0.9763021469 -0.1192880422 -0.03942160681 -0.1609660536
0.80768 0.000278132211 -0.1718489677 0.9764749408 -0.119122237 0.9761093259 -0.1188971251 -0.03937741369 -0.1611130089
0.80832 -0.0001548336586 -0.172168225 0.9768251181 -0.1194462106 0.9769365788 -0.1195461378 -0.03961905837 -0.1608636379
0.80896 -5.814549513e-05 -0.1722691804 0.9768463969 -0.119070217 0.9767171144 -0.1190600768 -0.03944152221 -0.1610115021
0.8096 1.234002411e-05 -0.1721310019 0.9766122103 -0.1190776974 0.9769798517 -0.1191019118 -0.03959214687 -0.1614673734
0.81024 0.0005332970759 -0.1722121388 0.9767139554 -0.1190862805 0.9764588475 -0.1191375554 -0.0400547646 -0.161815092
0.81088 -0.0004738229327 -0.1724009812 0.9765975475 -0.1193462536 0.9763842225 -0.1197684258 -0.03942393139 -0.1613779068
0.81152 -0.0002407273278 -0.1727702916 0.9765272141 -0.1194888875 0.9767559171 -0.1195263565 -0.03952718526 -0.1617044061
0.81216 -0.000416630879 -0.1728361398 0.976655066 -0.1196826547 0.9759360552 -0.1201126724 -0.03952942044 -0.1616751254
0.8128 -0.0001600810792 -0.1730617434 0.9762395024 -0.1194996014 0.9764791131 -0.1197805554 -0.03981010988 -0.1618873924
0.81344 -0.0006383804139 -0.1732397676 0.9762248993 -0.1200539842 0.976549685 -0.1196899712 -0.03892723843 -0.1618067324
0.81408 -0.0002454172354 -0.1733301878 0.9762230515 -0.1196639538 0.9763837457 -0.1197704449 -0.03968448937 -0.1621796191
0.81472 -0.0003213711898 -0.1731692851 0.9760977626 -0.1198790967 0.9763578773 -0.1200277731 -0.03980586678 -0.1625444293
0.81536 -0.0004389281676 -0.1729964018 0.976062119 -0.1202862486 0.9759747982 -0.1202795058 -0.03993636742 -0.1622108072
0.816 -0.0006875937106 -0.1732024103 0.9763163328 -0.1202751696 0.9757560492 -0.1200261042 -0.04015504196 -0.162338987
0.81664 -0.0002934107033 -0.1735232919 0.9765654206 -0.1204004586 0.9760156274 -0.1198152527 -0.04003528133 -0.1623580009
0.81728 -0.0006300522946 -0.173556298 0.9763634205 -0.1204721704 0.9757273793 -0.1200069785 -0.03976411 -0.1627586782
0.81792 -0.0003874688409 -0.1735359728 0.9762153029 -0.1204386577 0.9758697748 -0.1206442341 -0.03978183493 -0.1625434607
0.81856 -4.304903268e-05 -0.1735024899 0.9759812355 -0.1200172007 0.9759876132 -0.1204289198 -0.04070154577 -0.1629723161
0.8192 -0.0002075904631 -0.1736694276 0.9758880734 -0.1203774735 0.975985527 -0.1207942218 -0.04044616222 -0.1629515588
0.81984 -0.0001667336619 -0.1740714759 0.9760742188 -0.1203673407 0.9762095809 -0.1207441837 -0.04009399563 -0.1627829522
0.82048 -0.0001311685919 -0.1738613695 0.9761022925 -0.1206743345 0.9759165645 -0.120792143 -0.04074958712 -0.1635795683
0.82112 0.0001838724129 -0.1740134507 0.976092875 -0.1203660518 0.9757863879 -0.1202677563 -0.04089684784 -0.1634630263
0.82176 0.0003344234428 -0.1741421819 0.9757345319 -0.1208423004 0.9756587744 -0.1207652315 -0.04066212848 -0.163398847
0.8224 0.0001930017897 -0.1741055995 0.9759768248 -0.1208414882 0.9761286974 -0.1207141653 -0.041252736 -0.1632795334
0.82304 0.0003457735293 -0.1741352975 0.9757884145 -0.1210523695 0.9755495787 -0.1209541187 -0.04110279679 -0.1637889445
0.82368 0.0001721210429 -0.1744196266 0.9763017297 -0.1206448227 0.9759377241 -0.1208491549 -0.04118263349 -0.164130494
0.82432 0.0002925387817 -0.1745198369 0.9754606485 -0.1210955083 0.9753324986 -0.1214939803 -0.04150252789 -0.1638608724
0.82496 0.0004126639687 -0.1747623682 0.975859046 -0.1211510822 0.9758634567 -0.1211055145 -0.04153445736 -0.1639617085
0.8256 0.0003932433901 -0.1746030301 0.9757883549 -0.1213488355 0.9756225348 -0.1215901971 -0.04173054174 -0.1638170183
0.82624 0.000497829169 -0.1747327596 0.9755151868 -0.1211742759 0.9753441215 -0.1206486002 -0.04143219069 -0.1647885591
0.82688 0.0008167486521 -0.1749511063 0.9755205512 -0.1214971617 0.9754102826 -0.1213689148 -0.04200770706 -0.1644622087
0.82752 0.0005396581837 -0.1750119328 0.9758255482 -0.1211334541 0.9755998254 -0.1213874593 -0.04169909656 -0.1646982729
0.82816 0.000552737969 -0.1751299948 0.9754977226 -0.121851407 0.975712359 -0.121587351 -0.04227196053 -0.1643737257
0.8288 0.0007621969562 -0.1754770726 0.975666523 -0.121883601 0.9752275944 -0.1215200871 -0.04202957079 -0.1648018211
0.82944 0.0008721803315 -0.1751471311 0.9753157496 -0.1215108112 0.9749984741 -0.1215747446 -0.04191127047 -0.165164873
0.83008 0.0005838104989 -0.175685972 0.9757131934 -0.122193329 0.9750995636 -0.1221610904 -0.04251018167 -0.1652960032
0.83072 0.0009278870421 -0.1757154763 0.9751948714 -0.1221664473 0.9749280214 -0.1220458373 -0.04226947576 -0.1653963476
0.83136 0.0004140828387 -0.1761059016 0.9753647447 -0.1220135689 0.9749832749 -0.1215569824 -0.04209392145 -0.1654693186
0.832 0.00075064681 -0.1761115938 0.9758198857 -0.1223832667 0.9747360945 -0.1223681867 -0.04277408868 -0.1652806699
0.83264 0.0005067151506 -0.1761770397 0.9750683308 -0.1227019876 0.9749065042 -0.1225166395 -0.04258225486 -0.165461719
0.83328 0.0004275857355 -0.1762063652 0.9754726887 -0.1222009584 0.9751545191 -0.1219196916 -0.0426129438 -0.1657202393
0.83392 0.0009233496385 -0.1764361113 0.9753010273 -0.1221079826 0.975127995 -0.1222155616 -0.04275846481 -0.1658058167
0.83456 0.0007120830123 -0.1765605807 0.9749606252 -0.1224100068 0.9749053121 -0.1221097186 -0.04268955439 -0.1664910764
0.8352 0.0006714681513 -0.1767681986 0.9752425551 -0.1227831021 0.9746447206 -0.1227345616 -0.04309651256 -0.1658667624
0.83584 0.0004622440902 -0.1770801842 0.9751461148 -0.1227704138 0.9746806026 -0.122414276 -0.04301422089 -0.1662501991
0.83648 0.0003191406722 -0.1773545742 0.9751363993 -0.1226507723 0.9748061299 -0.1224269047 -0.04263961688 -0.1659724861
0.83712 0.000171390886 -0.1771985143 0.9750565886 -0.1228766665 0.9749096632 -0.122719638 -0.04287493229 -0.1660971045
0.83776 0.0002859501401 -0.1772337109 0.9749028087 -0.122697033 0.9747225046 -0.1225070432 -0.04279610142 -0.1668359935
0.8384 0.0002214928973 -0.1772038043 0.975041151 -0.1228873581 0.9747543931 -0.1228368059 -0.0432940796 -0.1667052805
0.83904 0.0001811884576 -0.1776642799 0.9750065804 -0.1232369915 0.9747201204 -0.1229803413 -0.043021027 -0.1666991413
0.83968 0.0002303639194 -0.177436173 0.9747912884 -0.1232297793 0.9750522971 -0.1229256243 -0.04304448143 -0.1667672694
0.84032 0.0001251532813 -0.1773084551 0.9748603106 -0.1231102273 0.9745419621 -0.1231532767 -0.04315915331 -0.167207405
0.84096 -2.260867041e-05 -0.1780277789 0.9749795198 -0.1233412176 0.9743680358 -0.1227112487 -0.04237011448 -0.1673633903
0.8416 7.159367669e-06 -0.1777268052 0.9743822813 -0.1236497313 0.9747725725 -0.1234548464 -0.04273311049 -0.1672091186
0.84224 -0.000161059419 -0.1784822494 0.9749632478 -0.1234647259 0.9748151898 -0.1233425438 -0.04282887653 -0.1672403514
0.84288 -0.0001629704784 -0.1785156429 0.9747768641 -0.1236769184 0.974650383 -0.1234200522 -0.043244984 -0.167484507
0.84352 -0.0006414645468 -0.1784142405 0.9749909639 -0.123636283 0.9742372632 -0.123739928 -0.04333094507 -0.1677107811
0.84416 -0.00024867928 -0.1783834547 0.9746096134 -0.1236034334 0.9740893841 -0.123146981 -0.04309173301 -0.1676987857
0.8448 -0.0004285659234 -0.1788387597 0.9745185971 -0.1240422502 0.9742789268 -0.1235990897 -0.04304794222 -0.1678501815
0.84544 5.610927474e-05 -0.1786171645 0.9749133587 -0.1241171509 0.9745577574 -0.1234832779 -0.04254421964 -0.1677704751
0.84608 -0.0002877052757 -0.178894192 0.9746022224 -0.1241726801 0.9744705558 -0.1232437566 -0.043144539 -0.1676366031
0.84672 -0.0004677377874 -0.1790111661 0.9746340513 -0.1243328527 0.9743922353 -0.1238080785 -0.04316889122 -0.1681722552
0.84736 -0.0002663534251 -0.1793586165 0.9745197296 -0.124201782 0.9744351506 -0.1243210286 -0.04271642491 -0.1682745218
0.848 -0.0004131390015 -0.1790666878 0.9746522903 -0.1244113892 0.97455585 -0.1246509403 -0.04328643903 -0.1682497561
0.84864 -0.0006122148479 -0.1793193966 0.9746291041 -0.1247337908 0.9738986492 -0.1244865954 -0.04296610132 -0.1682206094
0.84928 -0.0001474380551 -0.179728061 0.9745236635 -0.1243167892 0.9745768905 -0.1245020926 -0.04333531111 -0.1683232933
0.84992 -0.000331734569 -0.1797365844 0.9745354652 -0.1247399896 0.9737960696 -0.1246198788 -0.04313895851 -0.1686896831
0.85056 -0.0002130758949 -0.1797398776 0.9742900133 -0.1247842312 0.9739170671 -0.1242438927 -0.04300326481 -0.1689949781
0.8512 -0.0006500479067 -0.1800779402 0.9743947387 -0.1249546185 0.9738324285 -0.1243497953 -0.04288262874 -0.1684049815
0.85184 -0.0001208134927 -0.1803258061 0.974308908 -0.1252590269 0.9735535979 -0.1248060316 -0.04352019355 -0.168306157
0.85248 -0.0002158826392 -0.1804110557 0.9744620323 -0.1249834001 0.9745092988 -0.1246880218 -0.04373559356 -0.1687075943
0.85312 -5.657062866e-05 -0.1803932488 0.9741768837 -0.1249651238 0.9738925099 -0.12483643 -0.04338756949 -0.1687732041
0.85376 -9.320111712e-05 -0.1804549694 0.9746228456 -0.1253744662 0.973728478 -0.124426648 -0.04354928806 -0.168840766
0.8544 2.418580698e-05 -0.1804490238 0.9740954041 -0.1254092902 0.9740365744 -0.1245374829 -0.04391927272 -0.1691743881
0.85504 -0.0003038046416 -0.1808029115 0.9746234417 -0.1253902018 0.9737526774 -0.1251444519 -0.04374956712 -0.1693966091
0.85568 0.000139833428 -0.1808803976 0.9740362763 -0.1251609176 0.9736642241 -0.1248125881 -0.04381479695 -0.1696094722
0.85632 0.0001060281647 -0.1811993718 0.9744945765 -0.1256200671 0.9737089276 -0.1251824945 -0.04413790628 -0.1697301716
0.85696 0.0005178774591 -0.1810007393 0.9738652706 -0.1255881786 0.9733420014 -0.1249224693 -0.04413754493 -0.1693910211
0.8576 0.0004383042688 -0.1813413054 0.9741732478 -0.1257156134 0.9738326073 -0.1248315126 -0.04420078546 -0.1696078777
0.85824 0.000532751088 -0.1809567958 0.9742504358 -0.1257622838 0.9735623002 -0.1254745871 -0.04433726147 -0.1696521938
0.85888 0.0002981458674 -0.1814970523 0.9736675024 -0.1258100867 0.9739494324 -0.1254374981 -0.04462018982 -0.1696712673
0.85952 0.0003242542734 -0.1817173362 0.9741375446 -0.1259037256 0.9738839865 -0.1255563647 -0.04469983652 -0.1698546857
0.86016 0.0006258020294 -0.1820800453 0.9742785692 -0.1263112873 0.9733647108 -0.1253212243 -0.04471777007 -0.1697094887
0.8608 0.0004628834431 -0.1818316579 0.9739158154 -0.1264707744 0.9731665254 -0.1255470365 -0.04513247311 -0.170286864
0.86144 0.0006079078885 -0.1823276877 0.9739339352 -0.126433745 0.9736049771 -0.1254582703 -0.04461218044 -0.1702674776
0.86208 0.0003809112823 -0.1824977845 0.9737665057 -0.126721397 0.9732145667 -0.1259522587 -0.04526416212 -0.1702282131
0.86272 0.0006621031207 -0.182196483 0.9737675786 -0.1266956776 0.9730296731 -0.1259195656 -0.04528192803 -0.170305565
0.86336 0.0006379288388 -0.1823427677 0.9734751582 -0.1263894737 0.9732199311 -0.1257843524 -0.0451291725 -0.1708588749
0.864 0.0004769199877 -0.1829244494 0.9742993116 -0.126540795 0.973385334 -0.126307413 -0.04515822977 -0.1707621366
0.86464 0.0004639088875 -0.1828169376 0.9736428857 -0.1265613139 0.973146677 -0.1256468743 -0.04545804486 -0.1708518565
0.86528 0.0005099066766 -0.1827482283 0.9737052321 -0.1267626435 0.9732875824 -0.1256870627 -0.04525051266 -0.1708343327
0.86592 6.945081986e-05 -0.1829580069 0.9737667441 -0.1267412007 0.9732058048 -0.1266785264 -0.04572393745 -0.171048075
0.86656 0.0005186196067 -0.1831911206 0.9733552933 -0.1268278807 0.9722557068 -0.1263615936 -0.04558080435 -0.1711981595
0.8672 0.0005540280254 -0.1835459173 0.9734845757 -0.1271682829 0.9729220271 -0.1260564476 -0.04591158405 -0.1714571565
0.86784 0.0006383873988 -0.1833801717 0.9733973145 -0.1272990406 0.9728502035 -0.1262169927 -0.04619876295 -0.1714295447
0.86848 0.0001962963142 -0.1836551875 0.9738093615 -0.1271903366 0.9732340574 -0.1264387369 -0.04541235417 -0.1709864438
0.86912 0.0004092871677 -0.1830587685 0.973454237 -0.1276710182 0.9729933143 -0.1263780445 -0.04609657452 -0.1716391891
0.86976 0.000277454732 -0.1836822331 0.9737607837 -0.1275794655 0.9736074805 -0.1264603734 -0.04573421925 -0.1718635559
0.8704 6.392237265e-05 -0.1839035451 0.9735734463 -0.127806291 0.9731440544 -0.1267075837 -0.04606124014 -0.1719167531
0.87104 0.0003191507421 -0.1837855428 0.9735355377 -0.1279027015 0.9731190205 -0.1269212514 -0.04613212869 -0.1723091006
0.87168 5.155568942e-06 -0.1841837764 0.9734269977 -0.1276564896 0.9729804993 -0.1261465102 -0.04620556161 -0.1722757965
0.87232 0.0001709020289 -0.184204787 0.9736545086 -0.1276968867 0.9734421968 -0.126429379 -0.04597640038 -0.1723510027
0.87296 -0.0002009580494 -0.1842327863 0.9737307429 -0.1277742535 0.9732366204 -0.1274068952 -0.04650784284 -0.1723773181
0.8736 -0.0002052659256 -0.1841105223 0.9732407928 -0.1282182932 0.9728637934 -0.1269725561 -0.04608972743 -0.172711134
0.87424 0.0001068677229 -0.1843064129 0.9729493856 -0.1279559582 0.9732767344 -0.1263108552 -0.0457919687 -0.1731000841
0.87488 -0.0001762360771 -0.1843434274 0.9730958343 -0.1282073706 0.973225534 -0.1270076036 -0.04593103379 -0.1731938869
0.87552 -0.0003267653519 -0.1845439225 0.9730864763 -0.1280812472 0.9728482366 -0.1275636554 -0.04595280066 -0.1733634472
0.87616 -0.0006818016991 -0.1848920286 0.9730194211 -0.1282537282 0.9732709527 -0.1275039613 -0.04626002163 -0.1730823219
0.8768 -4.784043995e-05 -0.1845451146 0.9733685851 -0.1281980574 0.9728857279 -0.1271390468 -0.04621301219 -0.173589468
0.87744 -0.0005703197094 -0.1849559247 0.9732345343 -0.1284388155 0.9728791714 -0.1270931512 -0.04642464221 -0.1732897162
0.87808 -0.0004138679069 -0.1849964559 0.9732723832 -0.1281965524 0.9726733565 -0.127316758 -0.04614848271 -0.1737293154
0.87872 -0.0004489170969 -0.1850416958 0.9733434916 -0.1288029402 0.9728454351 -0.12707901 -0.04616105929 -0.1735549718
0.87936 -0.0008511379128 -0.1852186322 0.9732562304 -0.1286909133 0.9725689292 -0.1272360533 -0.04617451131 -0.1739630848
0.88 -0.0006112739211 -0.1851284802 0.9733687639 -0.1287317574 0.9726552367 -0.1271977872 -0.04659442976 -0.1741101295
0.88064 -0.0005021077232 -0.1854078919 0.9730554819 -0.1289990842 0.9724975228 -0.1275174022 -0.04626686126 -0.1740692109
0.88128 -0.0006210852298 -0.1856418401 0.9734041691 -0.1289138794 0.9727414846 -0.1275280267 -0.04674224928 -0.1742510349
0.88192 -0.0004582377733 -0.1856285781 0.9733885527 -0.1289357245 0.9726694822 -0.1276910454 -0.04648978636 -0.1747861207
0.88256 -0.0003788066097 -0.1856183708 0.9732887745 -0.1291428506 0.9728134871 -0.1277122647 -0.04679355025 -0.1746312678
0.8832 -0.0005603177706 -0.1855844557 0.9726023078 -0.1292080283 0.9726262093 -0.1278502345 -0.04654491693 -0.1746717989
0.88384 -0.0004356644349 -0.1860718727 0.9731468558 -0.1292047948 0.9723370075 -0.1276715398 -0.04665279388 -0.1747085899
0.88448 -0.000142109755 -0.186223194 0.9730781317 -0.1295354217 0.9725399613 -0.1274767369 -0.04662882164 -0.1747536063
0.88512 -0.0005489375326 -0.18625018 0.9730978608 -0.1294549555 0.9723767042 -0.1277319491 -0.04662096873 -0.1748776436
0.88576 -6.292096805e-05 -0.1863153577 0.9726910591 -0.1295832098 0.9724960327 -0.1278518885 -0.04657942057 -0.175143227
0.8864 -0.0001912829466 -0.1865780056 0.9732758403 -0.1296255141 0.9722313881 -0.1284639239 -0.046983473 -0.1750265062
0.88704 -2.488860628e-05 -0.1870283633 0.9728966355 -0.129339993 0.9719455838 -0.1282973886 -0.04671293125 -0.1750095487
0.88768 -0.0002395452466 -0.1871744841 0.9730402827 -0.1298647225 0.9726933241 -0.1281405687 -0.04731173441 -0.1749691963
0.88832 -0.0003664635587 -0.1873102635 0.9728235006 -0.1295206994 0.9724176526 -0.1283943802 -0.04670634121 -0.1752081066
0.88896 -0.0003184438683 -0.1875050068 0.973251164 -0.1301153749 0.9721307158 -0.1282828301 -0.04694595933 -0.174862951
0.8896 -0.0003134469443 -0.1879083365 0.9729017615 -0.1298791915 0.9722806215 -0.1281715184 -0.04710261524 -0.1752369255
0.89024 -0.0002441180404 -0.1876694113 0.9726588726 -0.1302062869 0.9716380239 -0.1288374364 -0.04668275639 -0.1754006445
0.89088 6.922203465e-05 -0.1878659576 0.973141551 -0.1301365346 0.972078383 -0.1288124472 -0.04767446592 -0.1753763258
0.89152 9.909627261e-05 -0.1885509193 0.9729534388 -0.1303574145 0.9724082947 -0.1286896169 -0.04758377373 -0.1755096763
0.89216 9.1555994e-05 -0.188317135 0.9727836251 -0.1302541196 0.9719617963 -0.1293013394 -0.04754779115 -0.1755157113
0.8928 -6.782927085e-05 -0.1885650307 0.9727887511 -0.1302676648 0.9724325538 -0.128868714 -0.04765597358 -0.1755148321
0.89344 -7.670745254e-05 -0.188893646 0.9728753567 -0.1304290593 0.9719923139 -0.1292309016 -0.04781628773 -0.1755202562
0.89408 0.0003142341739 -0.1890266836 0.9726578593 -0.1304145455 0.9720602036 -0.1292890459 -0.04792132601 -0.1758426428
0.89472 2.381892409e-05 -0.1889415234 0.972655654 -0.1307729781 0.9714865685 -0.1289806366 -0.0476010181 -0.1756339222
0.89536 0.0003374085063 -0.1892977804 0.9723782539 -0.1310348213 0.9717978835 -0.1295188665 -0.0477597788 -0.1760490537
0.896 2.794840839e-05 -0.1892754287 0.9725016952 -0.1306328923 0.9724113345 -0.1297395676 -0.04831808433 -0.175989747
0.89664 0.0003708451986 -0.1898325384 0.9725046754 -0.131032005 0.9722830057 -0.1295166314 -0.04844799638 -0.1756758094
0.89728 0.0002696574666 -0.1895766109 0.9723284841 -0.1309911758 0.9722464085 -0.1296445727 -0.04849889502 -0.1757280529
0.89792 9.08295624e-05 -0.1900205165 0.9723542929 -0.1310378462 0.9719409347 -0.130355671 -0.04853561521 -0.1760429889
0.89856 4.454096779e-05 -0.1899082661 0.9724856615 -0.1312168241 0.9718670845 -0.1295803338 -0.04862380028 -0.1760687381
0.8992 0.0003634946188 -0.1903320849 0.9722186327 -0.1310908198 0.9720975161 -0.130127877 -0.04840283841 -0.1764220446
0.89984 0.0001997507643 -0.1903978884 0.972456336 -0.131118536 0.9720960259 -0.1296416074 -0.04872791097 -0.1761268079
0.90048 3.840576392e-05 -0.1905575991 0.9722633958 -0.1314068139 0.971950829 -0.1300319731 -0.04848191887 -0.176724717
0.90112 -3.221107181e-05 -0.1904769391 0.9723465443 -0.1314575821 0.9720621109 -0.1299622059 -0.04875717685 -0.1766908318
0.90176 6.889028009e-05 -0.1904071867 0.972632885 -0.1312876642 0.9721961021 -0.1305007637 -0.04883858189 -0.1768833101
0.9024 -0.0001186404261 -0.1907009184 0.9721699357 -0.1321590245 0.97189641 -0.1306837946 -0.04866005853 -0.1768971831
0.90304 -0.0002407981374 -0.1906820685 0.9726089835 -0.1318915486 0.9723451138 -0.1310483664 -0.04880838841 -0.176936239
0.90368 0.0001984503469 -0.1909124851 0.9723163247 -0.1314496696 0.9718420506 -0.1301753372 -0.04886792973 -0.177185148
0.90432 -0.0002713850699 -0.190642938 0.9723085761 -0.1322120428 0.9714204073 -0.1309884042 -0.04883389175 -0.1770580709
0.90496 -0.0001391900005 -0.19067128 0.9718439579 -0.1319933683 0.9719218612 -0.1309414059 -0.04939902946 -0.1775813252
