Frequency,S11 Re,S11 Im,S21 Re,S21 Im
1.7,-0.1483080983,-0.3131434023,0.8944073319,-0.2385034859
1.70018,-0.1482909173,-0.3131136298,0.8944049478,-0.238487035
1.70036,-0.148380667,-0.3130080104,0.8942965865,-0.238679111
1.70054,-0.1483869404,-0.3130213618,0.8942331076,-0.2387044132
1.70072,-0.1484484076,-0.3129869401,0.8941941857,-0.2387107164
1.7009,-0.148419112,-0.3130821586,0.8942123055,-0.2386399209
1.70108,-0.1484268457,-0.3130626976,0.8941255808,-0.2385895848
1.70126,-0.1484384835,-0.3129891753,0.8942201734,-0.2385767102
1.70144,-0.1485227048,-0.3131096065,0.8942105174,-0.2386514992
1.70162,-0.1485998183,-0.3130905926,0.8940786123,-0.2386014611
1.7018,-0.148680836,-0.3131159246,0.8941327333,-0.2386614531
1.70198,-0.1486381888,-0.3130543232,0.8939854503,-0.2387838215
1.70216,-0.1485434473,-0.3130700886,0.8940221071,-0.2388304323
1.70234,-0.1485598385,-0.3130865693,0.8941076398,-0.2387911975
1.70252,-0.1486733705,-0.3129641116,0.893959403,-0.2388963997
1.7027,-0.1487182379,-0.3131963909,0.8940797448,-0.2389257848
1.70288,-0.1486051083,-0.3132050037,0.8941095471,-0.2387636155
1.70306,-0.1485888809,-0.313184917,0.8940837979,-0.2388419807
1.70324,-0.1486152112,-0.3131418824,0.8940632343,-0.238892749
1.70342,-0.1486478895,-0.3130759895,0.8940731287,-0.2388927042
1.7036,-0.148607403,-0.3129925728,0.8939936161,-0.2388429195
1.70378,-0.1486621499,-0.3130440116,0.8939114213,-0.2388926297
1.70396,-0.1487068981,-0.3131180406,0.8939879537,-0.2388901561
1.70414,-0.1487187743,-0.3130910397,0.8938598633,-0.2388783991
1.70432,-0.1488783211,-0.3132354915,0.8938599825,-0.2388367802
1.7045,-0.1488014758,-0.3131846488,0.8938559294,-0.2388470173
1.70468,-0.1488515735,-0.3132529557,0.8938728571,-0.2389977723
1.70486,-0.1488339603,-0.3130927682,0.8938519359,-0.2389560044
1.70504,-0.1488796026,-0.3131318986,0.8938621879,-0.2390767783
1.70522,-0.1489005089,-0.3130887151,0.8937954903,-0.2389642745
1.7054,-0.1489263773,-0.3130345643,0.8937725425,-0.2390899211
1.70558,-0.1489604414,-0.313082993,0.8936484456,-0.2391573638
1.70576,-0.1489134431,-0.3130703866,0.893792212,-0.2390567958
1.70594,-0.1489629745,-0.3131179214,0.8938393593,-0.2390641719
1.70612,-0.1489599347,-0.313066572,0.8937126398,-0.2391075641
1.7063,-0.1490016133,-0.3130781353,0.8936610818,-0.2392681837
1.70648,-0.1490257084,-0.3131741285,0.8937474489,-0.2391277105
1.70666,-0.1489494294,-0.3132320344,0.8937051892,-0.2392445207
1.70684,-0.1490945071,-0.3132176101,0.893471539,-0.2392182946
1.70702,-0.1491099894,-0.3131911457,0.8934734464,-0.2394007742
1.7072,-0.1491718143,-0.3131995201,0.8935562968,-0.2393911183
1.70738,-0.1492517889,-0.3131955862,0.8936207294,-0.2396187782
1.70756,-0.1492041498,-0.31306687,0.8934991956,-0.2392779738
1.70774,-0.149297446,-0.3132112622,0.8934569359,-0.2394051254
1.70792,-0.1491440386,-0.3132092357,0.8935440183,-0.2392968237
1.7081,-0.1492481828,-0.3132708669,0.893502593,-0.2393309176
1.70828,-0.1492940485,-0.313161701,0.8933685422,-0.2393618375
1.70846,-0.1492578536,-0.3133338392,0.8935070038,-0.2393337786
1.70864,-0.1492465287,-0.3132452369,0.8933995366,-0.2393414676
1.70882,-0.1492429823,-0.3133958578,0.8936536908,-0.2394695878
1.709,-0.1492994428,-0.3132867217,0.8934226632,-0.2394669652
1.70918,-0.1494634151,-0.313257426,0.8934252858,-0.2395652682
1.70936,-0.1495461911,-0.3132231236,0.8934126496,-0.2395591587
1.70954,-0.1495346129,-0.3132013083,0.8933275938,-0.2395660877
1.70972,-0.1495385915,-0.3132558763,0.8933555484,-0.2394232154
1.7099,-0.1494717151,-0.3133821487,0.8934910297,-0.2393938601
1.71008,-0.1496176571,-0.3133556843,0.8935483694,-0.2393888831
1.71026,-0.1495645642,-0.3134485781,0.8935539722,-0.2394336164
1.71044,-0.1497254074,-0.3134356439,0.8934285045,-0.2395211905
1.71062,-0.1497860104,-0.3134126663,0.8933467269,-0.2396137118
1.7108,-0.1498354822,-0.3135118186,0.8934051394,-0.2396033704
1.71098,-0.1498588771,-0.3134703934,0.8934159875,-0.239508599
1.71116,-0.1499703377,-0.3134367168,0.8933045864,-0.239520818
1.71134,-0.1498757899,-0.313326925,0.8933303952,-0.2395519614
1.71152,-0.1499462426,-0.3134202361,0.8932561874,-0.2395276725
1.7117,-0.1500008404,-0.3133529127,0.8933650851,-0.2396344095
1.71188,-0.1500191838,-0.3133911788,0.8933079243,-0.2397128195
1.71206,-0.1499905586,-0.3133193851,0.8931280971,-0.23962605
1.71224,-0.1500422955,-0.3134380877,0.8932353258,-0.2396029383
1.71242,-0.1500567198,-0.3133725226,0.8932113647,-0.2396725565
1.7126,-0.1501378566,-0.3132537603,0.8932304978,-0.2396869063
1.71278,-0.1501832604,-0.3133658469,0.8932018876,-0.2398081273
1.71296,-0.1502331048,-0.3133902848,0.8931308985,-0.2398910671
1.71314,-0.1502657533,-0.3133327365,0.8931917548,-0.2395907789
1.71332,-0.150314182,-0.313393563,0.8931424022,-0.2396640778
1.7135,-0.1503963321,-0.3133856356,0.8931131363,-0.2396924794
1.71368,-0.1503106356,-0.3133846819,0.8932141066,-0.2397674024
1.71386,-0.1503642648,-0.313264519,0.8931327462,-0.2399459779
1.71404,-0.1503760666,-0.3132880032,0.8931737542,-0.2398290336
1.71422,-0.1504389793,-0.3133446574,0.8930698037,-0.2397793233
1.7144,-0.1504131705,-0.313511163,0.8932730556,-0.2398274392
1.71458,-0.1504780054,-0.3135144711,0.8931431174,-0.2397844195
1.71476,-0.1504771113,-0.3135094643,0.8929742575,-0.2397270352
1.71494,-0.1505539566,-0.3134071231,0.8930436969,-0.2397448868
1.71512,-0.1505247355,-0.3134816885,0.892940402,-0.2399105728
1.7153,-0.1506133527,-0.3134429157,0.8930393457,-0.2398430556
1.71548,-0.1506881714,-0.3135038614,0.8930910826,-0.2398240119
1.71566,-0.1507322788,-0.3136291206,0.8931298256,-0.2398663163
1.71584,-0.1507867128,-0.3135824203,0.8930678964,-0.239703089
1.71602,-0.1508260071,-0.313552022,0.8929835558,-0.2399042547
1.7162,-0.1508189738,-0.3135700524,0.893048048,-0.2398313433
1.71638,-0.1508674324,-0.3135805726,0.8931204677,-0.2397298664
1.71656,-0.1508859694,-0.3135869801,0.8930703998,-0.2399164736
1.71674,-0.1508443207,-0.3136283159,0.8929514885,-0.2399163395
1.71692,-0.1509208381,-0.3136603534,0.8928767443,-0.239831388
1.7171,-0.150947988,-0.3136824369,0.8928909302,-0.2399942577
1.71728,-0.1509702951,-0.3137919903,0.8931139112,-0.240026772
1.71746,-0.1511293799,-0.313687712,0.8928231597,-0.240021795
1.71764,-0.151121825,-0.3137308061,0.8929103017,-0.2400939912
1.71782,-0.1510623842,-0.3137824237,0.8928660154,-0.2400157303
1.718,-0.1511006653,-0.3137069941,0.892965734,-0.240003854
1.71818,-0.1511131525,-0.3136376739,0.8928862214,-0.2400505543
1.71836,-0.1511416882,-0.3136407137,0.892832458,-0.2401162237
1.71854,-0.1511846781,-0.3138142228,0.8928627968,-0.2400103509
1.71872,-0.1511671543,-0.3137330413,0.8928281665,-0.2401024848
1.7189,-0.1512450576,-0.3137694597,0.8929159045,-0.2399564534
1.71908,-0.1512386054,-0.3138513863,0.8928519487,-0.2401182204
1.71926,-0.1513055712,-0.3137954473,0.8929074407,-0.2401768565
1.71944,-0.1513228416,-0.3137254417,0.8929817677,-0.2400536537
1.71962,-0.1513356864,-0.3136903048,0.8929429054,-0.2401527166
1.7198,-0.1513718218,-0.3137876093,0.8927650452,-0.24019593
1.71998,-0.1513727605,-0.3137385547,0.8927884698,-0.2401325107
1.72016,-0.1513034403,-0.3137628436,0.8927048445,-0.2401283234
1.72034,-0.1513534486,-0.3137131631,0.892555356,-0.2401348799
1.72052,-0.1513701081,-0.3138572574,0.8926918507,-0.2401093841
1.7207,-0.1515185684,-0.3138749003,0.8927255869,-0.2403223366
1.72088,-0.1515402943,-0.3139148355,0.8928769827,-0.2401917428
1.72106,-0.1515966952,-0.3139437139,0.8927209973,-0.2402099371
1.72124,-0.1516443193,-0.3138678968,0.8927341104,-0.2403125167
1.72142,-0.1516779512,-0.3138952255,0.892770946,-0.2403684407
1.7216,-0.151716128,-0.3138020337,0.8926169872,-0.2404004782
1.72178,-0.1517573595,-0.313895911,0.8926323652,-0.2404761314
1.72196,-0.1517662704,-0.3139625192,0.8925881386,-0.2404955626
1.72214,-0.1517558396,-0.3139315844,0.8925474882,-0.2405866683
1.72232,-0.1516961455,-0.3140732646,0.8925359845,-0.2406174093
1.7225,-0.151752159,-0.3140153289,0.8925831318,-0.2405180335
1.72268,-0.1517030448,-0.3140587509,0.8925930262,-0.2405881137
1.72286,-0.1515500247,-0.3140013218,0.8925161958,-0.2405172586
1.72304,-0.1516606212,-0.3140976131,0.8925191164,-0.2403814495
1.72322,-0.1518829316,-0.3140617013,0.8925607204,-0.2407014668
1.7234,-0.1518242657,-0.3142288327,0.8924272656,-0.2405151129
1.72358,-0.1519183069,-0.3141155541,0.8924257755,-0.240586862
1.72376,-0.1518652141,-0.3142713904,0.8923953772,-0.2405830771
1.72394,-0.151838541,-0.3142501712,0.8923553824,-0.2406387925
1.72412,-0.151901871,-0.3142238855,0.8923642039,-0.240522325
1.7243,-0.1520073712,-0.3142678738,0.8924084306,-0.2405686378
1.72448,-0.1520260423,-0.314257443,0.892516017,-0.2406560183
1.72466,-0.151976943,-0.3142228127,0.8923959732,-0.2407911718
1.72484,-0.1519865245,-0.3142273724,0.8923380375,-0.2407339662
1.72502,-0.1520535648,-0.3143313527,0.8923766613,-0.2407748252
1.7252,-0.1521184593,-0.3144233227,0.8922507763,-0.2407474071
1.72538,-0.1520889699,-0.3143513501,0.8922938108,-0.2409710288
1.72556,-0.1520417631,-0.3144897521,0.892414391,-0.2408404201
1.72574,-0.1520045251,-0.3145641387,0.8922806382,-0.2407238781
1.72592,-0.1519581079,-0.3145789802,0.8923299313,-0.2407199442
1.7261,-0.1520218253,-0.3145363927,0.892483294,-0.2408138514
1.72628,-0.1521684974,-0.3145719767,0.8923532367,-0.2408009917
1.72646,-0.1520452797,-0.3147139847,0.8923254609,-0.2407158613
1.72664,-0.1520623565,-0.3147686124,0.8924157023,-0.2408613563
1.72682,-0.1521491259,-0.314715296,0.8923570514,-0.2408224195
1.727,-0.1521066725,-0.3146158755,0.8923584819,-0.2409106195
1.72718,-0.152068004,-0.3146097362,0.8922699094,-0.2407694459
1.72736,-0.1520169824,-0.3145229816,0.8923168778,-0.2406895459
1.72754,-0.1520727128,-0.314655602,0.892382741,-0.240836978
1.72772,-0.1521338671,-0.3147529662,0.89232409,-0.2407422662
1.7279,-0.1521579027,-0.3146895766,0.8922157288,-0.2409224063
1.72808,-0.1521196663,-0.3148086369,0.8920527697,-0.2411092967
1.72826,-0.1522048712,-0.314835161,0.8922581077,-0.2408783436
1.72844,-0.1522345394,-0.314895153,0.892380476,-0.2406514734
1.72862,-0.1522217393,-0.3149703741,0.8923726678,-0.240800187
1.7288,-0.1522742808,-0.3149065375,0.8923768997,-0.2408629209
1.72898,-0.1522724181,-0.3148430884,0.8922973871,-0.2409773469
1.72916,-0.1521758288,-0.3148633838,0.8922807574,-0.2407781184
1.72934,-0.152238667,-0.3148205876,0.89217484,-0.2410460413
1.72952,-0.1521664113,-0.3149417639,0.8921331763,-0.2410090864
1.7297,-0.1521427184,-0.3149606287,0.892115593,-0.2410575598
1.72988,-0.1520179808,-0.3150187135,0.8917997479,-0.2410067022
1.73006,-0.1521285623,-0.3150416315,0.8920826912,-0.2411082834
1.73024,-0.1521392167,-0.3151503801,0.8920800686,-0.2411274612
1.73042,-0.1521926373,-0.3151414692,0.8921555877,-0.2412608415
1.7306,-0.1522953361,-0.315105617,0.8921272755,-0.2412888855
1.73078,-0.1523030102,-0.3151207864,0.8920117021,-0.2412890047
1.73096,-0.1522850245,-0.3151869774,0.8920416236,-0.2411274463
1.73114,-0.152291432,-0.3151224852,0.8920065761,-0.2411893904
1.73132,-0.1521910876,-0.3151945174,0.8919565678,-0.2412151098
1.7315,-0.1522284001,-0.3152359426,0.8918492794,-0.241207391
1.73168,-0.1523536593,-0.3151921034,0.891788125,-0.2412908077
1.73186,-0.1523904949,-0.3151999414,0.8918850422,-0.2412332892
1.73204,-0.1523914188,-0.3153324127,0.8918505311,-0.2413059473
1.73222,-0.1522954255,-0.3153892457,0.8917545676,-0.2413780093
1.7324,-0.1522448063,-0.3154630661,0.8918973804,-0.2413053364
1.73258,-0.1522468179,-0.3155581057,0.8919020891,-0.2413176894
1.73276,-0.1523117721,-0.3154871762,0.8919173479,-0.2413714379
1.73294,-0.1521908641,-0.3154144883,0.8919053674,-0.2414123118
1.73312,-0.1523053646,-0.3154332638,0.8919166923,-0.2412895709
1.7333,-0.1522599757,-0.3154302239,0.891810596,-0.2414338738
1.73348,-0.1522705555,-0.3155449033,0.8919811845,-0.2414295375
1.73366,-0.1523476094,-0.3155541718,0.8919015527,-0.2415260077
1.73384,-0.1523007303,-0.3155477345,0.891854763,-0.2414003015
1.73402,-0.15226987,-0.3156045079,0.8917740583,-0.241474241
1.7342,-0.1523316354,-0.315683037,0.891844213,-0.2414256036
1.73438,-0.1523376405,-0.3156870008,0.8918792605,-0.2414499521
1.73456,-0.1523563415,-0.3157636523,0.8919035792,-0.2415385991
1.73474,-0.1523011178,-0.3156859577,0.8917521834,-0.241376996
1.73492,-0.1522928476,-0.3157882094,0.8917556405,-0.2413769662
1.7351,-0.1523410529,-0.3158350587,0.891725719,-0.2414158881
1.73528,-0.1522972882,-0.3158159852,0.8917273879,-0.2415343672
1.73546,-0.1522362977,-0.315766573,0.8917196989,-0.24145028
1.73564,-0.1522623003,-0.3157193661,0.8916578293,-0.2415551394
1.73582,-0.1523694992,-0.3157844543,0.891618073,-0.2416928262
1.736,-0.1522976309,-0.3158082366,0.891667366,-0.2416212708
1.73618,-0.1522890329,-0.3158251345,0.8916159272,-0.2418390512
1.73636,-0.1524259895,-0.3160553873,0.8918446302,-0.2419019192
1.73654,-0.1523797363,-0.315987438,0.8918472528,-0.2419026345
1.73672,-0.1523918211,-0.3159855902,0.891710341,-0.2417268902
1.7369,-0.152407825,-0.3161299527,0.8916453123,-0.2417580485
1.73708,-0.1523601711,-0.316069603,0.8916404843,-0.2417307198
1.73726,-0.1523623914,-0.3159795403,0.8916302323,-0.241656512
1.73744,-0.1523056775,-0.3160525262,0.8916628957,-0.2417379022
1.73762,-0.1522559673,-0.3158665299,0.8914461136,-0.2417749166
1.7378,-0.1523406357,-0.3159660399,0.8914839029,-0.2418057173
1.73798,-0.1524216682,-0.3158971071,0.8914340138,-0.241894111
1.73816,-0.1523356438,-0.3159804642,0.891458869,-0.2419089526
1.73834,-0.1524286866,-0.3160253465,0.8913491368,-0.2420350462
1.73852,-0.1523897201,-0.3161343336,0.8913986087,-0.2418488413
1.7387,-0.1523916572,-0.3161664903,0.8915292025,-0.2418897897
1.73888,-0.1523813307,-0.3161740899,0.8915247321,-0.2417652905
1.73906,-0.1524840891,-0.3161360025,0.8913872242,-0.2418057323
1.73924,-0.1525116414,-0.3160589337,0.8913575411,-0.2419782579
1.73942,-0.1525731087,-0.3161260784,0.8915241361,-0.2419893742
1.7396,-0.1526052654,-0.3161762357,0.8915145993,-0.2420631349
1.73978,-0.1525308788,-0.3161951005,0.8914968371,-0.2419041842
1.73996,-0.1525934041,-0.3161641359,0.8913429976,-0.242119953
1.74014,-0.1524150223,-0.31625247,0.8915023208,-0.2420295477
1.74032,-0.1525803059,-0.3162302673,0.891289711,-0.2420142889
1.7405,-0.1525949836,-0.3161385059,0.891338408,-0.2420118004
1.74068,-0.1526354551,-0.316257447,0.8913556933,-0.2419344932
1.74086,-0.1527470946,-0.3161791861,0.8913224339,-0.2420533001
1.74104,-0.1526979953,-0.3162255585,0.8914533257,-0.2419724762
1.74122,-0.1527684778,-0.3163239062,0.8913658857,-0.2421852946
1.7414,-0.1526885182,-0.3163616061,0.8913511634,-0.2420695126
1.74158,-0.1527308673,-0.3162835836,0.8913098574,-0.2420311421
1.74176,-0.1527846605,-0.3161361814,0.8911556602,-0.2421584129
1.74194,-0.152826637,-0.3161545396,0.8912672997,-0.242083922
1.74212,-0.1527971774,-0.3162248135,0.8911730051,-0.2420313358
1.7423,-0.1528517902,-0.3162263632,0.8912895918,-0.2419492453
1.74248,-0.1528364718,-0.3160945773,0.8911944628,-0.2420811951
1.74266,-0.1529027224,-0.3161764145,0.891218245,-0.2422133982
1.74284,-0.1528881937,-0.3161271811,0.8911634684,-0.2421346605
1.74302,-0.1528956592,-0.3160499632,0.8910763264,-0.2421795279
1.7432,-0.1528427601,-0.316113472,0.8911324143,-0.2421310097
1.74338,-0.1530050039,-0.3160528839,0.891166389,-0.2420681566
1.74356,-0.1529144496,-0.3160737455,0.8910476565,-0.2421632409
1.74374,-0.1527848542,-0.3161279857,0.8911786675,-0.2420604527
1.74392,-0.1529839784,-0.3160791695,0.8911958933,-0.2422308028
1.7441,-0.1528130174,-0.316046834,0.8910324574,-0.2421357632
1.74428,-0.1530028433,-0.3161935806,0.8911466002,-0.2422194332
1.74446,-0.1530371308,-0.3160237074,0.8910082579,-0.2422642261
1.74464,-0.1531579942,-0.3160877228,0.8912085891,-0.2421893626
1.74482,-0.1531596631,-0.316089958,0.8911160827,-0.242177248
1.745,-0.1532001048,-0.3160910606,0.8911758661,-0.2421039939
1.74518,-0.1532689333,-0.3161860704,0.891269505,-0.2422024906
1.74536,-0.1532986313,-0.3161150217,0.8912063837,-0.242027387
1.74554,-0.1534484625,-0.316234529,0.8911825418,-0.2422447652
1.74572,-0.1534076929,-0.316178143,0.8912539482,-0.2423183024
1.7459,-0.1534481347,-0.3161167204,0.8911756873,-0.242416054
1.74608,-0.1534126103,-0.3161527216,0.8910978436,-0.2423043996
1.74626,-0.1534254402,-0.3161029816,0.8910342455,-0.2422881424
1.74644,-0.1533988416,-0.3161640763,0.8911595345,-0.2422606349
1.74662,-0.1533342451,-0.3163030744,0.8912013173,-0.2420034111
1.7468,-0.1534308195,-0.3162186146,0.8911485076,-0.2422190905
1.74698,-0.1534596384,-0.3161951005,0.8909927607,-0.2422249764
1.74716,-0.1534582227,-0.3161657155,0.8909757733,-0.2423325032
1.74734,-0.1535291225,-0.3160618246,0.8908973932,-0.2424168736
1.74752,-0.1536261886,-0.31611678,0.8908287883,-0.2423675358
1.7477,-0.1536455601,-0.3161536455,0.89081949,-0.2423277944
1.74788,-0.1535753608,-0.3160852194,0.8907667398,-0.2424262613
1.74806,-0.1536457241,-0.3161794245,0.8909220695,-0.2423698306
1.74824,-0.1535913348,-0.3160476685,0.8908935189,-0.2422510386
1.74842,-0.15368855,-0.3161207139,0.8909043074,-0.2422560155
1.7486,-0.1537248641,-0.3160261214,0.8908466697,-0.2422945648
1.74878,-0.153724134,-0.3159545362,0.8908732533,-0.2423403561
1.74896,-0.1538297683,-0.3159918189,0.890899539,-0.2426108271
1.74914,-0.1537962407,-0.3158717752,0.890917182,-0.2425893843
1.74932,-0.1538693756,-0.3160013556,0.8909489512,-0.2425431162
1.7495,-0.1539294869,-0.3160617948,0.8908888102,-0.2425163686
1.74968,-0.1539491564,-0.3161405027,0.8909668326,-0.2425563186
1.74986,-0.1540000141,-0.3160984814,0.8909811378,-0.2425349504
1.75004,-0.1540501267,-0.3160945177,0.8908567429,-0.2424939275
1.75022,-0.1540612578,-0.3161383867,0.8910404444,-0.2423346788
1.7504,-0.1541071087,-0.3161120713,0.8911414146,-0.2423438579
1.75058,-0.1541523337,-0.3160847127,0.8908799291,-0.2425656021
1.75076,-0.1541660279,-0.3160215318,0.8908218145,-0.2423922569
1.75094,-0.1541668624,-0.3159989417,0.890925765,-0.242508322
1.75112,-0.1541091204,-0.3159992993,0.8908222914,-0.2424543947
1.7513,-0.1541750282,-0.3161213994,0.8908007741,-0.2423605621
1.75148,-0.1542040855,-0.3162171841,0.8908161521,-0.2425752878
1.75166,-0.1542464793,-0.3162816465,0.890850544,-0.2426031828
1.75184,-0.154304415,-0.3162149787,0.8910080791,-0.2427102774
1.75202,-0.1543237567,-0.3162254393,0.8906791806,-0.242514953
1.7522,-0.1545712799,-0.3162002265,0.8906818032,-0.2427796423
1.75238,-0.1545644403,-0.3162075877,0.8907563686,-0.2427785993
1.75256,-0.1544274986,-0.3162027597,0.8909696341,-0.2427407205
1.75274,-0.1544273794,-0.3160125315,0.890896976,-0.242703855
1.75292,-0.1544485688,-0.3160399795,0.8908694983,-0.2428130656
1.7531,-0.1544211209,-0.3160259724,0.8908984661,-0.2427215129
1.75328,-0.1544516087,-0.3160688579,0.8907768726,-0.2427228093
1.75346,-0.1545311958,-0.3161755502,0.8908497691,-0.242784366
1.75364,-0.154548943,-0.3161308169,0.8907541633,-0.2427700013
1.75382,-0.1545959711,-0.3162454963,0.8908346295,-0.2426579893
1.754,-0.1546959877,-0.3162127435,0.8907128572,-0.2426551729
1.75418,-0.1547440886,-0.3162133396,0.8906193972,-0.2428467721
1.75436,-0.1548298299,-0.316172123,0.8906864524,-0.2428517193
1.75454,-0.1547760069,-0.3162232339,0.8906825781,-0.2428561449
1.75472,-0.1548639983,-0.3161350191,0.8907684684,-0.2429880053
1.7549,-0.154816553,-0.316200614,0.8907206655,-0.2428340614
1.75508,-0.1548599601,-0.316075027,0.890648663,-0.242962569
1.75526,-0.1548142135,-0.3160768449,0.8906743526,-0.2428934872
1.75544,-0.1548081338,-0.3162403107,0.8906248808,-0.2430000007
1.75562,-0.1548878253,-0.3163693249,0.8905676603,-0.2429480255
1.7558,-0.1549491733,-0.3163658679,0.8906407356,-0.2428916395
1.75598,-0.1549514979,-0.3163095713,0.8906366229,-0.2428867817
1.75616,-0.1550574601,-0.3164177835,0.8905337453,-0.2429383695
1.75634,-0.155089885,-0.3163728118,0.8906089664,-0.2429123521
1.75652,-0.1551238,-0.3163922727,0.8907117844,-0.2429059744
1.7567,-0.1550697535,-0.3164815307,0.8905056119,-0.2429115474
1.75688,-0.1551120877,-0.3164587915,0.8905248642,-0.2430201471
1.75706,-0.1550831646,-0.3164039552,0.8905061483,-0.2430185974
1.75724,-0.1551373601,-0.3165086806,0.8904693723,-0.2431242168
1.75742,-0.1550741196,-0.3164919615,0.8905076981,-0.2429884374
