%Frequency  / Hz	S1,1 Zr: 50 Ω Mag	S1,1 Zr: 50 Ω Phase / °	S2,1 Zr: 50 Ω Mag	S2,1 Zr: 50 Ω Phase / °	S1,2 Zr: 50 Ω Mag	S1,2 Zr: 50 Ω Phase / °	S2,2 Zr: 50 Ω Mag	S2,2 Zr: 50 Ω Phase / °
800000000.000000000	0.346662580	-96.766357866	0.902897382	-18.624150479	0.903068248	-18.605106314	0.280410978	-120.561578140
800640000.000000000	0.347006377	-96.817103910	0.902773360	-18.622198456	0.902388824	-18.602008534	0.280547640	-120.579847224
801280000.000000000	0.346376768	-97.747726786	0.902723954	-18.741844939	0.902650860	-18.723569731	0.279338703	-119.904793139
801920000.000000000	0.346444563	-97.763215196	0.902333507	-18.754641679	0.902255852	-18.735435251	0.279395977	-119.915375334
802560000.000000000	0.346801087	-97.755421874	0.902190719	-18.783307719	0.901936355	-18.741431623	0.279412230	-119.848078854
803200000.000000000	0.347032104	-97.805570437	0.901620185	-18.789033291	0.901513010	-18.785336580	0.279346598	-119.863542714
803840000.000000000	0.347023833	-97.799264535	0.901633411	-18.801448595	0.901579562	-18.759889720	0.279367677	-119.927156460
804480000.000000000	0.347221519	-97.849112473	0.901512899	-18.810697272	0.900905289	-18.786987474	0.279378838	-119.925313442
805120000.000000000	0.347982590	-97.842500371	0.901491538	-18.832652045	0.901733644	-18.806041604	0.279589612	-119.901658547
805760000.000000000	0.347809372	-97.813740256	0.901281679	-18.831849541	0.901485726	-18.811489691	0.279677820	-119.962260572
806400000.000000000	0.348311207	-97.873602786	0.901207005	-18.839024082	0.901224232	-18.816286242	0.279834501	-119.876614571
807040000.000000000	0.348505260	-97.966480630	0.901011661	-18.870892678	0.900552657	-18.860221591	0.279675923	-119.912570439
807680000.000000000	0.348873382	-97.867513870	0.900771699	-18.836675799	0.900391138	-18.826396592	0.279676299	-119.897041588
808320000.000000000	0.349527806	-97.947028641	0.901039529	-18.886676057	0.901299983	-18.870860467	0.279657405	-119.969393971
808960000.000000000	0.349783835	-97.895039581	0.900703940	-18.851901990	0.901000752	-18.832285544	0.279995380	-119.919146102
809600000.000000000	0.349732036	-97.925493652	0.900653232	-18.865402795	0.900890201	-18.848784643	0.280117790	-119.894767500
810240000.000000000	0.349967953	-97.875280155	0.900560574	-18.875228004	0.900673256	-18.884811132	0.280385441	-119.956237377
810880000.000000000	0.350046009	-98.012772079	0.900065158	-18.889804255	0.900408066	-18.899762069	0.279956032	-119.918414450
811520000.000000000	0.350653589	-97.968176833	0.900220155	-18.879716961	0.900427944	-18.875796607	0.280048235	-119.931425530
812160000.000000000	0.350600094	-97.998206034	0.899798213	-18.908957768	0.899816530	-18.889222403	0.280237557	-119.924168403
812800000.000000000	0.351147312	-97.983479009	0.899827347	-18.910286061	0.900011762	-18.926799231	0.280386607	-119.976152306
813440000.000000000	0.351290004	-98.023715508	0.899408218	-18.907845463	0.899898143	-18.926411290	0.280163148	-119.895867375
814080000.000000000	0.351520669	-98.022151361	0.899469121	-18.912269806	0.899711847	-18.911361391	0.280383744	-119.930348728
814720000.000000000	0.351727412	-98.010463463	0.899400761	-18.940798927	0.899431198	-18.955111551	0.280629831	-119.931928736
815360000.000000000	0.351589726	-98.036771751	0.899121792	-18.953971673	0.899149480	-18.970596715	0.280541876	-120.001274593
816000000.000000000	0.351968005	-98.067466969	0.899328563	-18.956765093	0.899094393	-18.965758657	0.280716602	-120.001485091
816640000.000000000	0.352134251	-98.019646603	0.899164895	-18.956309369	0.898439164	-18.960984666	0.280649480	-120.022839460
817280000.000000000	0.352531767	-98.060129504	0.899006647	-18.987729780	0.898731883	-18.960955731	0.280771824	-119.966775026
817920000.000000000	0.352529538	-98.046782375	0.898692024	-18.986815305	0.898592446	-19.004343970	0.280783480	-120.002407958
818560000.000000000	0.352661303	-97.959414613	0.898797748	-18.958898502	0.898765695	-19.014250565	0.281180412	-120.093920918
819200000.000000000	0.352857563	-98.026960586	0.898328086	-18.989985554	0.898429851	-19.024560570	0.281188834	-120.109407364
819840000.000000000	0.353350623	-98.039245662	0.898275812	-18.999128306	0.898333050	-19.016391227	0.281020326	-120.050770498
820480000.000000000	0.353223569	-98.019575765	0.898214818	-19.014508469	0.897894035	-19.006180942	0.281655499	-120.099475830
821120000.000000000	0.353684669	-97.981580998	0.897895992	-19.003378343	0.897736446	-18.974935831	0.281694028	-120.136846068
821760000.000000000	0.353790463	-98.010707378	0.897523275	-19.034747795	0.897706990	-19.036901857	0.281474880	-120.106003361
822400000.000000000	0.354276793	-98.026749148	0.897866378	-19.042858016	0.898326036	-19.024611879	0.281625656	-120.216629059
823040000.000000000	0.354061005	-97.975445322	0.897218687	-19.051829514	0.897678379	-19.057969523	0.281660717	-120.217919382
823680000.000000000	0.354427715	-97.994754122	0.897752388	-19.043047087	0.897224533	-19.047301304	0.282199962	-120.141077332
824320000.000000000	0.354502892	-98.005690570	0.896954940	-19.077991530	0.896926076	-19.069105281	0.281936104	-120.219909004
824960000.000000000	0.355175122	-97.995481639	0.897467157	-19.082805766	0.896856019	-19.061821111	0.282200909	-120.235639983
825600000.000000000	0.355109114	-97.997751459	0.896926145	-19.090468919	0.896775126	-19.102756971	0.282012557	-120.260235050
826240000.000000000	0.355176210	-97.989713186	0.896821656	-19.096468517	0.896476469	-19.078230544	0.282548811	-120.201948498
826880000.000000000	0.355559825	-97.985809263	0.896808201	-19.112567820	0.896672871	-19.111156666	0.282464430	-120.292667676
827520000.000000000	0.355847224	-98.041981899	0.896598561	-19.116123784	0.896689163	-19.112357869	0.282328407	-120.252230366
828160000.000000000	0.356214353	-98.049367790	0.896426358	-19.144665366	0.896330256	-19.106299590	0.282463400	-120.340304024
828800000.000000000	0.356376755	-98.032433534	0.896225722	-19.138774118	0.896338298	-19.133082777	0.282719026	-120.334476450
829440000.000000000	0.356320583	-98.046641774	0.896018679	-19.117434914	0.895600006	-19.126808053	0.282772654	-120.223601111
830080000.000000000	0.357012287	-98.073734172	0.896175304	-19.173043232	0.896192586	-19.154503025	0.283051311	-120.297333374
830720000.000000000	0.356920258	-98.050627323	0.895587143	-19.165107417	0.895732762	-19.156786564	0.283012255	-120.311807254
831360000.000000000	0.357502809	-98.126379650	0.895414205	-19.157989026	0.895385154	-19.143590914	0.282939295	-120.289440012
832000000.000000000	0.357823482	-98.081423099	0.895666238	-19.194324590	0.895511244	-19.210095671	0.283164130	-120.393955718
832640000.000000000	0.357828497	-98.111395020	0.895381927	-19.193955977	0.895114821	-19.173704769	0.283120909	-120.300105453
833280000.000000000	0.357983370	-98.133733632	0.895273327	-19.191974883	0.895305163	-19.176471859	0.283248015	-120.329126067
833920000.000000000	0.358303879	-98.087975686	0.895219434	-19.218671734	0.895067514	-19.206917901	0.283264729	-120.385371810
834560000.000000000	0.358292906	-98.129415313	0.894468674	-19.194988154	0.894837134	-19.212091207	0.283661857	-120.360269960
835200000.000000000	0.358933472	-98.161340339	0.894993209	-19.241958998	0.894288025	-19.196819811	0.283445763	-120.384575270
835840000.000000000	0.359048049	-98.177927800	0.894609494	-19.224703485	0.894524267	-19.209426046	0.283657147	-120.332569386
836480000.000000000	0.359556618	-98.213547035	0.894392453	-19.229697696	0.894346780	-19.216446986	0.283461671	-120.326357745
837120000.000000000	0.359813708	-98.236336745	0.894560174	-19.268061063	0.894422191	-19.250879371	0.283586561	-120.376122141
837760000.000000000	0.359714480	-98.222866701	0.894131315	-19.238431270	0.893933839	-19.251469521	0.283729367	-120.321038540
838400000.000000000	0.359855549	-98.254881259	0.894121828	-19.255240592	0.894222812	-19.264392601	0.284047756	-120.381878751
839040000.000000000	0.360397940	-98.260754817	0.894059900	-19.286480023	0.893759229	-19.268432493	0.283822168	-120.414165499
839680000.000000000	0.360363842	-98.259755978	0.893916097	-19.277245299	0.893583530	-19.281901624	0.283899505	-120.364620272
840320000.000000000	0.360288444	-98.285820513	0.893646840	-19.289024361	0.893535766	-19.263566616	0.284043649	-120.341746180
840960000.000000000	0.361060290	-98.297609923	0.893486568	-19.284581027	0.893526922	-19.278504859	0.284180792	-120.288623504
841600000.000000000	0.361026714	-98.339232674	0.893196265	-19.324953771	0.893538164	-19.301736779	0.284339905	-120.321561200
842240000.000000000	0.361702827	-98.337237930	0.893372106	-19.309328926	0.893428747	-19.290568099	0.284294052	-120.325497797
842880000.000000000	0.361849336	-98.362619694	0.893345852	-19.323339393	0.893149716	-19.300339772	0.284123191	-120.354579431
843520000.000000000	0.361887432	-98.427248164	0.893277238	-19.317800962	0.893090466	-19.325427467	0.284506754	-120.290330669
844160000.000000000	0.362074362	-98.356661297	0.892674133	-19.322186388	0.892813826	-19.307807671	0.284628935	-120.318811246
844800000.000000000	0.362606295	-98.419520065	0.892547872	-19.345716636	0.892705238	-19.359721005	0.284408276	-120.346108012
845440000.000000000	0.362517377	-98.406306264	0.892813643	-19.371382090	0.892459067	-19.304681334	0.284241226	-120.274583494
846080000.000000000	0.363026272	-98.389565467	0.892353419	-19.355809359	0.892455074	-19.328370628	0.284382703	-120.332437386
846720000.000000000	0.363007803	-98.447108566	0.892366884	-19.386202311	0.892186393	-19.357855181	0.284465227	-120.331022748
847360000.000000000	0.363440119	-98.435707283	0.892233399	-19.373911670	0.891993284	-19.367062676	0.284318996	-120.264166092
848000000.000000000	0.363600281	-98.455052363	0.892521958	-19.401150170	0.892289082	-19.405387879	0.284880584	-120.388514287
848640000.000000000	0.363587136	-98.466055892	0.891907143	-19.401551654	0.891626451	-19.419774812	0.284622961	-120.339275155
849280000.000000000	0.364137662	-98.421964721	0.891687386	-19.402064257	0.891866461	-19.398026764	0.284663175	-120.364691656
849920000.000000000	0.364108168	-98.469127574	0.891530814	-19.407244945	0.891165817	-19.413625096	0.284954187	-120.346576539
850560000.000000000	0.364288863	-98.439412908	0.891503094	-19.402129715	0.891090155	-19.405353698	0.285017142	-120.305207855
851200000.000000000	0.364774803	-98.499321137	0.891301560	-19.423062825	0.890624812	-19.418694698	0.284549926	-120.387930193
851840000.000000000	0.365300957	-98.450568868	0.891276705	-19.443306195	0.890915784	-19.421058135	0.284669185	-120.412857048
852480000.000000000	0.365401799	-98.452348161	0.891060087	-19.445390215	0.890942798	-19.426676441	0.284806148	-120.405967840
853120000.000000000	0.365630540	-98.490324275	0.891206047	-19.446047637	0.890586535	-19.465437546	0.285017836	-120.414626780
853760000.000000000	0.365810357	-98.458698783	0.890912069	-19.477643056	0.890763861	-19.431780511	0.284849096	-120.403230286
854400000.000000000	0.365870481	-98.474214959	0.890793537	-19.489300401	0.890540721	-19.445027462	0.285412551	-120.456450741
855040000.000000000	0.366275380	-98.492095653	0.890730475	-19.470912143	0.890137914	-19.499850747	0.285471256	-120.446188747
855680000.000000000	0.366544944	-98.494584550	0.890477549	-19.486418947	0.890229354	-19.448923018	0.285518419	-120.407328595
856320000.000000000	0.366774153	-98.484922142	0.890563930	-19.492191446	0.890277467	-19.480558702	0.285683841	-120.415507201
856960000.000000000	0.366763672	-98.464677510	0.889963837	-19.499919495	0.889409734	-19.464988627	0.285424143	-120.437074755
857600000.000000000	0.367191213	-98.499063122	0.890043377	-19.524203916	0.889991592	-19.499677530	0.285706910	-120.470810563
858240000.000000000	0.367100065	-98.489652417	0.889896710	-19.529081416	0.889208677	-19.494778397	0.285906155	-120.502956408
858880000.000000000	0.367654638	-98.497088803	0.889806243	-19.528398775	0.889705307	-19.481724096	0.285815165	-120.498641555
859520000.000000000	0.367974374	-98.514651591	0.889813450	-19.537787946	0.889048714	-19.496207119	0.285804128	-120.528839684
860160000.000000000	0.368312808	-98.505184033	0.889680965	-19.555551007	0.889476970	-19.495838788	0.285758071	-120.539711053
860800000.000000000	0.368219981	-98.533653755	0.889433214	-19.556654391	0.888569223	-19.496917835	0.286301688	-120.561240619
861440000.000000000	0.368644258	-98.548210589	0.889022659	-19.574323942	0.888983754	-19.516681290	0.286029569	-120.525782791
862080000.000000000	0.369007742	-98.568981626	0.889161073	-19.588648985	0.888538292	-19.534342327	0.286075925	-120.580181874
862720000.000000000	0.368889739	-98.524993627	0.888940844	-19.593003057	0.888148793	-19.547682590	0.286147941	-120.602060764
863360000.000000000	0.369244686	-98.558291551	0.888638655	-19.588265554	0.888047713	-19.554472886	0.286364214	-120.579314266
864000000.000000000	0.369716762	-98.577817114	0.888923964	-19.578736845	0.888531327	-19.553436167	0.286468186	-120.511723354
864640000.000000000	0.369743189	-98.612606430	0.888566191	-19.600145778	0.888162129	-19.541646481	0.286563187	-120.567967436
865280000.000000000	0.369679715	-98.593467425	0.888254670	-19.610645975	0.887893926	-19.563063354	0.286396782	-120.552451661
865920000.000000000	0.370170539	-98.655341684	0.888466131	-19.604322498	0.887774332	-19.604337745	0.286808085	-120.617941127
866560000.000000000	0.370051047	-98.635670449	0.887921888	-19.633846653	0.887171132	-19.574057036	0.286727042	-120.557232979
867200000.000000000	0.370690041	-98.589160757	0.888305165	-19.623105134	0.887447986	-19.578873927	0.287035359	-120.584137063
867840000.000000000	0.370787066	-98.628358712	0.887901202	-19.657174829	0.887306947	-19.561599034	0.287170714	-120.618109107
868480000.000000000	0.371299413	-98.711340350	0.888218602	-19.655583294	0.887374927	-19.613563987	0.286725587	-120.577614625
869120000.000000000	0.370776756	-98.669853790	0.887677938	-19.647331737	0.887292418	-19.618288102	0.287439313	-120.636394795
869760000.000000000	0.371431990	-98.719962517	0.887511190	-19.664963532	0.887457287	-19.625432669	0.287305939	-120.598473652
870400000.000000000	0.371684053	-98.751997144	0.887302138	-19.690661127	0.887267739	-19.617577173	0.287367953	-120.605979964
871040000.000000000	0.371731868	-98.729167050	0.887224348	-19.676973205	0.886930686	-19.646095969	0.287693389	-120.580918928
871680000.000000000	0.372232743	-98.772703372	0.887298731	-19.685305085	0.886662273	-19.618065675	0.287584767	-120.612796348
872320000.000000000	0.372428878	-98.768349055	0.886737888	-19.697552422	0.886769534	-19.621186463	0.287435964	-120.575578182
872960000.000000000	0.372520259	-98.819750470	0.887187565	-19.700805530	0.886677660	-19.644446766	0.287790969	-120.575761942
873600000.000000000	0.372434507	-98.817946443	0.886824731	-19.720569658	0.886179214	-19.656894118	0.287735768	-120.566716869
874240000.000000000	0.372567416	-98.836880905	0.886184944	-19.716442974	0.885955517	-19.645646146	0.287923279	-120.492068171
874880000.000000000	0.372936297	-98.839135906	0.886035868	-19.699979370	0.886107328	-19.645757469	0.287887655	-120.484738026
875520000.000000000	0.373058472	-98.868957028	0.886021390	-19.702658450	0.885654984	-19.671005087	0.288213575	-120.451909078
876160000.000000000	0.373705752	-98.927223486	0.886286142	-19.732612937	0.886236254	-19.687482632	0.288302915	-120.521227525
876800000.000000000	0.373490479	-98.864135478	0.886106354	-19.740816085	0.885539150	-19.636078880	0.288421032	-120.478851417
877440000.000000000	0.373954537	-98.933862550	0.886148478	-19.740669885	0.885675723	-19.679178186	0.288267266	-120.535029165
878080000.000000000	0.374005781	-98.929234475	0.885906486	-19.746097889	0.885210977	-19.700295650	0.288603219	-120.489773059
878720000.000000000	0.374480908	-98.951574511	0.886043484	-19.763947326	0.885193739	-19.675110022	0.288373771	-120.496939254
879360000.000000000	0.374800944	-98.981852499	0.885663787	-19.760811148	0.885292332	-19.679137528	0.288586630	-120.475453628
880000000.000000000	0.374590741	-98.967892489	0.885526364	-19.767439627	0.884744770	-19.686918809	0.288780728	-120.501222015
880640000.000000000	0.375171082	-98.977142149	0.885490511	-19.762386341	0.885368503	-19.725718299	0.288884286	-120.490121698
881280000.000000000	0.375482208	-98.984681239	0.885577436	-19.762414599	0.885298647	-19.729898614	0.289088518	-120.513113957
881920000.000000000	0.375406505	-99.004726121	0.885466592	-19.792288334	0.884422894	-19.719805710	0.289052951	-120.499421112
882560000.000000000	0.375622320	-98.993749929	0.885380122	-19.792994369	0.884993010	-19.732530783	0.289409826	-120.550020479
883200000.000000000	0.375647201	-99.043180850	0.884726176	-19.815527148	0.884415417	-19.737272181	0.289190575	-120.473553915
883840000.000000000	0.376296177	-99.033253838	0.885049589	-19.819621043	0.884023641	-19.745738311	0.289086141	-120.507224574
884480000.000000000	0.376457263	-98.984680141	0.884868272	-19.821899648	0.883830347	-19.723604214	0.289092753	-120.502781349
885120000.000000000	0.376596410	-99.047832150	0.884492598	-19.831264789	0.883881372	-19.726040684	0.289147868	-120.468947667
885760000.000000000	0.376767366	-99.028761250	0.884173913	-19.839681669	0.883786099	-19.725071904	0.288963439	-120.514653404
886400000.000000000	0.377392570	-99.053017428	0.884852708	-19.832724853	0.883602608	-19.783439564	0.289515577	-120.565998777
887040000.000000000	0.377605983	-99.031805412	0.884053855	-19.820759371	0.883670567	-19.776254784	0.289280271	-120.490181882
887680000.000000000	0.378155208	-99.050523636	0.884339019	-19.839529295	0.883655711	-19.754889071	0.289148526	-120.558905095
888320000.000000000	0.378173570	-99.085802890	0.883872519	-19.846745402	0.883683157	-19.775875054	0.289258742	-120.458212741
888960000.000000000	0.378707770	-99.104653392	0.884272793	-19.876193911	0.883143512	-19.805868826	0.289282409	-120.556019025
889600000.000000000	0.378904940	-99.091446362	0.883798779	-19.860391173	0.883283162	-19.797586970	0.289520940	-120.539388104
890240000.000000000	0.378899512	-99.116344180	0.883655987	-19.877878028	0.882854716	-19.787702266	0.289372311	-120.463879653
890880000.000000000	0.379368100	-99.075903917	0.883818461	-19.872905039	0.882886618	-19.806998872	0.289653770	-120.554811918
891520000.000000000	0.380009644	-99.069809077	0.883430031	-19.887186729	0.882816049	-19.812330502	0.289425431	-120.599018279
892160000.000000000	0.379834980	-99.101964795	0.883371773	-19.894412169	0.882796824	-19.821351503	0.289818329	-120.555605431
892800000.000000000	0.380256141	-99.120478560	0.883113145	-19.895956538	0.882143663	-19.835834678	0.289480139	-120.582734149
893440000.000000000	0.380527440	-99.122069365	0.882989733	-19.899457386	0.882348203	-19.826262650	0.289690076	-120.613594070
894080000.000000000	0.380747818	-99.120404265	0.882960592	-19.935689758	0.882251325	-19.832310541	0.289821977	-120.579104902
894720000.000000000	0.380653210	-99.160322872	0.882608108	-19.926276273	0.881512911	-19.835053580	0.289686860	-120.595661165
895360000.000000000	0.380961017	-99.129146781	0.882110306	-19.929539287	0.881989781	-19.866763306	0.289957702	-120.604924512
896000000.000000000	0.381365855	-99.158254004	0.882570891	-19.931305164	0.882482407	-19.847121932	0.289967203	-120.637727774
896640000.000000000	0.381871937	-99.180192580	0.882265217	-19.954204882	0.882186157	-19.874229631	0.289925436	-120.651283479
897280000.000000000	0.381764204	-99.162130284	0.882170419	-19.953967115	0.881825318	-19.875205825	0.290045918	-120.670665366
897920000.000000000	0.382052664	-99.247448955	0.881787488	-19.964282411	0.881608108	-19.896238827	0.290086201	-120.654830448
898560000.000000000	0.382201228	-99.220364778	0.881875069	-19.965950292	0.881672178	-19.894585695	0.290214073	-120.676899688
899200000.000000000	0.382734437	-99.185895699	0.881787205	-19.951932079	0.881322875	-19.910970071	0.290153067	-120.677285479
899840000.000000000	0.382872822	-99.221944714	0.881922222	-19.968916159	0.881279973	-19.901310033	0.290179193	-120.672059945
900480000.000000000	0.382884242	-99.265955204	0.881422567	-19.977255193	0.880919968	-19.900829635	0.290474980	-120.580594702
