Frequency,S11 Re,S11 Im,S21 Re,S21 Im
0.8,0.005954747088,-0.1720495969,0.9772117734,-0.1177560464
0.80064,0.005640755873,-0.1721308529,0.9772761464,-0.1172535568
0.80128,0.0002025470603,-0.1700683236,0.9770912528,-0.1183604673
0.80192,0.0003476788988,-0.1700830907,0.976837039,-0.1184024066
0.80256,0.0005954169901,-0.1704507321,0.9771578312,-0.1187008172
0.8032,0.000382977305,-0.170513168,0.9767373204,-0.1186684519
0.80384,0.0004153150367,-0.1703332812,0.976477325,-0.1187385172
0.80448,0.0001773266704,-0.1706525534,0.9769868255,-0.1191636249
0.80512,0.000272265519,-0.1711948663,0.9767827988,-0.118874006
0.80576,0.0003138465981,-0.1708361357,0.9765840173,-0.1191051826
0.8064,0.0002301394416,-0.1712722927,0.9766625166,-0.1189651564
0.80704,-0.0002792023588,-0.1711411029,0.9764660597,-0.1195108145
0.80768,0.000278132211,-0.1718489677,0.9764749408,-0.119122237
0.80832,-0.0001548336586,-0.172168225,0.9768251181,-0.1194462106
0.80896,-5.814549513e-05,-0.1722691804,0.9768463969,-0.119070217
0.8096,1.234002411e-05,-0.1721310019,0.9766122103,-0.1190776974
0.81024,0.0005332970759,-0.1722121388,0.9767139554,-0.1190862805
0.81088,-0.0004738229327,-0.1724009812,0.9765975475,-0.1193462536
0.81152,-0.0002407273278,-0.1727702916,0.9765272141,-0.1194888875
0.81216,-0.000416630879,-0.1728361398,0.976655066,-0.1196826547
0.8128,-0.0001600810792,-0.1730617434,0.9762395024,-0.1194996014
0.81344,-0.0006383804139,-0.1732397676,0.9762248993,-0.1200539842
0.81408,-0.0002454172354,-0.1733301878,0.9762230515,-0.1196639538
0.81472,-0.0003213711898,-0.1731692851,0.9760977626,-0.1198790967
0.81536,-0.0004389281676,-0.1729964018,0.976062119,-0.1202862486
0.816,-0.0006875937106,-0.1732024103,0.9763163328,-0.1202751696
0.81664,-0.0002934107033,-0.1735232919,0.9765654206,-0.1204004586
0.81728,-0.0006300522946,-0.173556298,0.9763634205,-0.1204721704
0.81792,-0.0003874688409,-0.1735359728,0.9762153029,-0.1204386577
0.81856,-4.304903268e-05,-0.1735024899,0.9759812355,-0.1200172007
0.8192,-0.0002075904631,-0.1736694276,0.9758880734,-0.1203774735
0.81984,-0.0001667336619,-0.1740714759,0.9760742188,-0.1203673407
0.82048,-0.0001311685919,-0.1738613695,0.9761022925,-0.1206743345
0.82112,0.0001838724129,-0.1740134507,0.976092875,-0.1203660518
0.82176,0.0003344234428,-0.1741421819,0.9757345319,-0.1208423004
0.8224,0.0001930017897,-0.1741055995,0.9759768248,-0.1208414882
0.82304,0.0003457735293,-0.1741352975,0.9757884145,-0.1210523695
0.82368,0.0001721210429,-0.1744196266,0.9763017297,-0.1206448227
0.82432,0.0002925387817,-0.1745198369,0.9754606485,-0.1210955083
0.82496,0.0004126639687,-0.1747623682,0.975859046,-0.1211510822
0.8256,0.0003932433901,-0.1746030301,0.9757883549,-0.1213488355
0.82624,0.000497829169,-0.1747327596,0.9755151868,-0.1211742759
0.82688,0.0008167486521,-0.1749511063,0.9755205512,-0.1214971617
0.82752,0.0005396581837,-0.1750119328,0.9758255482,-0.1211334541
0.82816,0.000552737969,-0.1751299948,0.9754977226,-0.121851407
0.8288,0.0007621969562,-0.1754770726,0.975666523,-0.121883601
0.82944,0.0008721803315,-0.1751471311,0.9753157496,-0.1215108112
0.83008,0.0005838104989,-0.175685972,0.9757131934,-0.122193329
0.83072,0.0009278870421,-0.1757154763,0.9751948714,-0.1221664473
0.83136,0.0004140828387,-0.1761059016,0.9753647447,-0.1220135689
0.832,0.00075064681,-0.1761115938,0.9758198857,-0.1223832667
0.83264,0.0005067151506,-0.1761770397,0.9750683308,-0.1227019876
0.83328,0.0004275857355,-0.1762063652,0.9754726887,-0.1222009584
0.83392,0.0009233496385,-0.1764361113,0.9753010273,-0.1221079826
0.83456,0.0007120830123,-0.1765605807,0.9749606252,-0.1224100068
0.8352,0.0006714681513,-0.1767681986,0.9752425551,-0.1227831021
0.83584,0.0004622440902,-0.1770801842,0.9751461148,-0.1227704138
0.83648,0.0003191406722,-0.1773545742,0.9751363993,-0.1226507723
0.83712,0.000171390886,-0.1771985143,0.9750565886,-0.1228766665
0.83776,0.0002859501401,-0.1772337109,0.9749028087,-0.122697033
0.8384,0.0002214928973,-0.1772038043,0.975041151,-0.1228873581
0.83904,0.0001811884576,-0.1776642799,0.9750065804,-0.1232369915
0.83968,0.0002303639194,-0.177436173,0.9747912884,-0.1232297793
0.84032,0.0001251532813,-0.1773084551,0.9748603106,-0.1231102273
0.84096,-2.260867041e-05,-0.1780277789,0.9749795198,-0.1233412176
0.8416,7.159367669e-06,-0.1777268052,0.9743822813,-0.1236497313
0.84224,-0.000161059419,-0.1784822494,0.9749632478,-0.1234647259
0.84288,-0.0001629704784,-0.1785156429,0.9747768641,-0.1236769184
0.84352,-0.0006414645468,-0.1784142405,0.9749909639,-0.123636283
0.84416,-0.00024867928,-0.1783834547,0.9746096134,-0.1236034334
0.8448,-0.0004285659234,-0.1788387597,0.9745185971,-0.1240422502
0.84544,5.610927474e-05,-0.1786171645,0.9749133587,-0.1241171509
0.84608,-0.0002877052757,-0.178894192,0.9746022224,-0.1241726801
0.84672,-0.0004677377874,-0.1790111661,0.9746340513,-0.1243328527
0.84736,-0.0002663534251,-0.1793586165,0.9745197296,-0.124201782
0.848,-0.0004131390015,-0.1790666878,0.9746522903,-0.1244113892
0.84864,-0.0006122148479,-0.1793193966,0.9746291041,-0.1247337908
0.84928,-0.0001474380551,-0.179728061,0.9745236635,-0.1243167892
0.84992,-0.000331734569,-0.1797365844,0.9745354652,-0.1247399896
0.85056,-0.0002130758949,-0.1797398776,0.9742900133,-0.1247842312
0.8512,-0.0006500479067,-0.1800779402,0.9743947387,-0.1249546185
0.85184,-0.0001208134927,-0.1803258061,0.974308908,-0.1252590269
0.85248,-0.0002158826392,-0.1804110557,0.9744620323,-0.1249834001
0.85312,-5.657062866e-05,-0.1803932488,0.9741768837,-0.1249651238
0.85376,-9.320111712e-05,-0.1804549694,0.9746228456,-0.1253744662
0.8544,2.418580698e-05,-0.1804490238,0.9740954041,-0.1254092902
0.85504,-0.0003038046416,-0.1808029115,0.9746234417,-0.1253902018
0.85568,0.000139833428,-0.1808803976,0.9740362763,-0.1251609176
0.85632,0.0001060281647,-0.1811993718,0.9744945765,-0.1256200671
0.85696,0.0005178774591,-0.1810007393,0.9738652706,-0.1255881786
0.8576,0.0004383042688,-0.1813413054,0.9741732478,-0.1257156134
0.85824,0.000532751088,-0.1809567958,0.9742504358,-0.1257622838
0.85888,0.0002981458674,-0.1814970523,0.9736675024,-0.1258100867
0.85952,0.0003242542734,-0.1817173362,0.9741375446,-0.1259037256
0.86016,0.0006258020294,-0.1820800453,0.9742785692,-0.1263112873
0.8608,0.0004628834431,-0.1818316579,0.9739158154,-0.1264707744
0.86144,0.0006079078885,-0.1823276877,0.9739339352,-0.126433745
0.86208,0.0003809112823,-0.1824977845,0.9737665057,-0.126721397
0.86272,0.0006621031207,-0.182196483,0.9737675786,-0.1266956776
0.86336,0.0006379288388,-0.1823427677,0.9734751582,-0.1263894737
0.864,0.0004769199877,-0.1829244494,0.9742993116,-0.126540795
0.86464,0.0004639088875,-0.1828169376,0.9736428857,-0.1265613139
0.86528,0.0005099066766,-0.1827482283,0.9737052321,-0.1267626435
0.86592,6.945081986e-05,-0.1829580069,0.9737667441,-0.1267412007
0.86656,0.0005186196067,-0.1831911206,0.9733552933,-0.1268278807
0.8672,0.0005540280254,-0.1835459173,0.9734845757,-0.1271682829
0.86784,0.0006383873988,-0.1833801717,0.9733973145,-0.1272990406
0.86848,0.0001962963142,-0.1836551875,0.9738093615,-0.1271903366
0.86912,0.0004092871677,-0.1830587685,0.973454237,-0.1276710182
0.86976,0.000277454732,-0.1836822331,0.9737607837,-0.1275794655
0.8704,6.392237265e-05,-0.1839035451,0.9735734463,-0.127806291
0.87104,0.0003191507421,-0.1837855428,0.9735355377,-0.1279027015
0.87168,5.155568942e-06,-0.1841837764,0.9734269977,-0.1276564896
0.87232,0.0001709020289,-0.184204787,0.9736545086,-0.1276968867
0.87296,-0.0002009580494,-0.1842327863,0.9737307429,-0.1277742535
0.8736,-0.0002052659256,-0.1841105223,0.9732407928,-0.1282182932
0.87424,0.0001068677229,-0.1843064129,0.9729493856,-0.1279559582
0.87488,-0.0001762360771,-0.1843434274,0.9730958343,-0.1282073706
0.87552,-0.0003267653519,-0.1845439225,0.9730864763,-0.1280812472
0.87616,-0.0006818016991,-0.1848920286,0.9730194211,-0.1282537282
0.8768,-4.784043995e-05,-0.1845451146,0.9733685851,-0.1281980574
0.87744,-0.0005703197094,-0.1849559247,0.9732345343,-0.1284388155
0.87808,-0.0004138679069,-0.1849964559,0.9732723832,-0.1281965524
0.87872,-0.0004489170969,-0.1850416958,0.9733434916,-0.1288029402
0.87936,-0.0008511379128,-0.1852186322,0.9732562304,-0.1286909133
0.88,-0.0006112739211,-0.1851284802,0.9733687639,-0.1287317574
0.88064,-0.0005021077232,-0.1854078919,0.9730554819,-0.1289990842
0.88128,-0.0006210852298,-0.1856418401,0.9734041691,-0.1289138794
0.88192,-0.0004582377733,-0.1856285781,0.9733885527,-0.1289357245
0.88256,-0.0003788066097,-0.1856183708,0.9732887745,-0.1291428506
0.8832,-0.0005603177706,-0.1855844557,0.9726023078,-0.1292080283
0.88384,-0.0004356644349,-0.1860718727,0.9731468558,-0.1292047948
0.88448,-0.000142109755,-0.186223194,0.9730781317,-0.1295354217
0.88512,-0.0005489375326,-0.18625018,0.9730978608,-0.1294549555
0.88576,-6.292096805e-05,-0.1863153577,0.9726910591,-0.1295832098
0.8864,-0.0001912829466,-0.1865780056,0.9732758403,-0.1296255141
0.88704,-2.488860628e-05,-0.1870283633,0.9728966355,-0.129339993
0.88768,-0.0002395452466,-0.1871744841,0.9730402827,-0.1298647225
0.88832,-0.0003664635587,-0.1873102635,0.9728235006,-0.1295206994
0.88896,-0.0003184438683,-0.1875050068,0.973251164,-0.1301153749
0.8896,-0.0003134469443,-0.1879083365,0.9729017615,-0.1298791915
0.89024,-0.0002441180404,-0.1876694113,0.9726588726,-0.1302062869
0.89088,6.922203465e-05,-0.1878659576,0.973141551,-0.1301365346
0.89152,9.909627261e-05,-0.1885509193,0.9729534388,-0.1303574145
0.89216,9.1555994e-05,-0.188317135,0.9727836251,-0.1302541196
0.8928,-6.782927085e-05,-0.1885650307,0.9727887511,-0.1302676648
0.89344,-7.670745254e-05,-0.188893646,0.9728753567,-0.1304290593
0.89408,0.0003142341739,-0.1890266836,0.9726578593,-0.1304145455
0.89472,2.381892409e-05,-0.1889415234,0.972655654,-0.1307729781
0.89536,0.0003374085063,-0.1892977804,0.9723782539,-0.1310348213
0.896,2.794840839e-05,-0.1892754287,0.9725016952,-0.1306328923
0.89664,0.0003708451986,-0.1898325384,0.9725046754,-0.131032005
0.89728,0.0002696574666,-0.1895766109,0.9723284841,-0.1309911758
0.89792,9.08295624e-05,-0.1900205165,0.9723542929,-0.1310378462
0.89856,4.454096779e-05,-0.1899082661,0.9724856615,-0.1312168241
0.8992,0.0003634946188,-0.1903320849,0.9722186327,-0.1310908198
0.89984,0.0001997507643,-0.1903978884,0.972456336,-0.131118536
0.90048,3.840576392e-05,-0.1905575991,0.9722633958,-0.1314068139
0.90112,-3.221107181e-05,-0.1904769391,0.9723465443,-0.1314575821
0.90176,6.889028009e-05,-0.1904071867,0.972632885,-0.1312876642
0.9024,-0.0001186404261,-0.1907009184,0.9721699357,-0.1321590245
0.90304,-0.0002407981374,-0.1906820685,0.9726089835,-0.1318915486
0.90368,0.0001984503469,-0.1909124851,0.9723163247,-0.1314496696
0.90432,-0.0002713850699,-0.190642938,0.9723085761,-0.1322120428
0.90496,-0.0001391900005,-0.19067128,0.9718439579,-0.1319933683
0.9056,-3.380235285e-05,-0.1908643842,0.9718371034,-0.132184878
0.90624,-8.731137495e-05,-0.1911065876,0.9720442891,-0.1319219768
0.90688,2.07737321e-05,-0.1909145415,0.9719058275,-0.1320937276
0.90752,-0.0001401904738,-0.1909847558,0.9717395902,-0.1323224604
0.90816,-0.0003195533645,-0.1909739673,0.9715067148,-0.1324854642
0.9088,-0.00023812789,-0.1911181808,0.9715002775,-0.1324871331
0.90944,-0.0003039487929,-0.1911054254,0.9717426896,-0.1328361034
0.91008,4.707745393e-05,-0.1912858337,0.9717156291,-0.1327493638
0.91072,-0.0004653503129,-0.1908333749,0.9715639353,-0.1331062615
0.91136,-0.0004189149186,-0.1911749542,0.9716362357,-0.132919848
0.912,-0.0004217859241,-0.1913402677,0.971368432,-0.132815361
0.91264,-0.0003349200124,-0.191358462,0.9712747931,-0.1329021901
0.91328,-0.0001029495616,-0.1914705634,0.9714887142,-0.13347736
0.91392,-0.000358350575,-0.1914270669,0.9712682366,-0.1332339048
0.91456,-0.000164099969,-0.1915402412,0.9713003039,-0.1333426088
0.9152,-0.0002285761293,-0.1917239726,0.9715553522,-0.1333518624
0.91584,-0.000433207606,-0.1917321235,0.9713503122,-0.1335803121
0.91648,-0.0001155122882,-0.192063272,0.9709933996,-0.1336214989
0.91712,-0.0003389675403,-0.1920758784,0.9710317254,-0.1338882893
0.91776,-0.0003537534503,-0.1921537369,0.9708451033,-0.1339049041
0.9184,-0.0003782738349,-0.1923775971,0.9711097479,-0.1340494007
0.91904,-0.0002351352596,-0.1925894171,0.9713094234,-0.1343017519
0.91968,9.111140389e-05,-0.192776382,0.9711033702,-0.1340796351
0.92032,-1.3835961e-05,-0.1926909983,0.9711079597,-0.1342516541
0.92096,-0.0001265568426,-0.1929851472,0.9711591601,-0.1343714297
0.9216,7.117679343e-05,-0.193394959,0.9706540704,-0.1346794069
0.92224,-9.893416427e-05,-0.1933449656,0.9707475305,-0.1347952932
0.92288,6.011151709e-05,-0.1935970634,0.9707373381,-0.1346064061
0.92352,-0.0001864831429,-0.1936973482,0.9707416892,-0.1347056478
0.92416,-0.0001981079113,-0.1938783526,0.9704712629,-0.1347966492
0.9248,-0.0001086781267,-0.1942609698,0.9706706405,-0.1349910349
0.92544,0.0001015458256,-0.1945257634,0.9702014327,-0.1347265691
0.92608,-0.0003822303843,-0.1949684769,0.9706084132,-0.1351160556
0.92672,-0.0002092595678,-0.1951125562,0.9703712463,-0.1351704746
0.92736,-7.719662972e-05,-0.1951728761,0.9704696536,-0.1352021694
0.928,-0.0001969572768,-0.195295006,0.9704192877,-0.1355784982
0.92864,-0.0002924803994,-0.1954874098,0.9704079032,-0.1352454573
0.92928,-0.0001388471574,-0.1957134902,0.970189929,-0.1353549063
0.92992,-0.0003019140568,-0.1961149722,0.9705345035,-0.1353560239
0.93056,-0.0004239240661,-0.196168676,0.9700256586,-0.1356245279
0.9312,-0.0004583841655,-0.1960412115,0.9702702761,-0.1358385682
0.93184,-0.0001478639897,-0.1966997087,0.9700126648,-0.1357663721
0.93248,-0.0003491619136,-0.1966308057,0.9703012109,-0.135904789
0.93312,-0.0004041639622,-0.1968736202,0.9699522853,-0.1355982423
0.93376,-0.0003698882647,-0.1971634477,0.9701740742,-0.1361501366
0.9344,-0.0002646662761,-0.1973168701,0.9702004194,-0.1361741871
0.93504,-0.0005562793231,-0.1969592422,0.970087707,-0.1362920403
0.93568,-0.0007064559613,-0.1972790956,0.9700675607,-0.1361651123
0.93632,-0.0004873209691,-0.1974827349,0.9702430964,-0.1364717036
0.93696,-0.0007695807726,-0.1975208968,0.9698241353,-0.1367405951
0.9376,-0.0008071635384,-0.1975204647,0.9701609015,-0.1365268081
0.93824,-0.0007398747839,-0.1976267844,0.9696702361,-0.1366475374
0.93888,-0.0006722996477,-0.1973383874,0.9697185159,-0.1369837224
0.93952,-0.0005701282062,-0.1975716949,0.9696861506,-0.1370161623
0.94016,-0.0008086226881,-0.1978292167,0.9697830081,-0.1372052282
0.9408,-0.0006434444804,-0.1973365992,0.9696782231,-0.1372650713
0.94144,-0.0005131068174,-0.1977760494,0.9697628617,-0.1370607615
0.94208,-0.0007155027706,-0.1974129975,0.9697210789,-0.1372927576
0.94272,-0.0008631220553,-0.1978753507,0.9697289467,-0.1376340687
0.94336,-0.0004812176339,-0.1976926774,0.9696862102,-0.137841329
0.944,-0.0002045388101,-0.1977524161,0.9699996114,-0.1376809925
0.94464,-0.0004172847257,-0.1977780312,0.9696386456,-0.137903899
0.94528,-0.0003198662598,-0.1979107559,0.9696008563,-0.1378500611
0.94592,-0.0001735574333,-0.1977861375,0.9697278142,-0.1378273815
0.94656,-0.0003119077301,-0.1980424076,0.9695022106,-0.1380814165
0.9472,-0.000138388481,-0.1978896558,0.9698129296,-0.1384074092
0.94784,-0.0002074129879,-0.1979211718,0.9698078036,-0.1381286085
0.94848,-0.0001170549076,-0.1981776804,0.9697170854,-0.138561815
0.94912,7.934868336e-06,-0.1982149631,0.9697648287,-0.1389147341
0.94976,-6.676651537e-06,-0.1986918002,0.9695053101,-0.1388595253
0.9504,-0.0001418699976,-0.1985578239,0.969620347,-0.1387758255
0.95104,8.505443111e-05,-0.1985145211,0.9694715142,-0.139019981
0.95168,-0.0001231324859,-0.1985575855,0.9694216847,-0.1392055005
0.95232,-5.05244825e-05,-0.1987558156,0.9693108797,-0.1393256783
0.95296,2.816814231e-05,-0.1990369409,0.9695296884,-0.1392259002
0.9536,0.0001015893795,-0.1990589648,0.9692507386,-0.1392928511
0.95424,-0.0002317620092,-0.1993402392,0.9689936042,-0.1393155903
0.95488,0.000202427851,-0.1991398335,0.96903795,-0.139374271
0.95552,-3.428617492e-05,-0.1995861232,0.9690659046,-0.1396366656
0.95616,0.0002576804254,-0.1999820918,0.9689605832,-0.1396514922
0.9568,-0.0004031639546,-0.1999751627,0.9690611362,-0.1394737959
0.95744,-0.0001282612793,-0.2000516355,0.968845129,-0.1399989575
0.95808,-0.0001625502482,-0.2004980892,0.9689849019,-0.1398504078
0.95872,-3.502005711e-05,-0.2007622719,0.9685670137,-0.140050739
0.95936,-0.0003689869773,-0.2006410956,0.9684570432,-0.1402639747
0.96,-0.0003278544173,-0.2011439502,0.9684516191,-0.1398954391
0.96064,-0.0004237397807,-0.2011569589,0.9688519835,-0.1400838196
0.96128,-0.0004877428873,-0.2013387382,0.9683625698,-0.1402441561
0.96192,-0.0005226072972,-0.2016697675,0.9684151411,-0.1401720047
0.96256,-0.000652174931,-0.2015041858,0.9682686329,-0.1401652545
0.9632,-0.0006407948676,-0.2022680491,0.9685564637,-0.1403917074
0.96384,-0.0009708856232,-0.2022025883,0.9681007862,-0.1403075755
0.96448,-0.0007211104967,-0.2024128288,0.968277514,-0.1404417753
0.96512,-0.0009063943289,-0.2027974129,0.9683471322,-0.1405701488
0.96576,-0.001076645683,-0.2026743591,0.9679270983,-0.1404091269
0.9664,-0.001294750255,-0.2030115128,0.9685420394,-0.1407735795
0.96704,-0.001209551934,-0.2034889311,0.9682149291,-0.1408517361
0.96768,-0.001311494969,-0.2031456679,0.9681714773,-0.1404476166
0.96832,-0.001432111952,-0.2033225,0.9680312872,-0.1408041269
0.96896,-0.001437080558,-0.2035265416,0.9677121639,-0.1408396214
0.9696,-0.001614796463,-0.2036104053,0.9679125547,-0.1409154385
0.97024,-0.001569470158,-0.2037521601,0.9680818319,-0.1410617232
0.97088,-0.001652250765,-0.2037055641,0.9679939151,-0.1411913335
0.97152,-0.001532177441,-0.2039977759,0.9678362608,-0.1412444413
0.97216,-0.001494576572,-0.2040864974,0.9680213928,-0.1415419281
0.9728,-0.001432745135,-0.204138115,0.9681707621,-0.1414331198
0.97344,-0.001344601624,-0.2041894794,0.9680591822,-0.141577363
0.97408,-0.001474729506,-0.2044798136,0.9676311016,-0.141922012
0.97472,-0.001570621971,-0.204313904,0.9673563242,-0.1417823434
0.97536,-0.001199457329,-0.2043593526,0.9678999782,-0.1418098062
0.976,-0.001153006218,-0.2042805851,0.9674475789,-0.1418508589
0.97664,-0.001077281777,-0.2042146772,0.9678391218,-0.1423107386
0.97728,-0.001013503061,-0.2043652833,0.9674344659,-0.1421221644
0.97792,-0.001140056178,-0.2046040595,0.9673416018,-0.1421307176
0.97856,-0.001086119097,-0.2046076357,0.967587471,-0.1424084157
0.9792,-0.0009424645687,-0.2046149075,0.9676568508,-0.1422078162
0.97984,-0.0007894543232,-0.2046410143,0.9673920274,-0.1423795521
0.98048,-0.0009022622835,-0.2046387941,0.9675750732,-0.1426440179
0.98112,-0.0005980539136,-0.2046388537,0.9671556354,-0.1427645087
0.98176,-0.0003644116223,-0.2048832029,0.9673376083,-0.1426178962
0.9824,-0.0004544700496,-0.2046712488,0.9674394727,-0.1427677572
0.98304,-0.0005264324136,-0.2052348107,0.9671812057,-0.1432611942
0.98368,-0.0003462661989,-0.2051442116,0.9672477245,-0.1432972848
0.98432,9.989831597e-05,-0.2051706165,0.9673902988,-0.1433600485
0.98496,-5.428865552e-05,-0.2053973675,0.9671604633,-0.1434980482
0.9856,9.5163472e-05,-0.2052991241,0.9669494033,-0.1436932385
0.98624,-6.971694529e-05,-0.2054240704,0.966943264,-0.1438332349
0.98688,5.231704563e-07,-0.2054448277,0.9667357206,-0.1438947022
0.98752,-8.585990872e-05,-0.2058356553,0.9667757154,-0.1440981627
0.98816,-3.735243808e-06,-0.2058336884,0.9669060111,-0.1442941129
0.9888,-9.814708028e-05,-0.2059147954,0.9667882323,-0.1439900696
0.98944,0.0004205824807,-0.2061511576,0.9666500688,-0.14438425
0.99008,8.756411262e-05,-0.2061375827,0.9666062593,-0.1444418728
0.99072,-0.0002969419584,-0.2064190656,0.9664242864,-0.1448690891
0.99136,-0.0001334217377,-0.2065137029,0.9663417935,-0.1448007673
0.992,5.024112761e-05,-0.2066416889,0.9663884044,-0.1447496265
0.99264,8.90865922e-05,-0.2066475451,0.9663862586,-0.1444703639
0.99328,-0.0001584365964,-0.2071223408,0.9661436081,-0.1449395865
0.99392,-0.0003416929394,-0.2071052641,0.9662153125,-0.1451572776
0.99456,-0.0003709769808,-0.2075357586,0.9660192132,-0.1445096135
0.9952,-0.0004781327443,-0.2073440999,0.9661036134,-0.1448882222
0.99584,-0.0005231537507,-0.2077010423,0.9659100175,-0.1449701339
