Frequency,S11 Re,S11 Im,S21 Re,S21 Im
0.01,0.03835529462,0.137416631,0.1643469334,-1.046588063
0.011799179917991799,0.1541122496,0.05425963923,-0.1565510035,-1.030713439
0.0135983598359836,0.1610903591,-0.0705139935,-0.4110011756,-0.940680027
0.015397539753975398,0.07227823138,-0.1472320557,-0.6806258559,-0.7848905325
0.017196719671967196,-0.03037614934,-0.1523323804,-0.8757818341,-0.5582379103
0.018995899589958995,-0.1188864633,-0.08702329546,-0.9693417549,-0.3096805513
0.020795079507950794,-0.1488556564,0.01919579133,-1.007954597,-0.01795956492
0.022594259425942592,-0.09834637493,0.1118306965,-0.9691753983,0.2305568904
0.024393439343934394,-0.005158359651,0.1648506969,-0.8679074049,0.4784446061
0.02619261926192619,0.1027245894,0.1519224048,-0.6993055344,0.6828147769
0.02799179917991799,0.1820589602,0.07905644923,-0.4928900003,0.8356115222
0.02979097909790979,0.2021438926,-0.02586085536,-0.2598198354,0.9324262738
0.031590159015901585,0.1623543352,-0.1266954988,-0.009350487031,0.9627938271
0.033389338933893384,0.0689394176,-0.183310926,0.2383671105,0.9273785353
0.03518851885188518,-0.04005048797,-0.1763090342,0.4791973233,0.8217445612
0.03698769876987699,-0.1472297162,-0.09146143496,0.8034257293,0.514686048
0.03878687868786879,-0.1703860313,0.009785212576,0.8950736523,0.307407856
0.040586058605860585,-0.1297429651,0.1075885743,0.9350721836,0.09063109756
0.04238523852385238,-0.03773007169,0.1616304964,0.9279956222,-0.1258470267
0.04418441844184418,0.07226267457,0.1571791768,0.8681762815,-0.3388152421
0.04598359835983598,0.162656635,0.0887081027,0.756873548,-0.5284456015
0.04778277827782778,0.1979960203,-0.01775760949,0.6140548587,-0.682988286
0.04958195819581958,0.1660886854,-0.1260250658,0.4402604997,-0.8030514121
0.051381138113811384,0.07785817981,-0.1966357678,0.2240817547,-0.881891489
0.053180318031803175,-0.03642807156,-0.2033931464,-0.01411433611,-0.9101512432
0.05497949794979498,-0.1369380802,-0.1439976841,-0.2461540103,-0.8713035583
0.05677867786778677,-0.1916337609,-0.0372415185,-0.4674033225,-0.7780830264
0.05857785778577857,-0.1722322106,0.08102019876,-0.6474245191,-0.6259810328
0.06037703770377038,-0.09276237339,0.1709141284,-0.7811470032,-0.4353506863
0.06217621762176217,0.02328920364,0.2031138092,-0.8683579564,-0.2157086879
0.06397539753975397,0.1359799355,0.1643514186,-0.8897261024,0.01365024131
0.06577457745774577,0.2105090767,0.06955248117,-0.8544769287,0.2468489408
0.06757375737573758,0.2190427333,-0.05104168877,-0.7601826191,0.4518628418
0.06937293729372937,0.1603742242,-0.1568092853,-0.6175320745,0.6319138408
0.07117211721172116,0.05279905349,-0.2130963653,-0.4355025589,0.7696213126
0.07297129712971297,-0.06980191916,-0.1995474994,-0.2215403765,0.8565351963
0.07477047704770476,-0.1635988653,-0.1185678095,0.01160062198,0.8847212195
0.07656965696569658,-0.1967687905,-0.0008549757767,0.2367710024,0.8495382071
0.07836883688368836,-0.1607923508,0.1171123311,0.4477078915,0.7601884007
0.08016801680168016,-0.06317736208,0.1965593845,0.6314902902,0.6145136952
0.08196719671967197,0.05949532241,0.2083527744,0.7662244439,0.4322682023
0.08376637663766377,0.1704557687,0.1502128243,0.8487507701,0.2223600894
0.08556555655565555,0.231588915,0.04235108569,0.8780622482,-0.0003173489822
0.08736473647364736,0.2227968872,-0.0816763714,0.8462259769,-0.2237038016
0.08916391639163916,0.1485580951,-0.1805245429,0.7609260678,-0.4331295788
0.09096309630963097,0.03235333413,-0.2234121263,0.6244497299,-0.6153393388
0.09276227622762276,-0.08770608157,-0.1980404109,0.4456591904,-0.7594291568
0.09456145614561455,-0.1746182889,-0.1094111651,0.2292940766,-0.8510181308
0.09636063606360636,-0.1979080141,0.008882897906,-0.002098472323,-0.8803452849
0.09815981598159815,-0.1532363296,0.1187662184,-0.2302136719,-0.8487952948
0.09995899589958995,-0.05682356656,0.1882201284,-0.4435939789,-0.7646230459
0.10175817581758176,0.05801280215,0.1910288483,-0.6238443851,-0.6274918914
0.10355735573557355,0.1537057757,0.1310872883,-0.7624563575,-0.4475780427
0.10535653565356534,0.1997587234,0.03029590845,-0.8527947068,-0.2346524
0.10715571557155715,0.1821929067,-0.07733467966,-0.8860924244,-0.001927535282
0.10895489548954895,0.1054154634,-0.1514638513,-0.8317851424,0.3116573393
0.11075407540754076,0.002660568338,-0.1752274185,-0.7375332117,0.4954942763
0.11255325532553254,-0.09409389645,-0.1362896264,-0.6065195799,0.65416646
0.11435243524352434,-0.1520558298,-0.04840316251,-0.4334987998,0.7842478752
0.11615161516151615,-0.1487019211,0.05820436031,-0.2006112039,0.8703050017
0.11795079507950795,-0.08558297157,0.1450103521,0.04501787573,0.8882402182
0.11974997499749974,0.01663308032,0.1820728332,0.2851471603,0.8382686377
0.12154915491549154,0.1220699549,0.1557189971,0.4945260584,0.7315465212
0.12334833483348334,0.1965405494,0.07580266893,0.6655427217,0.5755669475
0.12514751475147515,0.2175786793,-0.032224264,0.791240871,0.387863934
0.12694669466946695,0.1769931316,-0.1345541328,0.8626698256,0.181162402
0.12874587458745876,0.08730707318,-0.200851649,0.8875656724,-0.03580911458
0.13054505450545054,-0.02218573354,-0.2098732591,0.8546792865,-0.2558677197
0.13234423442344234,-0.1190207973,-0.1593573242,0.765984714,-0.4653330147
0.13414341434143415,-0.17309618,-0.06754044443,0.624813199,-0.6465668678
0.13594259425942593,-0.1723609567,0.03713866696,0.44025442,-0.7913986444
0.13774177417741776,-0.1142049059,0.1205856353,0.2187551111,-0.8784968853
0.1395409540954095,-0.02529788204,0.1584441513,-0.01704541966,-0.9079369903
0.14134013401340134,0.0665967539,0.1403032243,-0.2567580938,-0.8721390367
0.14313931393139315,0.1296789795,0.07774771005,-0.4795852304,-0.7744489908
0.14493849384938493,0.1447845697,-0.007478232495,-0.6682043076,-0.6189718843
0.14673767376737673,0.1092974842,-0.08297959715,-0.8104113936,-0.4196001589
0.14853685368536854,0.03758737072,-0.1240023077,-0.8943715096,-0.1935510188
0.15033603360336031,-0.0440573059,-0.1150112227,-0.9140158296,0.04876879975
0.15213521352135212,-0.1062812954,-0.06024247035,-0.8692153692,0.2879162431
0.15393439343934393,-0.1267465502,0.02117276751,-0.761826694,0.5070667267
0.1557335733573357,-0.09705685079,0.100968115,-0.601278007,0.6876927614
0.15753275327532754,-0.02746786177,0.1520501822,-0.3986460268,0.8197053671
0.15933193319331931,0.05957306549,0.1572466791,-0.1701623648,0.8932518959
0.16113111311131112,0.1351558417,0.1154828519,0.06748516113,0.9060035944
0.16293029302930293,0.1775340885,0.04003381357,0.3024892509,0.8575657606
0.1647294729472947,0.1744149625,-0.04504803568,0.5167242885,0.7474654317
0.16652865286528654,0.1275331229,-0.1139270812,0.6958366632,0.5873011947
0.16832783278327831,0.05400467291,-0.1466232687,0.8267510533,0.3862378597
0.1701270127012701,-0.02329834737,-0.1353102326,0.9016355872,0.1565883756
0.17192619261926192,-0.07921599597,-0.08596505225,0.9135819077,-0.0843379274
0.1737253725372537,-0.09711731225,-0.01696483046,0.8602426648,-0.3207437992
0.17552455245524554,-0.0740160495,0.0461730659,0.7486169338,-0.5353434086
0.1773237323732373,-0.02139676549,0.0828134343,0.5806407332,-0.7135717273
0.1791229122912291,0.04019005224,0.08098074794,0.372718066,-0.8409346938
0.18092209220922092,0.08704659343,0.04394877329,0.1396527141,-0.9087244272
0.1827212721272127,0.1027645692,-0.01276224945,-0.1036169305,-0.9121621251
0.1845204520452045,0.08123739064,-0.06758911908,-0.3388114274,-0.8523380756
0.1863196319631963,0.03169925883,-0.09997476637,-0.5502707958,-0.734195292
0.1881188118811881,-0.02872033976,-0.09833937883,-0.7242407799,-0.5635200143
0.18991799179917992,-0.07848792523,-0.06224805862,-0.8458616734,-0.3527453244
0.1917171717171717,-0.1003486216,-0.004149395041,-0.9072065949,-0.1181935966
0.1935163516351635,-0.08680389822,0.05777934566,-0.9054400325,0.1254986078
0.1953155315531553,-0.0420213379,0.1018613279,-0.8394553661,0.3573687375
0.1971147114711471,0.01853144355,0.114830561,-0.7151788473,0.5641384721
0.1989138913891389,0.0756002292,0.09315688163,-0.542111218,0.7290580869
0.2007130713071307,0.1106560752,0.04591630027,-0.3332901299,0.8442917466
0.2025122512251225,0.1136952117,-0.01064136624,-0.1013753563,0.9026451111
0.20431143114311429,0.08576135337,-0.05677386746,0.1379170269,0.896207571
0.2061106110611061,0.0383335501,-0.07750688493,0.3689869046,0.829521358
0.2079097909790979,-0.009144167416,-0.06689880043,0.572645843,0.7047089338
0.2097089708970897,-0.03972954676,-0.03077261709,0.7377482653,0.5283569694
0.2115081508150815,-0.04096158594,0.01555006858,0.8503947258,0.3152394593
0.21330733073307329,-0.01269984432,0.05299428478,0.9012877345,0.07996515185
0.2151065106510651,0.03379176185,0.06548353285,0.8889735341,-0.1589443386
0.2169056905690569,0.08076810837,0.04690190032,0.8132058978,-0.3862793446
0.21870487048704867,0.110909164,0.0003838101402,0.6814200878,-0.5840133429
0.2205040504050405,0.1094455048,-0.05963948369,0.5042111278,-0.7392881513
0.22230323032303229,0.07177384943,-0.1128993854,0.2906029224,-0.842638731
0.22410241024102406,0.006952797063,-0.1403492689,0.06133364514,-0.8873557448
0.2259015901590159,-0.06707625836,-0.1285049766,-0.1716211289,-0.8700279593
0.22770077007700767,-0.1262877136,-0.0776995793,-0.3901795149,-0.7930114269
0.2294999499949995,-0.1525106877,-0.0002091499482,-0.5813120604,-0.6618639231
0.23129912991299129,-0.1353466958,0.08115339279,-0.730909586,-0.4870419502
0.23309830983098306,-0.08270784467,0.1471318752,-0.8622439504,-0.1550247967
0.2348974897489749,-0.003194019664,0.1704239547,-0.8737924695,0.046446722
0.23669666966696667,0.0763694942,0.1508563608,-0.8393516541,0.2450052649
0.23849584958495848,0.1328698844,0.0954022184,-0.759989202,0.4320587814
0.24029502950295029,0.1512587816,0.02144198865,-0.6412900686,0.594971478
0.24209420942094206,0.1280377954,-0.04671751708,-0.4857898355,0.7288379073
0.2438933893389339,0.07321797311,-0.0874748826,-0.2792580724,0.8324459791
0.24569256925692567,0.008001982234,-0.08855487406,-0.05124569312,0.8788032532
0.24749174917491748,-0.04313665256,-0.0510385856,0.1830891967,0.8609451652
0.24929092909290929,-0.06142607331,0.009204198606,0.4032348692,0.7821264267
0.25109010901090106,-0.0381905809,0.06907425821,0.593757391,0.6439016461
0.2528892889288929,0.01830615103,0.1047917753,0.7390609384,0.4639551938
0.2546884688468847,0.08828277141,0.1008891314,0.8294573426,0.253526628
0.2564876487648765,0.1472187191,0.05589483306,0.8623979688,0.02992738411
0.2582868286828683,0.1741912067,-0.01689997315,0.8366710544,-0.1920665354
0.26008600860086006,0.1577505171,-0.09707546234,0.7568828464,-0.400265187
0.2618851885188519,0.1008476093,-0.1588023007,0.6267243028,-0.5788590312
0.2636843684368437,0.01794782653,-0.1837920845,0.4565292001,-0.7206013799
0.2654835483548355,-0.06684213877,-0.1636768579,0.2555838525,-0.8136048317
0.2672827282728273,-0.1297485381,-0.1025246605,0.03665415943,-0.8528109193
0.269081908190819,-0.1523763388,-0.01892432757,-0.1859894693,-0.8336343169
0.2708810881088109,-0.1290275604,0.06172673404,-0.3958899081,-0.7569038868
0.2726802680268027,-0.06916105747,0.1162286848,-0.5791746378,-0.6280801892
0.27447944794479445,0.007007943001,0.1298024952,-0.7236918211,-0.4555619657
0.2762786278627863,0.07480250299,0.1008399427,-0.8170365095,-0.2519495189
0.27807780778077806,0.1121049896,0.041852694,-0.8544167876,-0.03096761741
0.27987698769876984,0.1090621427,-0.02493928,-0.8339629173,0.1925818324
0.2816761676167617,0.06894149631,-0.07518375665,-0.7546681166,0.403521955
0.28347534753475345,0.007627147716,-0.0913862139,-0.6235353947,0.5864952207
0.2852745274527453,-0.05187097564,-0.06783334911,-0.4474458098,0.7296796441
0.28707370737073706,-0.08672869205,-0.01273058355,-0.2406931669,0.8206512332
0.28887288728872884,-0.08308858424,0.05375030264,-0.01832100749,0.8529931307
0.2906720672067207,-0.04177555814,0.1086782888,0.20454292,0.8261063099
0.29247124712471245,0.02494036034,0.1326483786,0.41074422,0.7425990105
0.29427042704270423,0.09549271315,0.1175456867,0.5875014663,0.6090007424
0.29606960696069606,0.1478035748,0.0673128739,0.7225260735,0.4366609454
0.29786878687868784,0.1676749289,-0.001825490152,0.8084877133,0.2354598641
0.2996679667966797,0.1510537118,-0.07017443329,0.8419282436,0.0196285639
0.30146714671467145,0.1050269604,-0.1194037944,0.8186635971,-0.1981324703
0.30326632663266323,0.04512562603,-0.1396168619,0.7411504388,-0.403632611
0.30506550655065506,-0.01192412339,-0.1303782463,0.6125078797,-0.582480073
0.30686468646864684,-0.05400367826,-0.1010644734,0.4415296018,-0.7231836319
0.3086638663866386,-0.07745440304,-0.06270088255,0.2386236787,-0.8156734705
0.31046304630463045,-0.0847735554,-0.02468244359,0.01839203201,-0.8521965146
0.31226222622262223,-0.08181042224,0.01124285813,-0.2055921406,-0.8294590116
0.314061406140614,-0.06904785335,0.04533822089,-0.4155997038,-0.7483215928
0.31586058605860584,-0.04107365757,0.07716314495,-0.5967438221,-0.6142306328
0.3176597659765977,0.005135721527,0.09486789256,-0.736839354,-0.437545985
0.3194589458945894,0.0606489107,0.0824829638,-0.8254013658,-0.2306805402
0.32125812581258123,0.1012646332,0.03298402578,-0.8581970334,-0.008005400188
0.32305730573057306,0.09927750379,-0.03736364841,-0.8308013678,0.2170496285
0.32485648564856484,0.04546866938,-0.09202145785,-0.7441362739,0.4284238219
0.3266556655665566,-0.03760643303,-0.0958134234,-0.6035183072,0.6085661054
0.32845484548454845,-0.107184343,-0.03805917874,-0.4197525084,0.7445827723
0.33025402540254023,-0.124288924,0.05785281211,-0.206865117,0.8258264065
0.332053205320532,-0.07536422461,0.14973104,0.01614460722,0.8471539617
0.33385238523852384,0.02400260232,0.1967834681,0.2351223528,0.80853194
0.3356515651565157,0.1367391497,0.178398639,0.434117198,0.7167745233
0.3374507450745074,0.2224529088,0.09904162586,0.6006337404,0.5780451894
0.33924992499249923,0.2534197867,-0.01442455687,0.7260116935,0.4060743749
0.34104910491049106,0.2205707133,-0.1275507659,0.8049983978,0.2083752006
0.3428482848284828,0.1356868148,-0.2064372003,0.8330643177,-0.002615510253
0.3446474647464746,0.02469105087,-0.2304373831,0.8092121482,-0.216367662
0.34644664466446645,-0.07843955606,-0.1948394626,0.7304366827,-0.4191460311
0.3482458245824582,-0.1446621567,-0.1146242991,0.6005043387,-0.59836936
0.35004500450045,-0.1563563198,-0.01756997593,0.4253847897,-0.7385475039
0.35184418441844184,-0.1163659319,0.06325913221,0.2190315574,-0.828107059
0.3536433643364337,-0.04323786125,0.1040102541,-0.007593467832,-0.8593705893
0.3554425442544254,0.03341531754,0.09454282373,-0.2338835299,-0.8282105923
0.35724172417241723,0.08487826586,0.04419323429,-0.4448010623,-0.7376745939
0.35904090409040906,0.09382629395,-0.02479406074,-0.6246267557,-0.5941721797
0.3608400840084008,0.05815888569,-0.08362148702,-0.7581037283,-0.408006072
0.3626392639263926,-0.007436528802,-0.1097707599,-0.8374895453,-0.1937726587
0.36443844384438445,-0.07828333974,-0.09184420854,-0.8567128778,0.03223935142
0.3662376237623762,-0.129869163,-0.0342768915,-0.8161233664,0.2553932667
0.368036803680368,-0.1422597915,0.04465560243,-0.718959868,0.4582001567
0.36983598359835984,-0.1106131002,0.1210465655,-0.5730623007,0.6272764206
0.3716351635163516,-0.04405612871,0.1719433367,-0.3898700178,0.7520837188
0.3734343434343434,0.03908446431,0.1835392267,-0.1819461286,0.8261105418
0.37523352335233523,0.1161714345,0.153527081,0.03632082045,0.8439211845
0.377032703270327,0.1679071635,0.09263407439,0.2524056733,0.807156086
0.3788318831883188,0.1831529737,0.01813847758,0.4516925514,0.7163591385
0.3806310631063106,0.1622615755,-0.04976092651,0.6235228181,0.5775852799
0.3824302430243024,0.1156783029,-0.09439729899,0.7544536591,0.3976943493
0.3842294229422942,0.05970622599,-0.108370848,0.8360447884,0.1881031394
0.386028602860286,0.01239847578,-0.09348868579,0.859003365,-0.03770564497
0.38782778277827784,-0.01392362732,-0.06131260097,0.8207725883,-0.2633675933
0.3896269626962696,-0.01604045741,-0.0274143815,0.7235402465,-0.4716878235
0.3914261426142614,0.0008952891221,-0.005643495824,0.5739394426,-0.6458714604
0.39322532253225323,0.02432722412,-0.003208369249,0.3831858635,-0.774427712
0.395024502450245,0.04103457555,-0.01920528524,0.1662520468,-0.8477402329
0.3968236823682368,0.04147266969,-0.04458234087,-0.0618503429,-0.8607535362
0.3986228622862286,0.02298364416,-0.06744612753,-0.2851697206,-0.8131631613
0.4004220422042204,-0.008433720097,-0.0762463361,-0.4871756136,-0.709544003
0.4022212221222122,-0.04330762103,-0.06575391442,-0.6548305154,-0.5570295453
0.404020402040204,-0.06925306469,-0.03725299239,-0.7770597935,-0.3661304116
0.4058195819581958,-0.07787095755,0.001525251893,-0.8448777795,-0.1500250548
0.4076187618761876,-0.06668619812,0.03934167325,-0.8544585705,0.07600663602
0.4094179417941794,-0.03948240355,0.06576660275,-0.8039287925,0.2958479822
0.4112171217121712,-0.009091602638,0.07709658146,-0.6262735724,0.5789684057
0.413016301630163,0.02199831605,0.06933423132,-0.4750513434,0.7082733512
0.4148154815481548,0.04142221063,0.05126948282,-0.2978368998,0.7993391156
0.41661466146614656,0.04726415873,0.03209651262,-0.1043952554,0.8468294144
0.4184138413841384,0.04288648441,0.01995100081,0.1012412161,0.8473252058
0.4202130213021302,0.03578844666,0.01913096011,0.3194441199,0.7908832431
0.422012201220122,0.03527096286,0.02765536867,0.515935123,0.6784824133
0.4238113811381138,0.04743622988,0.03800515085,0.675473392,0.51744771
0.4256105610561056,0.07155311108,0.04045077041,0.7851142287,0.3210007548
0.4274097409740974,0.1012467816,0.02607013471,0.8395659328,0.1033581868
0.4292089208920892,0.1251475215,-0.007063860539,0.8335471153,-0.119294785
0.431008100810081,0.1320477128,-0.05481878668,0.7713326812,-0.3309542537
0.4328072807280728,0.1139937937,-0.1067980826,0.6565856338,-0.5177843571
0.43460646064606456,0.0708373189,-0.1483724713,0.499106437,-0.666975081
0.4364056405640564,0.00948718749,-0.1674383879,0.3093389571,-0.7718643546
0.4382048204820482,-0.05681562051,-0.1565593183,0.09956666082,-0.8248364329
0.44000400040003995,-0.116165109,-0.1150636077,-0.2383231074,-0.7977209091
0.4418031803180318,-0.1460056454,-0.0546765402,-0.4154582322,-0.7227149606
0.4436023602360236,-0.1445457786,0.01159623358,-0.5716251731,-0.6091034412
0.44540154015401534,-0.1131864488,0.06683478504,-0.6979399323,-0.4616934061
0.4472007200720072,-0.0625436455,0.09821225703,-0.7874532938,-0.2884476185
0.448999899989999,-0.008480553515,0.1000586003,-0.8346998692,-0.09836229682
0.45079907990799073,0.03287940472,0.07654867321,-0.8348541856,0.1099463701
0.45259825982598256,0.05027641356,0.03948057815,-0.7780739665,0.3257000744
0.4543974397439744,0.04130775481,0.005147663876,-0.6656286716,0.5194112659
0.4561966196619661,0.01364976261,-0.01155340951,-0.5048535466,0.6766819358
0.45799579957995795,-0.01791162975,-0.003066730686,-0.3082002103,0.7853133082
0.4597949794979498,-0.03713560477,0.02824560925,-0.09001670778,0.8369325399
0.4615941594159416,-0.03112353012,0.07104145736,0.1328871995,0.8282162547
0.46339333933393334,0.003147593001,0.107805416,0.3440701067,0.760812223
0.4651925192519252,0.05853501707,0.1220544651,0.5283923149,0.6409624815
0.466991699169917,0.1197705418,0.104613781,0.6732417941,0.4803030193
0.46879087908790873,0.1682316214,0.05545103177,0.7711750269,0.2885187268
0.47059005900590056,0.1884008646,-0.0151226921,0.8168016672,0.0799670592
0.4723892389238924,0.1721524298,-0.08921590447,0.8084061146,-0.1316642016
0.4741884188418841,0.1216970533,-0.1481788456,0.7475284934,-0.3348658681
0.47598759875987595,0.04949730262,-0.1762033701,0.6371502876,-0.5160048604
0.4777867786778678,-0.02595666796,-0.1662264764,0.4839286208,-0.6647452116
0.4795859585958595,-0.08449182659,-0.1219730973,0.2964174151,-0.76935637
0.48138513851385134,-0.1109821647,-0.05771609768,0.085559614,-0.8221936226
0.4831843184318432,-0.1073490605,0.008345350623,-0.326066792,-0.7623448372
0.48498349834983495,-0.06514345855,0.05050670356,-0.4969121814,-0.6672401428
0.48678267826782673,-0.010327355,0.05956147239,-0.6407272816,-0.5324835181
0.48858185818581856,0.03571524844,0.03411266208,-0.7483111024,-0.3675145209
0.4903810381038104,0.05456685275,-0.01397445146,-0.8133594394,-0.181188494
