!Keysight Technologies N9950B: A.12.38
!Date: Friday, 05 May 2023 13:10:57
!Timezone: (UTC-06:00) Central Time (US & Canada)
!Model: N9950B
!Serial: MY61131330
!GPS Latitude: 
!GPS Longitude: 
!GPS TimeStamp: 0001-01-01 00:00:00Z
!GPS Seconds Since Last Read: 0
!CHECKSUM:0202062429
!Correction: S11(ON U)S21(ON U)S12(ON U)S22(ON U)
!S2P File: Measurements:S11,S21,S12,S22:
# Hz S DB R 50
800000000	-48.595009455217	3.77595138261403	-0.0025029741010259	-47.8547696228945	-0.0127101040380734	-47.9189225869638	-48.4855047898933	-7.03094075177831	
801700000	-47.4726919417603	36.3735146193209	-0.00165835940532632	-47.9948794220763	-0.00746859551519923	-47.842224726157	-50.0517136007184	-21.3573165544121	
803400000	-51.6572510459193	15.8849950066152	0.00386114019189973	-47.983864128878	-0.0120638104936825	-48.0578155671107	-47.5998383515095	-6.10526920186265	
805100000	-46.58119905829	24.0850332956303	0.015719798744943	-48.1295973717735	-0.0142909013716082	-48.1419247880283	-54.1126445630427	9.18433989698256	
806800000	-53.1069912630548	1.72087451495689	0.0105284503886555	-48.3297473677262	-0.0180816089753243	-48.2398232958587	-46.7647812245357	-20.2805919584538	
808500000	-46.158364120651	15.9252269402252	0.0117301536891295	-48.3441764763864	-0.0155614397424623	-48.2982735745437	-51.8712866977111	-23.3289091838146	
810200000	-49.0755842972982	41.3133801662026	0.0264528673458135	-48.4724671309839	-0.00649186641783059	-48.429714305938	-47.693093507858	-7.41617779337298	
811900000	-47.0908314043074	19.3946920918563	0.00293175151140584	-48.4213105437402	-0.00854530543881506	-48.5015304735802	-53.2142525809473	11.3796767962249	
813600000	-51.0013384276213	22.0584768890592	0.00857941464101046	-48.6234784461005	-0.00442598683305116	-48.6657702486118	-53.2084514204959	-73.3482864238229	
815300000	-48.2174464065607	25.2391276846301	0.00617233594192643	-48.6735573185197	-0.00170887544985052	-48.806613979431	-52.5752995427494	-43.1771069627958	
817000000	-48.7118332437446	9.12460350601693	0.0057984806067988	-48.9191579088753	-0.0204285742944831	-48.7739661962672	-55.7402395441364	-46.9161197657869	
818700000	-49.2528074508657	17.9166154955074	-0.00877874535399526	-48.9977384718306	-0.0109473970831202	-48.9277701429784	-53.0908589710248	-11.2624885776752	
820400000	-51.0032238196589	16.0859249727504	0.00634263496997318	-49.1446436698633	-0.00606216637996353	-49.0371810287962	-51.737400757762	-27.4623357644295	
822100000	-56.1623129791115	5.66408297148176	-0.0159898733347408	-49.205344683677	-0.0175203440448404	-49.0697235996533	-47.1238873251538	-47.5515430955424	
823800000	-47.7433232868259	34.9294377875716	0.00055608145293432	-49.2275194489354	-0.00777832886054784	-49.2079144178217	-53.8278072128635	-26.2422173297026	
825500000	-56.403964460191	51.0445795005683	0.0147204249332917	-49.1850321430759	-0.0196614418035563	-49.3544465091386	-52.6705604288049	-46.3754311770667	
827200000	-48.8091701114091	26.441445995753	0.0245350769881963	-49.5367021662518	-0.00676545453950167	-49.3497807660163	-52.2756683077538	19.8556268433296	
828900000	-50.6421341784071	-6.05160832221331	-0.00921671311886163	-49.5470837147221	0.000216229602753231	-49.5576835822448	-56.4056742119769	-13.464410651136	
830600000	-54.7330288272274	-40.2227113439332	0.00436369607038705	-49.6157205825444	-0.0159996248259468	-49.6473527816192	-47.6963493660927	-43.0413470106848	
832300000	-50.3033326256525	48.7786424005874	0.00842396403548329	-49.7581798912229	-0.0136393380866527	-49.8073629134746	-51.6972213739295	-41.1061166444328	
834000000	-57.5979112608697	60.786349777771	0.0107488734375442	-49.929389995419	-0.00515583953791512	-49.6785054175252	-49.863514410196	-8.43556998920941	
835700000	-54.2939091525366	41.5129260510964	0.0108252505572713	-49.8243325159869	-0.0165946119025727	-49.9319031931261	-53.2260750786878	-0.498668976355845	
837400000	-52.1619471648072	31.9778619645948	0.0146746927909227	-50.1594018986389	-0.00429844056238361	-50.0629284362738	-49.2450753412649	-87.6022639431161	
839100000	-52.2576304666105	-1.02606312775198	0.00481688518270374	-50.169709678448	-0.0161944645574141	-50.1522126344528	-56.9740716216142	-45.3743509545019	
840800000	-57.343909914662	20.6498886150564	0.00825445840005268	-50.308181606023	0.00576035394226425	-50.2105642158169	-50.9833245828982	11.7250210444912	
842500000	-51.1571746399996	17.7917128167943	0.0112463388501114	-50.3721445149063	0.00477483592464322	-50.3699738020256	-55.2760101015619	5.77158429150769	
844200000	-51.9945418788836	-58.400219798539	0.00051368832665501	-50.4563065117283	-0.0267149825329347	-50.537508665384	-50.7458132315975	18.0357127421793	
845900000	-49.3082048066661	19.3040291127245	0.00443056385437633	-50.5089044502255	-0.0186193235383416	-50.5473236326308	-46.7648462864416	1.91511538507048	
847600000	-53.9467408874959	28.1780804653318	-0.0145797994731802	-50.7325095450691	-0.000682797997198281	-50.6751474102515	-62.4551985225446	14.2135931952183	
849300000	-49.1942711887586	1.43203547311242	-0.00588883935449478	-50.7190651586146	-0.0119858927502736	-50.7399678086366	-49.6109411779397	-10.0126370215829	
851000000	-56.2087586473314	73.2733758944589	0.0127755772450338	-50.83221199407	-0.00669706612109492	-50.8658434688774	-54.8038277907131	10.7773720506337	
852700000	-51.1216501148657	18.1980809335763	0.00784126795277307	-50.9255583752423	-0.00744900427319227	-50.9398206549237	-52.2620998941697	1.87816216171474	
854400000	-52.7956392483013	36.5600920802876	0.0181338775288984	-51.0823687050027	-0.00678994163454435	-51.071850665051	-49.6607326984464	-8.27911443570816	
856100000	-55.8780745261922	11.6960282387402	0.016440730314537	-51.205549023656	-0.00112463068744701	-51.0999491755094	-51.2204102999248	54.5367782093014	
857800000	-58.2746719908481	-41.4469352661058	0.0225099300221934	-51.3019800934393	-0.00575122578488159	-51.3136272168087	-49.1419354843276	23.3657224857908	
859500000	-55.3912498826206	-11.4209586537397	0.014884518968978	-51.4377911347274	-0.0200530390307775	-51.3025841004516	-51.1027018191198	18.3428733311039	
861200000	-60.7111097296368	-34.9432448297976	-0.00627554913292273	-51.3970627121895	0.00130934947966121	-51.4556784670434	-48.4775994867678	2.05629022770043	
862900000	-49.0561772976695	-7.89886249986485	-0.00278502033770038	-51.5668844043592	-0.0137063166347695	-51.5284646243007	-52.3528921715108	31.2542447418869	
864600000	-54.4662027791842	-16.0687202661535	-0.00238481801245278	-51.7256802062228	-0.0161827773461746	-51.6369788756841	-57.4246752277202	-2.2570413897329	
866300000	-56.2294128742725	-5.50468833342436	0.00720257220770152	-51.870680007723	0.00266198693838735	-51.7409889565507	-50.5303423186904	0.779066850576888	
868000000	-54.7205392786131	-9.04470964570278	0.00694701412284149	-51.9271847351779	-0.00112549084066148	-51.9823285327739	-55.8144254766135	22.3121168366481	
869700000	-55.8387691419405	12.4687789551612	0.00488746509712219	-51.9744920238047	-0.0162216112781176	-51.9329395629402	-49.6356647963833	27.9335009624582	
871400000	-51.628303852535	-12.4384726409458	0.00905482694036275	-52.1019155302259	-0.00654539399004484	-52.0367059133319	-56.2294353367139	5.01477627744247	
873100000	-64.2388673209591	62.4599522195114	0.0101326464978718	-52.26963460728	-0.0164666390288043	-52.1348722708896	-46.642905603226	1.3586710505267	
874800000	-50.6396614361978	-5.41371959047211	0.0194409667647033	-52.240845398163	-0.0161042072302538	-52.2609102728471	-48.7871368554859	6.35544345867969	
876500000	-56.6215060767566	-5.00859434661769	0.0182336178877265	-52.3093985041662	-0.00865217276599755	-52.4453865948119	-53.2626753638367	16.3163220507818	
878200000	-53.8570273508545	14.1010625026658	0.000910280129428768	-52.4322955984764	0.00577607202652923	-52.4151524439349	-54.9711683670693	57.8762242026515	
879900000	-60.5579259795974	-2.50275529014682	-0.00406938120033015	-52.6068499508179	-0.0154065904613232	-52.6199918760172	-50.6632892108244	20.3120460775548	
881600000	-51.1009304991131	-43.3769421285137	0.00687292865597235	-52.7844717788486	-0.0100679880188223	-52.6721139221195	-50.8996493839376	-27.7137816528144	
883300000	-52.5808651980791	7.83277119151436	0.00866597632793489	-52.7600215808281	-0.00875358865438709	-52.8113447164765	-63.990337046543	53.9752101012188	
885000000	-49.4204325546449	-10.557860350355	0.0128381628664801	-52.9540564055309	-0.0188091090105615	-52.8667459463638	-48.2816092505418	-9.87073045450661	
886700000	-50.6381271823895	-23.958120334891	-0.00191523180055463	-52.993131749485	-0.00592532072075642	-53.0555303260613	-49.9925906631965	-1.54001619360336	
888400000	-50.5318019850528	5.36949692580036	0.00811245123979036	-53.144787483376	-0.0221392342197873	-53.120142358208	-47.4692809215212	7.59490192624608	
890100000	-50.078944076846	-16.3725542816911	-0.000285722355642391	-53.1359760056457	-0.00718109058172202	-53.1477933713944	-49.9386379718778	-6.03756248966729	
891800000	-53.1493451245465	-3.80872955250697	0.00842280890346777	-53.2744304203654	-0.0145445262736195	-53.2979433053693	-51.8624053586549	5.64500860669998	
893500000	-53.6141757727193	-10.8136275997393	-0.000489637068229972	-53.3698499543008	-0.0117200490456213	-53.4131783312885	-52.298451221412	-1.63126494639733	
895200000	-52.3894026570579	-26.8791406449498	0.00703270082863808	-53.4677995321058	-0.0120298737410938	-53.5474603700493	-50.9452043771977	26.7541109587385	
896900000	-50.0940754029083	0.534984080283721	0.0037566586265926	-53.6248043139619	0.00253990234833373	-53.5834655813904	-46.7644853601716	-17.8776847613368	
898600000	-48.9461857404954	-14.5317937278525	0.0167921613824651	-53.6650210845526	-0.00331911034170705	-53.6777941379422	-48.9689955706773	-3.61907457090956	
900300000	-52.5170779461736	1.3803183680566	-0.0115390036551715	-53.7396182449857	-0.0067565010906206	-53.8099789026419	-50.6801170858768	16.6737606711622	
902000000	-51.039001859637	1.93576389309201	-0.00229510715835253	-53.9334381164365	0.00784510542495377	-53.9255959247976	-51.1928646898517	-4.22630510068389	
903700000	-49.199857075369	-3.34109676473834	0.00566918416022592	-53.9648336990013	-0.00828544107609881	-53.9902829323909	-46.4238840918656	6.09970868050485	
905400000	-47.7954783428074	-14.2860333398422	-0.0098789386491663	-54.0500873176087	0.00309690707426993	-54.1646481293871	-51.5445559883424	-17.121908528158	
907100000	-51.0220497108112	-15.5323525299137	0.0105111548933861	-54.2721590680065	-0.00816284206906401	-54.2145529790827	-47.7107759341953	12.6652464864432	
908800000	-48.8882305281117	6.14530490881684	0.0163907020093132	-54.3742702170758	-0.00296691683438289	-54.3850756436028	-49.0365225874879	-4.73190827879967	
910500000	-46.6609492798697	0.33305265756781	0.0143872536565104	-54.5013898015094	-0.0145821122991258	-54.433372735559	-50.0394016303764	7.20844888434646	
912200000	-50.9299834869454	-14.6881883916367	-0.00348707021645937	-54.4288207586802	-0.01685983091032	-54.4690938115171	-53.6839198224968	-1.7311229662252	
913900000	-47.2303601018985	-16.7371286071099	0.0128468357979228	-54.5838283029928	-0.0178956710999319	-54.6812860116168	-49.1630314497865	1.13432378048627	
915600000	-47.84021246032	-23.545965228007	0.00935260622267304	-54.7880460758114	-0.00776998059130704	-54.6866303377373	-51.1030697277819	-15.2784985902806	
917300000	-48.1832230152399	-6.17618330296465	0.00320988572510989	-54.8283965574653	-0.00483534919329723	-54.8029782000958	-53.4740526260367	-5.27069524635632	
919000000	-50.7993486072318	-40.4235821329471	0.0198314621788052	-54.8795400221348	-0.014479302123452	-54.9182950493194	-53.0849813537652	-50.7623575091505	
920700000	-47.7295113593829	-3.82927004005657	-0.00765296756896215	-55.0550282150258	-0.00702186303135849	-55.0334504860751	-48.0703609895978	-9.81253083733677	
922400000	-48.8692439420096	-3.44630013839752	0.00834632038918221	-55.0715668928232	-0.00601219022059059	-55.1806096645613	-50.0975107859875	8.22562671495941	
924100000	-47.9368641385218	3.17430619622627	0.00611749090115496	-55.202429434196	-0.0197251444357245	-55.2540813248085	-49.4505696107641	31.6994310010573	
925800000	-47.3494763259961	8.32762290743289	0.000485589072054085	-55.3213739259508	-0.0156022271319062	-55.211770137817	-46.9533955907027	-7.12493394061947	
927500000	-52.7841125727387	-20.430990209123	0.0262553307155226	-55.3870621170882	-0.00592932911037165	-55.414214042997	-49.4243988083644	8.15141881211066	
929200000	-48.5022714987855	-6.15541954767032	0.00258059263281274	-55.4073518840389	-0.0101238118408457	-55.366788675001	-49.131197387576	-27.5380629542255	
930900000	-47.8371925498332	7.83301537253012	0.00226909979750234	-55.6182586426523	0.00566275072676177	-55.6114742870374	-46.3974944782708	-9.29862879896449	
932600000	-49.8579875404453	-2.72738969995467	0.012534508324621	-55.6728741019832	-0.0152444751191317	-55.6357978952287	-48.6951975592013	-1.88281602791835	
934300000	-49.2452221569007	-2.59283101661641	0.00452614590563042	-55.7867918729103	-0.0218578265008621	-55.760577780888	-49.6720101268584	-21.3462050199693	
936000000	-48.1225123029246	15.7320940559274	0.0111117625775548	-55.9905279962543	0.0014087656899434	-55.8993058513138	-48.1185751612525	-21.0890353955299	
937700000	-51.5965436724179	8.48400683533019	-0.00365638485433947	-56.0542851503822	-0.0104581901530275	-55.9818466915859	-50.8513530776855	-5.63147598741949	
939400000	-46.8427363631712	21.6735675680235	0.00468213629142446	-56.2451582685799	-0.0120630424305961	-56.169571500216	-49.0770581199256	-43.5221454890155	
941100000	-52.3182334528188	35.3049908733998	-0.00923352736492328	-56.1769713322128	-0.00466104651269054	-56.2460001227129	-47.1656914500479	-49.5821420419582	
942800000	-48.2754689637511	11.8384761416941	-0.00602950083427027	-56.3575121204336	0.001252023980645	-56.3537468311457	-46.8835518038315	-27.1510736005773	
944500000	-48.9204108248466	-0.0788310642254713	0.0111669873641236	-56.4413002999109	-0.00881690617536695	-56.4915791049762	-50.0028014360281	-32.9469411274622	
946200000	-48.3911066744626	-16.6415873334495	0.0102538385024557	-56.5041618142668	-0.0170680537348925	-56.5307874991533	-51.8347576840192	-35.1122813513194	
947900000	-48.4335030187715	23.1264578842513	0.00509383842319315	-56.6115809593578	-0.0221104662955411	-56.6296631397358	-50.5440366888811	-48.8491351581534	
949600000	-47.5654281885871	22.052881593865	0.0133226784686449	-56.730347016325	-0.00196604187481139	-56.7430904074354	-51.9061897934354	-6.53719207812766	
951300000	-53.1887344196053	-3.98253277402033	0.0146298008034042	-56.7812737555084	-0.00801026063828933	-56.7727883391969	-50.3515721548679	-44.4228220126419	
953000000	-47.8417131314839	16.593378366721	0.00169813238479121	-57.021727724854	-0.0114619469424787	-56.9908366465208	-50.4849957442295	-31.0589378872747	
954700000	-48.7782826985592	28.9050458927056	-0.012106668067788	-56.9933814434783	-0.00802887497598476	-57.1122267401037	-54.6079944042186	-18.4397659232083	
956400000	-50.468546128885	1.11364714944585	-0.01056628296948	-57.1761571277431	-0.0112959420365331	-57.1527621223555	-49.7940980837981	-44.5891299773602	
958100000	-51.3680182417854	27.6262388587766	-0.00761902719135827	-57.2260190876097	-0.0139478903203437	-57.3273114876866	-52.2499362026018	-71.6547766828498	
959800000	-49.3102614029984	26.6403938899281	0.00251553949563904	-57.343142606266	0.00125681310821881	-57.2888769574439	-56.3130468906665	113.705024831981	
961500000	-49.1542982142989	-18.9354650272874	-0.00154633661319174	-57.4631608980404	0.00158450671651495	-57.518104008048	-50.0762350456133	-13.5414767035843	
963200000	-50.8914394201979	5.16050044545333	-0.000388224705661418	-57.6183328427275	-0.0120903015009065	-57.4727676669888	-51.9792615975695	-47.836382064296	
964900000	-46.4771410777824	-3.34168972935	-0.00863245117366133	-57.6344695980594	-0.00948661897826343	-57.6619615417844	-48.7251878964177	-0.135550617707422	
966600000	-49.6331739378869	-0.102649548829971	0.0146376224513916	-57.8276582936645	-0.0200289826238868	-57.7860121213577	-50.7044611730121	-23.2702545660814	
968300000	-49.1390963740277	6.29836314516899	0.0164109587802082	-57.7750810365609	-0.0103255639098179	-57.9269582443008	-50.7397495550469	-38.879521386821	
970000000	-51.5121272267604	1.88776707108818	0.00835839779699513	-57.9850322161242	-0.0050992449942274	-57.9359656575141	-49.0013577243436	-10.4368459067628	
971700000	-48.835958579638	17.7951197516379	0.0231468408079163	-58.0420813408264	-0.00909867825419457	-58.0900617308026	-48.9717903077663	-67.6192016052373	
973400000	-48.4980116695752	36.3487616091337	0.00505459567661386	-58.1708029982447	-0.00644520377893056	-58.1092818205622	-61.0332901060993	-12.5937673466011	
975100000	-51.6037945429359	21.1969472841324	0.0156699099593687	-58.3330721338728	0.00125117626080867	-58.3551842898002	-49.4948251135005	-38.1374601410453	
976800000	-47.4707465841777	-1.9692827359258	-0.00179871902845454	-58.5307336444045	-0.0127012823599864	-58.3997959495365	-53.8023609870237	1.08553508103577	
978500000	-55.8255259388876	44.5792044145993	0.0152064525679317	-58.5717673210377	-0.0158120215191422	-58.4498422464073	-53.0733223438591	-41.7039600434791	
980200000	-54.5658014613755	23.549022652658	0.00630143974875891	-58.5440270830772	-0.00715588836239124	-58.6353359343233	-51.2837226848102	-45.2511323697563	
981900000	-57.0926386853224	20.0362244052598	-0.000534960313214916	-58.6140098506837	-0.0172548261862349	-58.7180372088409	-52.3066111005767	-35.4364153404745	
983600000	-54.2495650227993	9.78780463594958	0.00948772478830993	-58.7957006853874	-0.0143889959095633	-58.7148857247218	-53.9314686358288	-27.1459034291356	
985300000	-54.025399384031	13.4396361708779	0.00494272796835715	-58.9738838941768	-0.0131604659987359	-58.9251320285433	-49.2432944033289	-1.49419797784336	
987000000	-51.9145576603326	13.4763624057033	0.00040455536585424	-58.9977183778559	-0.0201655788935738	-58.972092590528	-54.39796467043	-42.8052123003192	
988700000	-52.5617359352183	35.6264976981829	0.0148270113475307	-59.0315025593163	-0.0061112501561935	-59.0133001061432	-51.6206479769227	-65.1572360766586	
990400000	-49.2671007343922	-11.3140653329857	0.00627065335609257	-59.1158783809103	-0.00949251136688467	-59.1447009359292	-59.4563220293722	-6.52149258310041	
992100000	-52.5473036130152	8.70515446599815	0.0119774737403885	-59.3014753729449	0.00117698060224139	-59.3297259621497	-54.9000114594493	-3.30777240704368	
993800000	-58.53325776627	34.1913187033641	0.00210257026749442	-59.4089535424667	-0.0025651647151808	-59.3489087745758	-50.9276318891795	-62.0510628617366	
995500000	-56.5549237078017	-2.20172125611624	0.0121461612303122	-59.4817862100941	-0.0126719344801467	-59.4446380088961	-64.6006219589725	-61.6339203806586	
997200000	-60.2608821366413	20.8751214061051	0.0170406610257477	-59.650813226321	-0.0143138571129215	-59.5612512405816	-53.2136144827974	40.0633617238556	
998900000	-54.2620421298102	56.6208254954407	0.00340504665339399	-59.689320184407	-0.0170522541001983	-59.8012952378748	-49.3845258102479	-31.788393599221	
1000600000	-56.2806191736146	-39.9173564230859	0.00359937637658967	-59.8595155782936	-0.0179443496605471	-59.8649683217264	-56.4795966513863	-54.2189267556789	
1002300000	-59.5473206191818	-28.6713145547654	0.0261703377795674	-59.9635758535359	-0.000852576284244188	-59.7772138870315	-62.1961347578861	36.5229379883428	
1004000000	-51.2532353756905	-24.7477598853683	-0.000117950281596051	-60.0259705950834	-0.00840660527100626	-59.9706020732551	-50.6736432187359	-13.6993683340577	
1005700000	-53.8365451624948	23.2434844458545	0.0104466061915635	-60.1482722707147	-0.0146421556446137	-60.139672071079	-50.4153356066975	-15.040056311197	
1007400000	-58.0245755164784	-29.3513257337388	0.0115533477356599	-60.2592714517035	-0.00891531216633697	-60.118804432496	-55.2411070725118	7.86701303734423	
1009100000	-49.1364790490803	-29.4967635495281	0.00323468805097338	-60.2336248294645	-0.00479486838031299	-60.1907467806685	-50.8705861022738	-19.8137652544785	
