!Keysight Technologies N9950B: A.12.38
!Date: Friday, 05 May 2023 13:21:27
!Timezone: (UTC-06:00) Central Time (US & Canada)
!Model: N9950B
!Serial: MY61131330
!GPS Latitude: 
!GPS Longitude: 
!GPS TimeStamp: 0001-01-01 00:00:00Z
!GPS Seconds Since Last Read: 0
!CHECKSUM:1967835871
!Correction: S11(ON U)S21(ON U)S12(ON U)S22(ON U)
!S2P File: Measurements:S11,S21,S12,S22:
# Hz S DB R 50
800000000	-6.77910868113818	-174.925415478669	-1.35300882060316	-81.1535205176407	-1.36259251079232	-81.1091352901609	-6.81473984031568	-172.453381035249	
801700000	-6.77772841989444	-175.211452053196	-1.35172920107508	-81.2443995766644	-1.36027555806173	-81.2410860197536	-6.77660194844798	-172.733102065777	
803400000	-6.7635533101564	-175.43771715753	-1.35538886980416	-81.4174222564349	-1.38702207896046	-81.4003202662873	-6.81831176731573	-172.749958463454	
805100000	-6.77755041923587	-175.380563272138	-1.348383570006	-81.5314711573711	-1.37655778741935	-81.5099270470113	-6.80307407346538	-173.015946645685	
806800000	-6.73933835229738	-175.469075180033	-1.35621438956144	-81.717902752659	-1.37468548584409	-81.7172226561161	-6.77858298473598	-172.989582196708	
808500000	-6.78288342901344	-175.653614710447	-1.35504340928978	-81.8808494504887	-1.37540459888958	-81.7866403590287	-6.77440393628258	-173.205138368521	
810200000	-6.74754180862651	-175.974096117177	-1.33335465840031	-81.9618474290438	-1.37279887081427	-81.9225788461505	-6.79464117608807	-173.276857535748	
811900000	-6.77077641720419	-175.927391989716	-1.36039376736814	-82.0614980839559	-1.37188669865283	-82.0528306451077	-6.78404103951293	-173.673634749626	
813600000	-6.730060972808	-176.203814593011	-1.36896187680225	-82.3383295408266	-1.39135814553281	-82.2817219370272	-6.74828950577021	-173.746403640085	
815300000	-6.74480737383096	-176.216360008462	-1.35396703183736	-82.3742391666451	-1.37818958902517	-82.4266408370099	-6.7649887378388	-173.882238377155	
817000000	-6.73887210333648	-176.368978986174	-1.37391262696636	-82.6563620331044	-1.38789728148378	-82.4890775390014	-6.76524964320346	-174.012144155659	
818700000	-6.73887148097739	-176.519242868021	-1.36017686810674	-82.8297993605008	-1.38225499641967	-82.6404505119087	-6.76894247585703	-174.163208800533	
820400000	-6.72038580776622	-176.649547900773	-1.36432309457361	-82.9337267680721	-1.37845258548141	-82.8837356527821	-6.76290516654445	-174.221774458253	
822100000	-6.69782205557816	-176.759709100225	-1.38184007990795	-83.0287391519562	-1.39796873830064	-83.0721417125468	-6.7515339994574	-174.199124107286	
823800000	-6.73215816938642	-176.939630702925	-1.35487361374789	-83.0914180013107	-1.38646549634899	-83.0831785426768	-6.75338391474738	-174.5321525903	
825500000	-6.68937525282749	-177.18789717098	-1.37417024607451	-83.2500389910877	-1.39202171326948	-83.3737485251439	-6.75247498642282	-174.793320012241	
827200000	-6.71924558015082	-177.245332268102	-1.35341762043026	-83.4690939474988	-1.38239928893343	-83.3341899522823	-6.78746792654635	-174.924563800718	
828900000	-6.72199499891419	-177.260756585515	-1.39375868507296	-83.6198196619454	-1.38533961879801	-83.6087067318336	-6.74664450995731	-175.064146765159	
830600000	-6.68887531678199	-177.399807501152	-1.37587295092075	-83.7282870506016	-1.39358823592145	-83.8012424575842	-6.73648590648854	-174.772534529172	
832300000	-6.69784911315071	-177.72532927751	-1.36118444927041	-83.8762135180845	-1.38512183654888	-83.869366998571	-6.74531981897327	-175.248674253525	
834000000	-6.69310598747392	-177.879030645136	-1.38079763992208	-84.0955177435774	-1.38518408713529	-83.9670749523583	-6.77447137456531	-175.351205050953	
835700000	-6.71004148884153	-177.962043035917	-1.37830039737465	-84.1074005633272	-1.39302317155175	-84.2184598234142	-6.75980426947541	-175.544174139794	
837400000	-6.67316475749564	-178.076419208086	-1.36659589945006	-84.3736910501471	-1.39089900014862	-84.3586512879633	-6.70187658885478	-175.629924210975	
839100000	-6.69425990944807	-178.09590300158	-1.38480548502385	-84.4404612822722	-1.40420058186726	-84.5473229377508	-6.75035466046231	-175.87606576135	
840800000	-6.68107591176157	-178.339637171912	-1.37253802009221	-84.6277750958788	-1.36980537097864	-84.5733209987738	-6.76762703505618	-175.94048139169	
842500000	-6.68497862718987	-178.511528756716	-1.3619066795736	-84.8225919211596	-1.38252635990584	-84.8103576883508	-6.76635650437792	-176.17051053963	
844200000	-6.67100159312304	-178.497210516881	-1.38617318907543	-85.0071058504399	-1.3949026521327	-84.9151896750414	-6.77500017856836	-176.30065773998	
845900000	-6.73314088111342	-178.662733626018	-1.37425841018707	-84.9767658730154	-1.39445029890108	-85.0540821409177	-6.80439280887125	-176.129608696278	
847600000	-6.67888570206702	-178.882229542179	-1.3796799728541	-85.2079532260143	-1.38640717504764	-85.2070353222264	-6.76489323318913	-176.65870263959	
849300000	-6.7010546616402	-178.765500684037	-1.37144469519719	-85.3241931559845	-1.38966968626953	-85.4531463617561	-6.78496842778947	-176.528048519557	
851000000	-6.68632149658197	-179.359257211583	-1.372379137696	-85.5144646808135	-1.39356731921287	-85.5585198657911	-6.75462107667573	-176.898884395128	
852700000	-6.70593772931742	-179.192904616686	-1.36776457951499	-85.6396798599006	-1.39224385515264	-85.7283822886804	-6.76664532730645	-176.904674555743	
854400000	-6.69499145303936	-179.34406405859	-1.35348618454341	-85.7607235671851	-1.38607848726783	-85.8639817395943	-6.75796112124099	-177.013677218342	
856100000	-6.68398674630484	-179.644176561791	-1.36825115921331	-85.9383396024306	-1.39700507411529	-85.9237175715625	-6.78151417363579	-177.301750770633	
857800000	-6.66611526093187	-179.677068990673	-1.36550586880592	-86.0834633005058	-1.382778384298	-86.0744693551777	-6.78258014983004	-177.363400363647	
859500000	-6.67489741616879	-179.751344153478	-1.36679978051128	-86.2398425972495	-1.39783885129595	-86.3200156504802	-6.77629860065876	-177.480752679617	
861200000	-6.6631508784749	-179.862954484637	-1.3779818345863	-86.3909886731377	-1.39768792003373	-86.5247152841046	-6.77207465612615	-177.606985946471	
862900000	-6.69902475924835	-179.916860326919	-1.3596891620814	-86.6134527452716	-1.39066337365194	-86.5434426671322	-6.76891803967356	-177.756232442326	
864600000	-6.66912813318566	179.953045476657	-1.36517449137762	-86.7362442875233	-1.38654101915667	-86.680771945314	-6.72840016042652	-178.090362890842	
866300000	-6.66976001629064	179.606642093707	-1.36667020055575	-87.0005418353216	-1.38486313357572	-86.8250269248761	-6.75439852754654	-178.037948672809	
868000000	-6.68001007738475	179.496217275183	-1.37201554436344	-87.0114500490446	-1.39400239523631	-86.9569011572682	-6.74400817399515	-178.303291541398	
869700000	-6.69571891849314	179.26891381603	-1.36978730815218	-87.1480802725915	-1.39469007385657	-87.1542515782327	-6.78089260862619	-178.479300959962	
871400000	-6.68920400982782	179.279122796626	-1.38454545225281	-87.4044039461284	-1.38048621654538	-87.4018714470547	-6.74839458476136	-178.662292765407	
873100000	-6.67605584651586	178.914386021332	-1.36418986531676	-87.510825045922	-1.39666362216133	-87.4910217073524	-6.77356683118182	-178.507453603112	
874800000	-6.6840540096339	179.090573358857	-1.35530175625636	-87.607159277761	-1.39141419790318	-87.6936127940235	-6.77473804524155	-178.701056268058	
876500000	-6.66140247689313	178.760630786208	-1.35848864594492	-87.7159616738357	-1.39898959228192	-87.8013626135615	-6.74117721658545	-179.053076703537	
878200000	-6.68598238908087	178.523909570501	-1.37808821859273	-87.8729474140955	-1.38584686536142	-87.7224859080012	-6.75866540304016	-179.155776827297	
879900000	-6.68662682573617	178.194695744912	-1.37033641918991	-88.1919350675983	-1.40456722514444	-88.1542645668865	-6.76734545981008	-179.355131611669	
881600000	-6.66683240392496	178.518672640186	-1.3684051267092	-88.2598193499051	-1.39004819539195	-88.2234226687449	-6.71790016033081	-179.207490272208	
883300000	-6.70874130593245	178.120762053129	-1.39259643800712	-88.3086499631391	-1.39146525429219	-88.309005228565	-6.7224659412024	-179.546643573634	
885000000	-6.698685892665	178.115990373309	-1.36203374193733	-88.5496565073708	-1.39871509347235	-88.5538055977889	-6.75513880400911	-179.331376963719	
886700000	-6.6996802629685	178.026578232581	-1.39427349357206	-88.5925660297836	-1.38113562052315	-88.6807425132096	-6.75640062122643	-179.66331417088	
888400000	-6.71628340914527	177.761587268643	-1.38049676945039	-88.6983246318647	-1.39137079023079	-88.8552269337125	-6.77066527977589	-179.870432639315	
890100000	-6.71045799629889	177.628723780869	-1.3751631781808	-89.0872578715899	-1.39714062479694	-88.9204957975436	-6.75889850570255	-179.915436040173	
891800000	-6.69390170524808	177.447839307085	-1.37507593825841	-89.0619929160629	-1.40709994321591	-89.1121804990207	-6.75748757314913	179.759831853701	
893500000	-6.68623583906184	177.164100004151	-1.39363506173839	-89.3009316503761	-1.39799379620039	-89.319513033451	-6.75190353172274	179.638758241635	
895200000	-6.69436992198018	177.158638194267	-1.38918378763585	-89.3634050250734	-1.39817431959525	-89.548969889247	-6.75130393213917	179.375192820928	
896900000	-6.71571113158693	176.94320559365	-1.37519945831694	-89.6526394823219	-1.4030949966582	-89.5493143030909	-6.74725380215428	179.727434451245	
898600000	-6.70342729131091	176.929798688744	-1.36953864059597	-89.7212485145525	-1.39818531626729	-89.6345880973253	-6.7597726354226	179.558567173821	
900300000	-6.73310595055395	176.57931279007	-1.39302779783079	-89.8128749949895	-1.39818346615569	-89.8199405569044	-6.74895775754266	179.091461190079	
902000000	-6.70875301534107	176.513784165727	-1.39219591672269	-89.9832311856241	-1.40221740194468	-89.9627269773129	-6.75114270173792	179.058574715486	
903700000	-6.72757274466211	176.40473704323	-1.38054172976406	-90.127225726873	-1.40109555619175	-90.2246717596498	-6.77196893937772	178.923200867556	
905400000	-6.73929255976736	176.259867246989	-1.40271437801038	-90.3475877963148	-1.39998646038983	-90.4356658545379	-6.74263148782311	178.663680335935	
907100000	-6.71682743888416	176.085503282448	-1.38523501922007	-90.4596047924093	-1.39428131894176	-90.4436319387474	-6.74986954997139	178.533103579008	
908800000	-6.73867175424033	175.893924710012	-1.3833170128328	-90.5618032542116	-1.41861466454668	-90.7176337739614	-6.75575749407478	178.407526366403	
910500000	-6.74724957173051	175.884358723181	-1.37994050995757	-90.7316900061174	-1.39657459608194	-90.7537084124328	-6.75668080620924	178.240214980397	
912200000	-6.71627954378878	175.526048514108	-1.39627951316176	-90.9249676459609	-1.41744254089316	-90.8403964214802	-6.75293317317908	178.1581322014	
913900000	-6.72786707420674	175.480640228614	-1.38569876688902	-91.1595765014656	-1.41465332952377	-91.1465209427881	-6.74592669413846	177.930379772283	
915600000	-6.68153073530063	175.436086935428	-1.38829793317514	-91.2990219278374	-1.40985601288077	-91.2127548574036	-6.73793867511584	177.854332850722	
917300000	-6.72253405286065	175.183816717951	-1.39516991693351	-91.4271923760765	-1.39963458459967	-91.2692949205478	-6.72697924912034	177.69417884636	
919000000	-6.67694469205728	174.992209128074	-1.39444617767616	-91.6177820492785	-1.4193084122332	-91.5699635607057	-6.71345264316067	177.516782526132	
920700000	-6.71137325413554	174.845522182119	-1.37901319583248	-91.6598313136243	-1.40818154604868	-91.6861710828417	-6.76244063090009	177.459504088999	
922400000	-6.73394673218376	174.670015934356	-1.38922363798345	-91.8400767325704	-1.41354092283039	-91.7961359377018	-6.76282045472778	177.148604013796	
924100000	-6.72140887077805	174.539389540398	-1.38063101777674	-91.9573772863497	-1.40419095950023	-91.8962946393591	-6.7610644426655	176.961494999436	
925800000	-6.75843634845608	174.318085916392	-1.38634540407735	-92.1257720560049	-1.41269733204837	-92.0954287108327	-6.76567576915851	177.024968466558	
927500000	-6.69601728821442	174.067573835002	-1.37968381520908	-92.2233785106093	-1.41862019457754	-92.3247770887007	-6.75741622733514	176.757006252708	
929200000	-6.7191147834025	174.142622004302	-1.39321393346912	-92.4543029849372	-1.40234275264326	-92.2998188317332	-6.73610761515211	176.849029869218	
930900000	-6.74372759394764	173.835699464779	-1.40091525736883	-92.575863865843	-1.39698157786413	-92.6037601222919	-6.78007464710119	176.655292780374	
932600000	-6.72733436055483	173.823613151248	-1.3797017202565	-92.6772154086166	-1.42330347625406	-92.5755880779292	-6.75841603056702	176.50410756686	
934300000	-6.73533320179678	173.686615301525	-1.39756317946065	-92.7708898823173	-1.41384648387988	-92.8295531568619	-6.74528043695221	176.36894450639	
936000000	-6.73498813693101	173.458797459362	-1.3793103274652	-92.9263246197377	-1.41520658571299	-93.0312894257844	-6.77264703011621	176.212298474631	
937700000	-6.73346173615772	173.231484805869	-1.39212868933389	-93.1609151533885	-1.41848413071492	-93.1194530112108	-6.76356862718436	175.916058905822	
939400000	-6.74452799344771	173.066988116673	-1.40928069278056	-93.3783628718698	-1.40506511702848	-93.3217271129449	-6.75161076807293	175.8705398906	
941100000	-6.73182702645222	172.79588215713	-1.41063810269181	-93.497476920093	-1.42436707721515	-93.5002007887166	-6.75679642746606	175.876129659382	
942800000	-6.73343063697858	172.861545291869	-1.3927726109328	-93.6915705054827	-1.40991763611086	-93.6653942258292	-6.7851747880678	175.606217552219	
944500000	-6.72943596366814	172.667556479361	-1.38565593864909	-93.7980670314996	-1.42666744730347	-93.8205636510748	-6.77577860467208	175.375263436948	
946200000	-6.71306940570744	172.76151941826	-1.39725122670148	-93.835828199355	-1.42141692095991	-93.914801538352	-6.75983947659307	175.186044106919	
947900000	-6.7426434143214	172.404545402704	-1.39973886456895	-93.9671274925612	-1.43577940057763	-94.0810037693689	-6.78001111063758	175.197646735143	
949600000	-6.75009719046456	172.174442094489	-1.39650322030311	-94.2053003937786	-1.40200834665745	-94.0850660419864	-6.79731785014537	174.882153252396	
951300000	-6.70327681383453	172.274943156328	-1.3897098105443	-94.3322760896906	-1.41054843578222	-94.3045928072883	-6.7653647407866	174.893922105327	
953000000	-6.76435316405335	171.972415176754	-1.38513902381896	-94.6263146071612	-1.40736062707607	-94.4875138975826	-6.77946297824829	174.634420312812	
954700000	-6.75964187432298	171.688184553065	-1.41099178060819	-94.6556676798081	-1.41693510549371	-94.7016726571922	-6.80018394830462	174.397147525817	
956400000	-6.73241249309564	171.686427008048	-1.38917033646963	-94.9257574923187	-1.40486409711886	-94.8384894314489	-6.77884141209985	174.545078158476	
958100000	-6.74368340566196	171.662941566097	-1.39900256793163	-94.8365897126441	-1.41834422952307	-94.9102732456241	-6.77279313184919	174.209001409475	
959800000	-6.73721933800531	171.371320884889	-1.39602862132507	-95.0721942075118	-1.39820233817658	-95.0458213508115	-6.78573465777978	173.737105814398	
961500000	-6.74304603780947	171.424798809729	-1.40053072334595	-95.2673149370517	-1.39122089793457	-95.3093651828248	-6.80533585717857	174.003861920666	
963200000	-6.75188222369415	171.253343504439	-1.39349997002616	-95.3951681304466	-1.40363048871202	-95.3503148619604	-6.78773106362338	173.896327259598	
964900000	-6.77190442793303	171.274907784995	-1.39429878291819	-95.5623024802661	-1.39758318789279	-95.5844283932185	-6.85889163217259	173.66112058431	
966600000	-6.74601014604887	170.912902173157	-1.38004109976309	-95.7623338208568	-1.41001354309762	-95.6866454981731	-6.80848608908288	173.573233257282	
968300000	-6.75615672696336	170.807675809591	-1.37823750617776	-95.8072765055057	-1.41326610213826	-95.9093521002981	-6.81930977542449	173.500517777374	
970000000	-6.76444805818459	170.632272108006	-1.38737888800157	-96.0057832486777	-1.39154761747118	-95.9947613950438	-6.83241278782565	173.307803575206	
971700000	-6.77038228743194	170.634873815731	-1.37645208391485	-96.1218037816701	-1.39936933507014	-96.1348836052532	-6.79389735345226	173.232785875926	
973400000	-6.78781399295791	170.213649748116	-1.38166838072667	-96.2744785524687	-1.40317224968631	-96.2432229603547	-6.80484996172431	172.76762521227	
975100000	-6.74805993945087	170.198553189823	-1.36732574085276	-96.4813548623085	-1.40611891509279	-96.4729509077388	-6.8229256811292	172.835422573606	
976800000	-6.80267877173645	170.241850679262	-1.39190006054405	-96.6514011495706	-1.39594974443023	-96.5776083880781	-6.8393145245788	172.594756789472	
978500000	-6.76851299077853	169.9074867761	-1.38446800533303	-96.8021690987826	-1.39832644077635	-96.74123330393	-6.82913394716773	172.535817289672	
980200000	-6.75279862310649	169.703847780345	-1.37113813541301	-96.9134124417507	-1.39595111021498	-96.8876039179333	-6.82576570436226	172.561327959655	
981900000	-6.77220287331039	169.709406257223	-1.3902985238834	-97.0082501767554	-1.40535995253865	-97.0098062493119	-6.84275158465957	172.374317376456	
983600000	-6.78107895576503	169.540142815578	-1.3788097124581	-97.2846393486459	-1.40754393691166	-97.1044434840042	-6.84891601917018	172.152808294873	
985300000	-6.77731052000602	169.34781571186	-1.3617253444289	-97.3755801780095	-1.39005565900273	-97.3491382295104	-6.87473973307023	171.984263687775	
987000000	-6.80281037348903	169.394209285288	-1.39071015384703	-97.4760353147612	-1.40234300658587	-97.4797446498407	-6.85352834079833	171.888406418888	
988700000	-6.79550948162629	169.114456255198	-1.36729442566255	-97.6701409004213	-1.39987191473839	-97.6508050380294	-6.83126895442815	171.845269280527	
990400000	-6.81440891417638	169.123714100792	-1.3791503975286	-97.8123827796941	-1.39010282770417	-97.7107161570379	-6.86636644342774	171.556861938806	
992100000	-6.79877957257055	168.897043856189	-1.37768094105351	-97.8994459409926	-1.37960252228164	-97.9957631489891	-6.86157610220492	171.322159621914	
993800000	-6.76381816191971	168.639890104016	-1.3540787858538	-98.1854326897759	-1.38604095816795	-98.0923815297427	-6.84264914998021	171.431949003296	
995500000	-6.78648546131964	168.66744134096	-1.37466942129822	-98.2267922581642	-1.37869109637183	-98.2843002043812	-6.8425865156104	170.990913003576	
997200000	-6.78476585306336	168.372431458997	-1.35870616753435	-98.4406146515223	-1.38536959232282	-98.3418846972139	-6.89458900492966	170.845933226533	
998900000	-6.83083238954161	168.214728560524	-1.37759801175554	-98.5160773273157	-1.3871436437236	-98.617317045021	-6.89639072634141	170.987890981407	
1000600000	-6.79998411682258	168.195588524183	-1.35777061200516	-98.8166068241812	-1.38117735596038	-98.7023128006826	-6.86286247004889	170.739706693845	
1002300000	-6.79096930707266	168.071566985497	-1.36430905741176	-98.9066804560125	-1.37697715447146	-98.8502092883775	-6.89156249838463	170.473631782568	
1004000000	-6.84611740654689	168.013928806848	-1.3604230416136	-99.0701267432946	-1.39404385987061	-99.0332817671292	-6.9288082911669	170.607233569158	
1005700000	-6.8347240206925	167.768716001112	-1.35463400139744	-99.1782931541489	-1.3826054888374	-99.1702177604768	-6.91961267720522	170.409177926334	
1007400000	-6.81096286216038	167.675775095537	-1.35060426296359	-99.3859578696006	-1.36872669345346	-99.2317120808261	-6.90182766645426	170.168471123188	
1009100000	-6.85802289377925	167.732988431317	-1.37707681167174	-99.4490002501719	-1.3698911785157	-99.4202381691793	-6.9231703965661	170.20469283713	
1010800000	-6.85721636862934	167.32078192121	-1.36154505060033	-99.6646961649977	-1.36952887354435	-99.6278261369284	-6.93927061712442	169.727872462721	
1012500000	-6.87249205304838	167.223991316148	-1.35018295955673	-99.7610005653262	-1.39300079826479	-99.7879259689011	-6.94445625744034	169.890242703185	
1014200000	-6.86021935310115	167.120367873904	-1.35556929467026	-99.7075452876071	-1.36368350246257	-99.8711710574891	-6.93775145432423	169.614272531124	
1015900000	-6.84997626782442	166.936933630612	-1.33299645162794	-100.123487808819	-1.36233485369849	-100.031651206293	-6.92592130265066	169.572424019562	
