!Keysight Technologies N9950B: A.12.38
!Date: Monday, 17 April 2023 21:08:56
!Timezone: (UTC-06:00) Central Time (US & Canada)
!Model: N9950B
!Serial: MY61131330
!GPS Latitude: 
!GPS Longitude: 
!GPS TimeStamp: 0001-01-01 00:00:00Z
!GPS Seconds Since Last Read: 0
!CHECKSUM:0176781082
!Correction: S11(ON U)S21(ON U)S12(ON U)S22(ON U)
!S2P File: Measurements:S11,S21,S12,S22:
# Hz S DB R 50
2500000000	-8.26106836606587	-47.8640826057756	-1.99642651126711	150.346058855477	-2.0186121018812	150.501897276259	-8.31843239364808	154.694679568192	
2510000000	-8.17850039959085	-48.2838171264984	-1.98836569435727	149.613236978343	-1.99823050856079	149.637624747033	-8.26093218038333	153.892713877698	
2520000000	-8.14384288958707	-48.273447619994	-2.02850033315488	148.878686132273	-2.04606584692234	148.810812037537	-8.24817882895485	153.325285922508	
2530000000	-8.12526301282232	-48.5012661714833	-2.01448682364132	148.155888717829	-2.02425769216286	148.019289264822	-8.24478614112876	151.952946813332	
2540000000	-8.08172923445415	-49.1324068978001	-2.05049866007389	147.428378435926	-2.03960066195797	147.411901829899	-8.14497345019814	151.252314820901	
2550000000	-8.05950391201278	-49.0269431915786	-2.05193534693865	146.717317023699	-2.05076747492218	146.65285255692	-8.10936584156985	150.464547921033	
2560000000	-8.02963800580356	-49.7346725546875	-2.06215078427663	146.116693859944	-2.02723202855837	145.99769719053	-8.11296452135536	149.06546257504	
2570000000	-7.97280629084475	-50.0538724233438	-2.0617683819741	145.354688219304	-2.0819475715157	144.964700501809	-8.08154856415293	148.793056723869	
2580000000	-7.9313734184858	-50.2147336508874	-2.08808002404464	144.611886773342	-2.05854591081434	144.658435221446	-8.04778638867243	147.650068137435	
2590000000	-7.90805547585704	-50.2122438748369	-2.07375177806558	143.836984158589	-2.0752398140209	143.703451016848	-8.01134596744134	146.972553903881	
2600000000	-7.91513673436956	-50.4789256978377	-2.08474376397457	142.955347906738	-2.09981038159398	143.024232524369	-7.96782420550875	145.924011291971	
2610000000	-7.85925113329326	-51.2361245717197	-2.09082980543509	142.217572017532	-2.0710017531861	142.219568164634	-7.96631840663066	144.973797940594	
2620000000	-7.86131153411286	-51.2723538320858	-2.09478305116489	141.54386886667	-2.08677049503718	141.54113535027	-7.91088278550613	143.971711322073	
2630000000	-7.76635943427334	-51.4275970572527	-2.11428917596171	140.82463645756	-2.11420333044247	140.732984542716	-7.90611794712224	143.316701761051	
2640000000	-7.77063497467469	-51.9732061516718	-2.11455228593401	140.248876385133	-2.10841264467254	140.04675779677	-7.85612827214949	141.932741409989	
2650000000	-7.81141903250549	-52.1776263978948	-2.10166877872483	139.457613076237	-2.10554990452917	139.237482086018	-7.90996808807923	141.292755580418	
2660000000	-7.77172035334989	-52.2938043611278	-2.12151970781679	138.650721855685	-2.12472981668099	138.760053527826	-7.89830215212988	140.043142358308	
2670000000	-7.71722930084007	-52.6402608816126	-2.12923988190514	137.915115976352	-2.12613684663247	137.940557661449	-7.85437349465301	139.625735225015	
2680000000	-7.72547582516934	-52.6139478587612	-2.12876452022787	137.100993551445	-2.12737288525552	137.067362493647	-7.89196848015105	138.617138761947	
2690000000	-7.71352464995644	-53.0775909176543	-2.14184588991492	136.394832039324	-2.12398043799846	136.459339513037	-7.8587861993355	137.6128915368	
2700000000	-7.73532945259662	-53.5048347209718	-2.13904785996133	135.798876970663	-2.14103351666201	135.645943590442	-7.86955310230919	136.982281391067	
2710000000	-7.72628495232332	-53.6634790057281	-2.13558667001444	135.1027806412	-2.14466433638322	135.000773244812	-7.806538231636	135.868317990152	
2720000000	-7.69718001889203	-54.1083145589765	-2.14992877786427	134.255033614081	-2.12636821887836	134.214804201757	-7.86644105503214	135.250471049854	
2730000000	-7.75294742383893	-53.8226866880858	-2.1412428280589	133.599739261074	-2.14786109024796	133.456661789882	-7.82705227908117	134.386840401704	
2740000000	-7.78667229077998	-54.5191030654335	-2.1515249304728	132.848840417514	-2.15911544406154	132.754749795607	-7.86577911657463	133.122942774559	
2750000000	-7.71911952547549	-54.7967518458587	-2.13869943400799	132.140497417712	-2.15268301534293	132.095873724842	-7.82333008636155	132.39369164654	
2760000000	-7.71372439444268	-54.9455459007633	-2.15100649907737	131.307402226951	-2.17297053275101	131.301169998361	-7.82849194248492	131.215726486575	
2770000000	-7.75965225959245	-55.4545583471764	-2.16259554777488	130.687884943729	-2.15452054793123	130.64058236087	-7.88396375732801	130.650313141076	
2780000000	-7.77532205943239	-55.5915757051526	-2.15421261175756	130.091955916591	-2.12402513571919	129.916702083356	-7.90957914019972	129.509735317442	
2790000000	-7.7449609711764	-55.5900607057503	-2.14010240699896	129.289220509113	-2.13823859203947	129.101219060762	-7.93254288128876	128.782952025948	
2800000000	-7.7077253910416	-55.7329682778889	-2.15850619332628	128.528495594551	-2.15890847635733	128.4849812531	-7.9178419893265	127.856442067887	
2810000000	-7.79321724293871	-56.4616856177744	-2.12865356431285	127.741465579373	-2.14283397222475	127.580309953052	-7.95641815849007	126.860591694017	
2820000000	-7.7852447447448	-56.7616245745114	-2.16476279926741	126.968540505582	-2.14214398247855	126.898294326063	-7.98492566299672	125.982015783876	
2830000000	-7.78866524827527	-56.9171124969862	-2.13404584074478	126.270598861588	-2.1648823614107	126.241440150124	-7.98375211048755	124.97915402704	
2840000000	-7.81522277270106	-57.091727950672	-2.15221739088445	125.524128105536	-2.14062868261334	125.489740801164	-8.04047382750556	123.926952261823	
2850000000	-7.87415329286273	-57.306051714592	-2.13629763183585	124.860662192407	-2.14366643746258	124.878582032857	-8.06993028292599	123.044637970259	
2860000000	-7.90043871095921	-57.5840299536953	-2.13375055957807	124.015585744418	-2.11673713048539	124.076957206556	-8.0674643902181	122.069985613839	
2870000000	-7.90876016876257	-57.7950382670241	-2.13501129139866	123.405075452805	-2.16206846635435	123.257572471521	-8.10263012265589	121.470911635121	
2880000000	-7.95367350850953	-58.200593143246	-2.12327624628929	122.380659081688	-2.11544542452094	122.49614444303	-8.15595362456286	120.296402775252	
2890000000	-8.01223421468389	-58.3328345074646	-2.11157953366872	121.785509022961	-2.13620822248882	121.742037147023	-8.15740540062477	119.726214254236	
2900000000	-7.9766081449319	-58.510860609999	-2.13282213600106	121.121234929308	-2.11463023336648	121.122260558012	-8.19229885801007	118.503158391127	
2910000000	-8.00835576528828	-58.7726165678283	-2.12504158759045	120.351456720648	-2.11836747475537	120.287278653798	-8.24716928392483	117.699674916547	
2920000000	-8.08392149857483	-59.1870029297568	-2.12991588967302	119.788975766541	-2.11203469935692	119.72383837635	-8.27149362807195	116.428376371999	
2930000000	-8.12729876811068	-59.5041951001488	-2.10965252252631	118.900756637071	-2.09738427362047	118.702913286241	-8.32751041077824	116.121842606948	
2940000000	-8.16834290471684	-59.1105693902715	-2.10456674525311	117.996529865362	-2.09660702549473	117.88601720573	-8.42305564065663	114.808525113202	
2950000000	-8.14947413031251	-59.9966207516003	-2.0971491485433	117.292878450988	-2.10856186966562	117.075804563807	-8.39176586347352	114.297972573527	
2960000000	-8.27882809225659	-59.925583293669	-2.09862439417206	116.558161847874	-2.09398857268726	116.552433420028	-8.5033179755112	113.311970380778	
2970000000	-8.32548627183847	-60.0583352767	-2.09115064830048	115.721924845057	-2.08639798252712	115.811728797599	-8.5462146437949	112.123361420462	
2980000000	-8.37953935556404	-60.4933872761042	-2.09099384423888	115.086193959842	-2.05488957845683	115.075707255338	-8.66144656703299	111.408447347366	
2990000000	-8.42016303502544	-60.9325598151901	-2.09019428312941	114.250755317596	-2.0917148165445	114.151015141345	-8.65862604927266	110.691175976539	
3000000000	-8.48340446018708	-61.1897175726123	-2.08757534020978	113.466423485728	-2.05524141047921	113.495795803277	-8.7814139795005	109.503222664078	
3010000000	-8.52627881081526	-61.1390777370301	-2.06220912479715	112.796460360397	-2.05933846632154	112.804428926069	-8.82025370551322	108.248040945431	
3020000000	-8.5878967037038	-61.2693368760971	-2.03065096042466	112.047080565799	-2.03696461454023	111.99154730194	-8.90346137206811	107.862470747956	
3030000000	-8.63478064320991	-61.6352067210611	-2.03499988583185	111.178169418171	-2.03897657715464	110.996898026785	-8.892352098302	107.286774817263	
3040000000	-8.70007526393512	-61.8320004630203	-2.03989679332058	110.338824551322	-2.04537147890845	110.375031245617	-8.98229042764537	106.144988818592	
3050000000	-8.75470299784359	-62.0173696747276	-2.01882751246256	109.686521996511	-2.01678788681324	109.615398351796	-9.08912894322125	104.929407727835	
3060000000	-8.85951837162146	-62.181323119156	-2.02906894440159	108.919637578794	-2.02525256734915	108.874277179924	-9.15704594324369	103.970808200642	
3070000000	-8.98168804861137	-62.3353561248522	-2.01700254430265	108.308598365373	-2.01148019040943	108.053756749082	-9.26091288196772	103.384013680589	
3080000000	-9.0284432033313	-62.3816542093273	-2.01217688252251	107.346639119984	-2.00988218368056	107.351796241995	-9.32590784314371	102.15311268594	
3090000000	-9.10049910505579	-62.8165249097494	-1.9960888965396	106.608188511031	-1.98965366789795	106.571182626342	-9.46427541360118	101.472781518879	
3100000000	-9.14816179717536	-63.1528067785431	-1.98334322422861	105.607810949759	-1.97739376234391	105.650349256286	-9.54183916518057	100.345876481766	
3110000000	-9.28995807163724	-63.5046713059239	-1.96816507042056	104.944031860482	-1.98923697839239	104.839948273489	-9.57153229109293	99.5737454672833	
3120000000	-9.34610055219336	-63.386480754227	-1.96749129246402	104.231064397295	-1.96389823668471	104.091195514669	-9.71945899873488	98.8910398611679	
3130000000	-9.39983574314857	-63.8600899716106	-1.94790173134408	103.44575423237	-1.96589683294224	103.35544615687	-9.80608063538037	98.2010506168687	
3140000000	-9.54800777950567	-63.8655005855371	-1.9442103437464	102.625047411545	-1.95375246006588	102.57470680737	-9.88934322335178	97.2811634378167	
3150000000	-9.59386887429044	-64.0282336943913	-1.95935316156208	101.693359251121	-1.92060085761605	101.694631313425	-10.0263478973868	96.0074287008	
3160000000	-9.7446782994875	-64.3268581972837	-1.95033640345673	100.980510416811	-1.90592871637264	100.929434103133	-10.1553201186273	95.0793493369881	
3170000000	-9.85151614460884	-64.4101675979471	-1.93131575644833	100.221614140543	-1.93812968191033	100.132895682893	-10.2121544010234	94.5183431249629	
3180000000	-9.93769423640005	-64.4041243664461	-1.90448025127612	99.2386075869431	-1.89749866017879	99.1798556189558	-10.4197432568068	93.8723992184858	
3190000000	-10.0455530324615	-64.3487752736249	-1.9024303478771	98.4912552114067	-1.88741606028372	98.4866518453602	-10.5004779767979	92.2776725458725	
3200000000	-10.1104099442501	-64.7635918995756	-1.89549678668235	97.7697103995067	-1.90315052312617	97.8064400038249	-10.6778061843261	91.3602900383743	
3210000000	-10.3246436937769	-64.8328023909847	-1.87568742467995	96.9473143564988	-1.87192549716086	96.8668989068475	-10.8108022899609	90.9681308349086	
3220000000	-10.4727679939879	-64.7479881631152	-1.87706333770642	96.1278863065685	-1.87913134469913	96.0635823536392	-10.9556561984801	89.9274368064991	
3230000000	-10.4921428606008	-64.8971882157302	-1.87764346878007	95.3410130233036	-1.87987843689232	95.3023883764243	-11.0827410245781	88.7703655765453	
3240000000	-10.7203917697017	-65.1615737677829	-1.88405096449714	94.5612657950562	-1.88329193681465	94.5167024300092	-11.2083275196174	88.0979370140434	
3250000000	-10.8290720923971	-65.4542697421803	-1.83783121132599	93.6469317444341	-1.84711532157908	93.5873118761542	-11.3855696824249	87.368337037195	
3260000000	-10.9951587573411	-65.8892465762438	-1.84522452306764	92.8160282718481	-1.83563311378611	92.7899356791059	-11.5415282072043	86.8762390362651	
3270000000	-11.1172502568076	-65.4910039860929	-1.84024756609978	91.922286575455	-1.82938305920844	91.9830560829612	-11.6937583168322	85.6711896587419	
3280000000	-11.2293212120212	-65.3919272304432	-1.83292276272237	91.2148011352495	-1.84738768998383	91.0580644603806	-11.8308331107516	85.1745498603826	
3290000000	-11.442918595198	-64.7242765027838	-1.82777362738147	90.270458688071	-1.83395924005789	90.2765395619609	-12.0170993097399	83.9962086725464	
3300000000	-11.5407421272279	-65.1346488647448	-1.79585987768495	89.5892481073057	-1.80386400341638	89.5938210324535	-12.2812321452437	83.5377241022386	
3310000000	-11.68584476424	-65.6420035666051	-1.82302209750547	88.6478341288943	-1.81887980726813	88.6852809220451	-12.3499901581885	82.5932352001219	
3320000000	-11.9430036184439	-64.9353783308201	-1.78823923301616	87.7072747571995	-1.80318568394945	87.6584572803064	-12.6365586362464	82.0272786821747	
3330000000	-12.115311850483	-65.3341045092518	-1.78944559583072	86.9151255001466	-1.78896208468924	86.8703559903042	-12.8975221874488	81.4342591413097	
3340000000	-12.2182991123101	-65.1962210312866	-1.78226868024719	86.0774818540871	-1.75788198806311	86.0774914799976	-13.1639814252858	80.4353076718739	
3350000000	-12.4468764912062	-65.0280640579701	-1.80981470754801	85.2490293987725	-1.79556705002538	85.2613629046202	-13.2915335180425	79.7689073286184	
3360000000	-12.7125373462669	-64.8538399711946	-1.77303315898698	84.4165046006621	-1.77435903171239	84.423813973683	-13.5479353081451	79.3861401914493	
3370000000	-12.8819245081997	-64.9628395788761	-1.76100320299521	83.4739144656544	-1.7504816579928	83.4818065337709	-13.8488238642776	78.3666120011613	
3380000000	-13.0771097183381	-64.329946282519	-1.78495869683084	82.7892031408189	-1.75308293417879	82.593095159852	-14.0043146061603	78.546904804566	
3390000000	-13.3132529387576	-64.2554027609781	-1.74823883954554	81.8937283893625	-1.72396244891236	81.70967885739	-14.3541295303882	77.3721213964979	
3400000000	-13.4188151010483	-63.5848958210809	-1.75848599624479	80.8671131921419	-1.75965218173527	80.9245535610441	-14.5343471963646	76.6953108128467	
3410000000	-13.7057482520899	-63.1335394984182	-1.72485218365914	80.0326008547503	-1.7457885470255	80.1774375077675	-14.7912461817706	76.3183705986554	
3420000000	-13.8554512394659	-63.6830757486258	-1.73146833545984	79.2405685736746	-1.73982332443919	79.3092986079726	-15.1072894631462	75.7333664872744	
3430000000	-14.2110445801294	-62.0651982820539	-1.72423546914673	78.4452182393376	-1.73502942706363	78.3574353040147	-15.4187189854511	75.0701946482995	
3440000000	-14.3637731366946	-61.3280537192772	-1.70459922897467	77.4159213058501	-1.74026658263194	77.4153946669087	-15.7701687157374	75.3742219249829	
3450000000	-14.7077120167856	-61.0428002200274	-1.74029911139651	76.6534616898396	-1.73246091296735	76.6037649239468	-16.1413465064433	75.6183266859913	
3460000000	-14.9827954402063	-59.9828702008384	-1.72527848963263	75.8354343865814	-1.72052721354403	75.7402124095443	-16.4598594756856	74.8905904363337	
3470000000	-15.2549879234719	-59.1343180162797	-1.72800127476518	74.8869456174673	-1.70310524389458	74.7888082706143	-16.773410246857	74.0441499220125	
3480000000	-15.3669853010812	-59.5217263388354	-1.73617768785941	73.979842634323	-1.72356793059029	73.9956910689764	-17.1828537535076	75.2853484296378	
3490000000	-15.739674034887	-57.6480017835239	-1.70394135119862	73.068302312662	-1.70937692127251	73.0373196438212	-17.4754830045825	74.0073790416589	
3500000000	-16.0058114283012	-57.0091793337246	-1.69220191993613	72.1591582029725	-1.70279387935538	72.1998408284699	-17.9625176194739	73.9663903698514	
3510000000	-16.2684459326622	-56.0474484320015	-1.70914397105092	71.1995363754817	-1.69005677184074	71.4384660484161	-18.3024269241648	74.289376828246	
3520000000	-16.568181086866	-55.842381504935	-1.7158419130219	70.3420319777513	-1.69469857673669	70.2695776156062	-18.9063805427622	76.1652720449264	
3530000000	-17.0539451679653	-54.2249025514352	-1.73015084359343	69.5760771895784	-1.68940761363045	69.5975655982077	-19.317343366209	75.9914700169344	
3540000000	-17.1253497276714	-52.2465615113058	-1.69605833422948	68.7365929689857	-1.70309254842339	68.8039040486848	-19.8147256552131	77.2314452175994	
3550000000	-17.5118205560653	-49.9626032437229	-1.71219554559223	67.9581662040772	-1.69683094205336	67.9126703884533	-20.4085524521106	79.028832758238	
3560000000	-17.7450484000247	-47.6169166512444	-1.69907255251687	66.9143941168156	-1.7015502304849	66.8319440656749	-20.6340683031656	78.382783095121	
3570000000	-17.8930749318893	-46.496158794213	-1.68385647659584	66.1359941088638	-1.67791405276014	66.0171720123562	-21.710954220788	79.8611990784607	
3580000000	-18.3892076714112	-44.7911681903748	-1.69658813356697	65.1308240243818	-1.69162735444554	65.224354581071	-21.7722828674823	81.2214069119793	
3590000000	-18.4708910879153	-42.8210842806939	-1.69708000112246	64.2647590230457	-1.69360568291922	64.248248362983	-22.5388460087695	86.3605726988526	
3600000000	-18.8257487464134	-40.0256416818986	-1.71326702650748	63.3969330110752	-1.70046923307234	63.3671845291745	-22.9145582701417	87.9308959769549	
3610000000	-19.3285353863588	-37.7321300163109	-1.72010836522916	62.4937783961224	-1.7040418788996	62.5418830613652	-23.7874623092105	88.7519938644602	
3620000000	-19.3267231889443	-34.9655203645912	-1.72093931671603	61.5422149649582	-1.69916345452231	61.5640677795785	-23.8998169426241	96.999180359879	
3630000000	-19.5316851783234	-32.3434504088644	-1.70187322934012	60.6352837316706	-1.72807861466133	60.6767105936334	-24.2378518568685	100.439014721485	
3640000000	-19.8236559324298	-28.299445290936	-1.7154263709786	59.7967479818308	-1.71395948844394	59.8177850170024	-24.889289982376	104.078236885562	
3650000000	-19.7474488441469	-26.1451049180884	-1.70587252186216	59.0069440293516	-1.71348625638535	59.1071364570051	-25.2004877589582	111.829017912684	
3660000000	-20.2605000266678	-21.4419253541427	-1.73679960434635	58.195278530629	-1.72543583312379	58.1852667559754	-25.4771483552267	119.505442046535	
3670000000	-20.0910430276848	-17.6248373167437	-1.72920570934737	57.2693337429717	-1.71423864601654	57.2241384270543	-25.3375881975344	123.849749054814	
3680000000	-20.1820593392383	-13.5248836455395	-1.74479193359328	56.3014563614966	-1.71925987407581	56.3688210030522	-25.7727634656175	127.260469373415	
3690000000	-19.8570051604544	-11.7489177786481	-1.72489857473481	55.4735551490301	-1.73825821337868	55.4730738947652	-25.0361834932531	134.751176254792	
3700000000	-20.1055772365344	-7.23943265028428	-1.739274540042	54.552856081292	-1.73039458468351	54.526471322972	-24.8619581079226	138.950124355207	
3710000000	-20.0066166727298	-5.84980817811202	-1.77316276033596	53.5461985232502	-1.75554129744669	53.6248753351503	-24.0804501115217	145.694291493263	
3720000000	-19.8708676731321	-1.59991861040207	-1.74200725870824	52.7604230004859	-1.76028243147996	52.8375516767936	-23.5291106067601	149.646263044628	
3730000000	-19.5153302012231	1.11827033340375	-1.77213461285039	51.9128117399581	-1.76280647143232	51.8435344085663	-23.2168304102854	152.918363799622	
3740000000	-19.6742220669963	4.96212452663176	-1.77677461423458	51.0506800423282	-1.7633922432696	51.0701552926013	-22.931994141874	156.810583477017	
3750000000	-19.3425656513145	6.01486174872736	-1.73776413937943	50.0917241759296	-1.75720014299608	50.172386276065	-22.1188504273285	157.006063626728	
3760000000	-19.0354365417222	9.3955918125462	-1.78183439413316	49.294679886468	-1.78921088826502	49.2175717889451	-21.3947173532331	161.19259736096	
3770000000	-18.7777264566089	12.2812471045337	-1.77618681815518	48.4477472372477	-1.77808382521426	48.3848511827839	-21.0192816464815	162.130763948756	
