!Keysight Technologies N9950B: A.12.38
!Date: Monday, 17 April 2023 21:04:02
!Timezone: (UTC-06:00) Central Time (US & Canada)
!Model: N9950B
!Serial: MY61131330
!GPS Latitude: 
!GPS Longitude: 
!GPS TimeStamp: 0001-01-01 00:00:00Z
!GPS Seconds Since Last Read: 0
!CHECKSUM:1416520892
!Correction: S11(ON U)S21(ON U)S12(ON U)S22(ON U)
!S2P File: Measurements:S11,S21,S12,S22:
# Hz S DB R 50
2500000000	-8.29725152497684	-38.3895688204947	-0.796074414234646	155.227444680862	-0.810868992691414	155.341058802639	-8.33394005695476	168.856317211735	
2510000000	-8.25695888287286	-39.0027173495874	-0.769391613461278	154.46777149659	-0.76722965585606	154.484916005997	-8.34011097198465	167.996934247377	
2520000000	-8.28864144297858	-39.1561093235846	-0.800000338352118	153.731948678171	-0.812908202664711	153.624384371697	-8.40518173609049	167.493667443743	
2530000000	-8.33239059072325	-39.5243143101051	-0.770612263828322	152.94226605252	-0.775158167455709	152.943634418576	-8.44678080268103	165.897651333632	
2540000000	-8.3124397068436	-40.4333988961749	-0.775373537609105	152.339827955852	-0.786311298955812	152.302687612495	-8.40379445233002	165.201025159968	
2550000000	-8.38243285993647	-40.3427379169568	-0.790479455107143	151.58371441071	-0.784163413623456	151.451858343396	-8.41013239574341	164.231236942738	
2560000000	-8.39916811693131	-41.3497925624539	-0.770837251635095	150.990460835718	-0.745725234525786	150.863621262114	-8.51564967843852	162.625184584239	
2570000000	-8.42525408974549	-41.7021177217942	-0.771023527741821	150.256731532491	-0.780115378136075	149.824326566606	-8.50566763621255	162.662750355347	
2580000000	-8.43914067092716	-41.9796400784185	-0.795554111953679	149.533838662755	-0.763473433992599	149.405394784281	-8.55056275341373	161.130997813403	
2590000000	-8.47130592111215	-42.0918320573637	-0.763903463713343	148.717391711731	-0.756558884393654	148.571333569194	-8.56845274883026	160.492876126046	
2600000000	-8.55232882816128	-42.529644021409	-0.760082608581337	147.775862697451	-0.767692659794871	147.795475446419	-8.57652433699642	159.241542293658	
2610000000	-8.55093114810155	-43.5038762803297	-0.750879809182824	147.093676588645	-0.728635454892286	146.958203722653	-8.67053569545464	158.133864281922	
2620000000	-8.60986047737232	-43.8328147290692	-0.731892908921355	146.287160749967	-0.736120744189684	146.4284396114	-8.66137218294567	157.112011647862	
2630000000	-8.56523857668254	-44.004166183155	-0.758500805928634	145.573546589587	-0.748552039025803	145.570866551003	-8.72150166518298	156.458146153542	
2640000000	-8.64232358267273	-44.7726353578564	-0.734051018588471	145.086449940707	-0.729976047017077	144.915279377469	-8.70990040290142	154.847565971365	
2650000000	-8.77784216294567	-45.2220279151235	-0.709643774071167	144.213382834082	-0.714367519044615	143.912077603594	-8.84784406907368	154.082540768647	
2660000000	-8.79035734642358	-45.4314846157053	-0.720244936126325	143.405227597301	-0.717404536141911	143.433649085856	-8.89655776325803	152.656660443358	
2670000000	-8.80692253464353	-45.7795893598949	-0.717714483558062	142.675416949916	-0.701997045291468	142.633743312476	-8.91347106104844	152.357693084636	
2680000000	-8.89726200785596	-45.9561838317561	-0.703185373724194	141.773252588415	-0.692574405563383	141.775881173517	-9.03963349995917	151.177644503074	
2690000000	-8.92563507823617	-46.6483558939643	-0.693887332614007	141.099197864862	-0.682355117313239	141.083295765209	-9.08338810972155	149.930089011182	
2700000000	-9.02500582854425	-47.334674330264	-0.676317332464254	140.380967202599	-0.680889540767495	140.149704462443	-9.15837421584041	149.469489196059	
2710000000	-9.12002624667072	-47.6184731393028	-0.677685754026042	139.652292543219	-0.669560205355628	139.583164688386	-9.14765577759099	148.118729142059	
2720000000	-9.13497189995346	-48.4673307963972	-0.668284174923543	138.754174000319	-0.643921915896793	138.699413794944	-9.326779176944	147.544570132043	
2730000000	-9.30758045198296	-48.0824096971967	-0.64657438730202	138.031201758689	-0.656027714956211	137.873613076901	-9.32997063706329	146.581199534956	
2740000000	-9.43984610588198	-49.1814424732436	-0.643305585990965	137.305070793065	-0.652520454031996	137.261865458661	-9.46593070634698	145.032632303659	
2750000000	-9.42257533829149	-49.4827126733494	-0.632915231931639	136.532286515598	-0.635145248479438	136.476270149079	-9.48187852464238	144.318970516638	
2760000000	-9.49828229933989	-49.9373274898614	-0.634888262256106	135.605430074605	-0.630945489222364	135.689745823226	-9.55518435649268	142.725921269697	
2770000000	-9.64752417915168	-50.7144778264386	-0.620664431328404	134.99204572576	-0.6125080391569	134.9039210388	-9.72907432327167	142.260155597069	
2780000000	-9.73846041381392	-51.2198114223701	-0.595993454362381	134.25652278322	-0.583171806921255	134.16664654116	-9.86921777612754	140.90732246844	
2790000000	-9.80635582547897	-51.2046185913884	-0.59402677815152	133.375467657571	-0.575778515714121	133.315084600767	-9.96860366720656	140.165798977182	
2800000000	-9.82132148948638	-51.518240583444	-0.584675492670123	132.632295132975	-0.581928440793376	132.629708091756	-9.9781459773713	139.078949843597	
2810000000	-10.0556659660501	-52.6415640704955	-0.558963053976459	131.84283978635	-0.555145033006359	131.66975467739	-10.1591499221562	138.102451182931	
2820000000	-10.0981399927219	-53.409208707004	-0.578291964880832	130.952749384621	-0.557428305144676	130.921498175933	-10.2979861675316	136.976566119468	
2830000000	-10.2070848862707	-53.5186610403164	-0.537990217004856	130.134200262706	-0.549261089572787	130.178863405146	-10.3624651324169	135.784350782308	
2840000000	-10.3295922086148	-53.904758564681	-0.530906604582383	129.430251998693	-0.525928446079927	129.338082454079	-10.5711236433044	134.606063561693	
2850000000	-10.5424281990043	-54.4217113787106	-0.52978297210726	128.625693398823	-0.519973741642054	128.631152104343	-10.7189906254745	133.616588038283	
2860000000	-10.6890819893192	-54.8552447449936	-0.507483762567106	127.790385260183	-0.485399856408263	127.817898912096	-10.82280673088	132.401164030697	
2870000000	-10.760098429529	-55.242253977013	-0.493579875057888	127.062834307947	-0.508167104451235	126.924493330388	-10.9192125629441	132.045596348627	
2880000000	-10.9463052362207	-55.8497182810054	-0.478577560183956	126.020638573545	-0.462377572860507	126.16330704154	-11.1565776152183	130.674157720937	
2890000000	-11.2057898776154	-56.2871199535322	-0.462575890194955	125.358588619384	-0.465969034263181	125.370359573806	-11.228403431859	130.08583339605	
2900000000	-11.1910334047637	-56.5528393975441	-0.455724244627747	124.671013226546	-0.434735516677942	124.566178369566	-11.4015604314461	128.479692862178	
2910000000	-11.3768783171258	-57.1946217525411	-0.453026827096738	123.725231847407	-0.430372342616999	123.718057322168	-11.6000979461361	127.735693722387	
2920000000	-11.6099432331278	-58.2163167670447	-0.443055144949495	123.059273017947	-0.413385184092157	123.047775204611	-11.7111663068361	126.098053011549	
2930000000	-11.8306317335759	-58.7248302834304	-0.426475634733453	122.118253775631	-0.413401290348762	122.006424357417	-11.9709239296023	126.387669402761	
2940000000	-12.0077152345566	-57.9548183981725	-0.405479911557781	121.256703991175	-0.398427789697041	121.101532518664	-12.2379079721198	124.555057540779	
2950000000	-12.0653633638148	-59.7800342909118	-0.407300314303169	120.327721265427	-0.402663729477812	120.148733655736	-12.2681158855668	124.135588714173	
2960000000	-12.4757312802004	-59.7558997381118	-0.405004369458303	119.63526264417	-0.381450836862614	119.513329010411	-12.5653989048839	122.87875962239	
2970000000	-12.6560821436105	-59.9637052137053	-0.384915468341764	118.662010959197	-0.372381079454923	118.686645127346	-12.7973842143549	121.463161530041	
2980000000	-12.8585046535056	-60.9511044933642	-0.367817304700068	117.951812954918	-0.332261033598968	117.992186382034	-13.1426157807194	120.952405245079	
2990000000	-13.0510708242117	-61.7264049889606	-0.354673754524479	117.085229547754	-0.359629803052066	116.990747108863	-13.2293268415406	120.542753614222	
3000000000	-13.2775243404511	-62.3264454031129	-0.361929060119873	116.087671459023	-0.319483030901444	116.194010296918	-13.6706050380937	118.894369394407	
3010000000	-13.5213144467303	-62.1911778461756	-0.332121855577398	115.365845631265	-0.323055542579445	115.378541404148	-13.8792804146605	116.987212677903	
3020000000	-13.8439035542649	-62.995377755533	-0.292404344988353	114.447006582285	-0.30718886212244	114.474385608508	-14.1669588545597	117.255742493317	
3030000000	-14.0795823957365	-63.5274681283757	-0.294442743300449	113.569685033666	-0.297173646080185	113.495827112242	-14.2262213201769	117.416171672404	
3040000000	-14.3812174206631	-63.9920356043109	-0.302508095858443	112.681663079126	-0.300929727534448	112.683339567105	-14.5930895918568	115.835543036369	
3050000000	-14.6536227679361	-64.4735730163136	-0.273644795112422	111.976187424784	-0.278998209074989	111.956274941512	-14.99617387895	114.251405950099	
3060000000	-15.0393240911441	-64.9436441968362	-0.271255265357551	111.016383515657	-0.271987959504512	111.010765829998	-15.2911386755334	113.252592331578	
3070000000	-15.5248282065959	-65.7594445559305	-0.260232907257415	110.282758809752	-0.240446379509465	110.055247687256	-15.7004682973284	113.111136252925	
3080000000	-15.809126238465	-65.4446890415239	-0.260124722501801	109.28324745136	-0.249407417071311	109.250444577771	-16.0340153507666	111.240296461499	
3090000000	-16.1402713889356	-66.5789049495867	-0.236882030813411	108.538645977536	-0.236441158444483	108.441969933606	-16.550703115198	111.229389084558	
3100000000	-16.4415264809003	-67.7927006156893	-0.237323957356444	107.382963105258	-0.219363695332554	107.338096700848	-16.8711587862149	109.823908108824	
3110000000	-16.9972525141274	-68.9196313530142	-0.223783042359494	106.616348627286	-0.236908086080965	106.506585034129	-17.1298669115232	109.362348235172	
3120000000	-17.3811762580636	-68.1914791141646	-0.217400087623592	105.851253900584	-0.206823408109254	105.695882906185	-17.7916269102766	109.635368640357	
3130000000	-17.6671264235372	-69.7386982928491	-0.195892274110456	104.82203549689	-0.213646241122209	104.838454666424	-18.2221689396141	109.503315373362	
3140000000	-18.3298647617541	-69.7187707659738	-0.181186712958341	104.025345422185	-0.199359164493766	103.956093991344	-18.6372260069557	108.787818352046	
3150000000	-18.7531101934337	-69.4420327626135	-0.222568523992225	103.058499068951	-0.177166706457636	103.02332069714	-19.3352707979957	106.902317957036	
3160000000	-19.449058464426	-71.3009053780792	-0.192739278756921	102.136961216932	-0.170136664195449	102.132860312202	-20.0580163809137	106.687064528683	
3170000000	-20.2045260490922	-71.8646069286941	-0.192662046596368	101.246573128681	-0.185561637005438	101.233954361112	-20.3146354539655	106.935983773361	
3180000000	-20.8109838954719	-71.4062584016158	-0.18226936084366	100.291489874987	-0.165050701391091	100.240352407909	-21.4874491167837	108.756069879154	
3190000000	-21.5602756989812	-71.2641734017988	-0.171081083048145	99.4837089821755	-0.159266222963812	99.446930511378	-22.2076593198344	105.701100720848	
3200000000	-22.0900446823997	-72.9475563155254	-0.160967786526781	98.6232672704035	-0.166277581951429	98.5164901576609	-23.248650620331	105.684512819783	
3210000000	-23.5212292003121	-74.1217144458118	-0.167106772077978	97.6736832570205	-0.160330118841608	97.6962138408701	-23.9974745035363	109.326324439067	
3220000000	-24.8009892251767	-73.0037411263613	-0.160698735578345	96.8267132744466	-0.150121556559486	96.7221735999757	-25.126572540444	109.458793475716	
3230000000	-25.1971728792697	-72.2296814021059	-0.151273464008021	95.9392411707976	-0.16315937333775	95.9460437436456	-26.1783523791424	109.724426345966	
3240000000	-27.0312914838721	-76.3480381318174	-0.16102233428831	95.0474993677501	-0.156098661294746	95.0034909240225	-27.4254090890586	112.558034498154	
3250000000	-28.664464055569	-77.1009588052142	-0.146247249553298	94.0560408556723	-0.142819409407839	94.0559152174347	-28.9251924393811	120.841029385895	
3260000000	-30.7253775337793	-81.1282586121264	-0.152646866030943	93.2208406669732	-0.142797745765857	93.1314594499902	-30.2312904090007	128.053567842568	
3270000000	-33.3807067306082	-75.3043139799074	-0.155200014389303	92.2089032924335	-0.14370878916245	92.2562473244775	-32.5956834306694	137.420846069583	
3280000000	-36.2630770570866	-74.0446017497116	-0.151048938007345	91.3852933732305	-0.144549491888655	91.4945569768447	-32.0373543335949	149.523505880564	
3290000000	-43.7934272834804	-33.5501199814364	-0.162023014062335	90.4114298140171	-0.15006963317543	90.4505615632763	-33.9483119728532	170.944542615623	
3300000000	-50.5320844251012	48.5632902195273	-0.143105038576405	89.6176091678491	-0.129116043067428	89.5979880586395	-32.5955682169816	-164.769394524833	
3310000000	-43.7429888670642	97.8648208588086	-0.146490985675502	88.6094747113904	-0.153255289678533	88.7818630766882	-31.7576331469375	-156.332354686218	
3320000000	-34.0536878245702	89.6891312468711	-0.1521953964186	87.7573254873404	-0.150172340582185	87.7000942045643	-29.5847653657697	-144.843766925155	
3330000000	-31.567482280786	98.112083957074	-0.162204110160458	86.7712962125413	-0.146309439523116	86.7694535952924	-27.5698850125554	-136.409432617713	
3340000000	-30.0627876270265	94.0871127504538	-0.159757172668122	85.8892418219723	-0.133021569056069	85.9866040156402	-26.1539010731059	-130.833399686855	
3350000000	-27.862282083291	96.1148660004647	-0.179735682101491	85.0701335069882	-0.186868187506039	84.9466867329399	-25.515485092708	-131.043565190956	
3360000000	-25.9042420156043	96.4562995478313	-0.162087325972177	84.1783942110673	-0.174120281716311	84.1562775898612	-24.2189841111105	-130.565485255139	
3370000000	-24.9651079794419	96.6470363421639	-0.168676800393001	83.1739379344855	-0.166558324459039	83.10877376451	-23.0605158655103	-126.360642510231	
3380000000	-23.9470404183196	95.0080918759542	-0.184902879872439	82.4134480514896	-0.173272636915652	82.285478907727	-22.320127549783	-129.152151046877	
3390000000	-22.7221220377261	94.8821307465609	-0.185378015471016	81.4047872782527	-0.158471100413813	81.3803198783099	-21.4101436748325	-127.205384052955	
3400000000	-22.1921803290327	92.436965580631	-0.188866514092802	80.475163381987	-0.199291383651968	80.4945765861672	-20.8980791050326	-126.739977537014	
3410000000	-21.1736231825147	91.4383596464563	-0.175990174840806	79.6311669018602	-0.181458398586816	79.7084886067125	-20.2810857530002	-127.273988167837	
3420000000	-20.875623879264	93.7791108882018	-0.180044916781964	78.6861828728241	-0.207104327703384	78.8383766622661	-19.5725924246437	-127.350172416933	
3430000000	-19.6783519753594	91.2840890876256	-0.2243181416656	78.0155594048314	-0.203690030659944	77.9051941626351	-19.0013928537125	-127.36841325709	
3440000000	-19.2302971818384	89.384324498506	-0.202402764042781	76.9274769346203	-0.219427170461375	76.9467927111916	-18.3028967961594	-128.918509083412	
3450000000	-18.5237031705072	90.3351373869844	-0.252771669076504	76.1365941417689	-0.237105207073815	76.1210485144399	-17.6696022844899	-129.790374383928	
3460000000	-17.9286109090138	89.706212152911	-0.266273037945459	75.2693673665066	-0.26271087351392	75.237140718383	-17.3426743938377	-130.033000576393	
3470000000	-17.4430535313033	88.7633849539456	-0.256715628446021	74.3275165216299	-0.23365055299712	74.2992773615308	-16.9647150964804	-129.635822062632	
3480000000	-17.3268116071653	89.2532223140009	-0.255266579559162	73.4491112391747	-0.263101910580882	73.531538387293	-16.4624130231999	-132.003249433487	
3490000000	-16.6523434101071	88.0317131401193	-0.27123447495797	72.5695822743745	-0.24509022264756	72.4910115904555	-16.2979224079612	-132.03258736326	
3500000000	-16.2608588891184	87.8409368618055	-0.271226631354251	71.6197864378721	-0.270325466705587	71.6437379114363	-15.7798753787363	-132.37188235278	
3510000000	-15.9683521925077	87.2138586559361	-0.283605502438184	70.665957654021	-0.257316120505329	70.8548750290434	-15.5509428965077	-133.15925654672	
3520000000	-15.6575775563083	87.6126261531512	-0.294983262654115	69.7883392428486	-0.301282807436329	69.7472260817459	-14.8993829252811	-135.242248937453	
3530000000	-15.1280474125486	87.7136018746475	-0.339330289906979	69.0715762936294	-0.299249446888011	69.085284163572	-14.6962249023968	-135.350931369366	
3540000000	-14.9421843251239	85.9427390457925	-0.312468775546726	68.2378770216596	-0.320650704720803	68.1386908184699	-14.3615249584236	-136.326629920573	
3550000000	-14.4647720629897	84.9729949046257	-0.331317529069567	67.4457869740579	-0.333237194236164	67.4388018754983	-13.9905229392556	-137.392397450849	
3560000000	-14.1933948816922	84.1135787074403	-0.332377447368298	66.4101254125794	-0.340778724809351	66.5098573026852	-13.9674650454747	-138.112797376096	
3570000000	-14.0765562832654	83.4671039110606	-0.342956238687447	65.6141640933551	-0.336627650850301	65.4994246363973	-13.4278835075051	-137.925657592541	
3580000000	-13.7094874458409	83.928318238289	-0.357844247744105	64.6629120291073	-0.348239270864502	64.7404237782996	-13.4330950506824	-139.56858578756	
3590000000	-13.6019794445739	82.925325786748	-0.37765397161272	63.9169834862435	-0.376676796933706	63.8650602416074	-12.9877847778528	-141.016624049294	
3600000000	-13.2588052252937	82.6463428824902	-0.405553557295878	63.0607593864139	-0.391643508466926	63.013709536329	-12.8489690229215	-142.065499562457	
3610000000	-12.9379668225831	83.2037496214319	-0.422249873304188	62.1847909719928	-0.400570843212313	62.1728817041078	-12.6909418409702	-141.683926861796	
3620000000	-12.8148853107375	81.7103788259304	-0.426250564876547	61.2258949911146	-0.400133156259739	61.3534870664999	-12.3784181199571	-144.53346899127	
3630000000	-12.6104199823221	81.4065525834826	-0.416377666567911	60.4118750979451	-0.4332652770243	60.449516247131	-12.2468685070758	-145.30537033063	
3640000000	-12.3035146718748	81.1112297390761	-0.435419092501125	59.5622282675907	-0.43219224960634	59.7087551968624	-12.051304572297	-145.742296304806	
3650000000	-12.23089732394	79.9309772948655	-0.443656559971833	58.9287674781358	-0.440358430529049	58.9318258372733	-11.7901211875511	-146.693029622917	
3660000000	-11.9190076708588	80.6106031562451	-0.469257441724295	57.9873869118199	-0.482917391651061	58.0881406145917	-11.5820220820088	-147.537476168259	
3670000000	-11.756271252935	79.4898618154608	-0.483940466241347	57.215646114666	-0.464579725206394	57.2388993505967	-11.4666938096318	-148.777887596704	
3680000000	-11.4961322658589	79.0060479020392	-0.498043772050618	56.3843261101173	-0.474110191837134	56.3927860284136	-11.4034952459708	-148.762996573304	
3690000000	-11.4625295015687	77.5173666884523	-0.496384233324171	55.6383602501493	-0.495357287143356	55.5771322882169	-11.1616704157185	-150.79842780921	
3700000000	-11.246814121623	78.170992019366	-0.528953443627594	54.7333970575717	-0.506477217725576	54.7153475301358	-11.0836320462366	-151.676311010068	
3710000000	-11.2146772614835	77.6496048209486	-0.530772403096875	53.8792828445104	-0.535358356558366	53.9599741889652	-10.8260985637891	-152.789086300548	
3720000000	-11.0187153484312	77.2018599958484	-0.53622292613063	53.0348952224864	-0.549025232951982	53.1478730266279	-10.6587662936389	-154.003123135575	
3730000000	-10.8734462719682	75.9540086593827	-0.566560822438182	52.2471496982608	-0.526720828320872	52.1720063827542	-10.582013344174	-154.788787326744	
3740000000	-10.7379454818383	76.5689911204399	-0.579843896966274	51.4172788901467	-0.545862253131801	51.5086684116158	-10.4601881296795	-155.132075566783	
3750000000	-10.6983973955705	75.4797671083899	-0.539822328897351	50.6646354562276	-0.574446333913116	50.8396150095009	-10.3675761031154	-156.997138998221	
3760000000	-10.4943829041696	74.7694483147373	-0.578057590955178	49.9080124522011	-0.602167625502473	49.8936505514617	-10.1201647568331	-157.831295935231	
