!Keysight Technologies N9950B: A.12.38
!Date: Monday, 17 April 2023 21:06:24
!Timezone: (UTC-06:00) Central Time (US & Canada)
!Model: N9950B
!Serial: MY61131330
!GPS Latitude: 
!GPS Longitude: 
!GPS TimeStamp: 0001-01-01 00:00:00Z
!GPS Seconds Since Last Read: 0
!CHECKSUM:1336929567
!Correction: S11(ON U)S21(ON U)S12(ON U)S22(ON U)
!S2P File: Measurements:S11,S21,S12,S22:
# Hz S DB R 50
2500000000	-8.66762591325616	-57.0443265706064	-2.06720123360513	135.074922863056	-2.07844293318306	135.226700890879	-8.69048591114044	148.700401914869	
2510000000	-8.72990387658838	-57.5507330987584	-2.05167597128391	134.153635778458	-2.03420526194526	134.33418786832	-8.74998941543552	148.006183749165	
2520000000	-8.79679417838206	-57.5360700770603	-2.06157115683555	133.421223608639	-2.06645000279954	133.286094872075	-8.8504141173684	147.385153808157	
2530000000	-8.91787833470073	-57.7743593386246	-2.03976599416477	132.481917623184	-2.02641130617132	132.49026124463	-8.99044419149561	146.189346466608	
2540000000	-8.98032309725582	-58.5567899497749	-2.01576879413386	131.684849139159	-2.03175907903147	131.754401756231	-9.01473609833687	145.456970087523	
2550000000	-9.10728886537571	-58.3411568713117	-2.02639931206854	130.920208107453	-2.02503903647537	130.85719619542	-9.09068187402457	144.522842320025	
2560000000	-9.21767422940809	-58.9967315409793	-2.00018882737045	130.207830095898	-1.97799530222214	130.096721119379	-9.27166211928024	143.478823094189	
2570000000	-9.29802959845141	-59.3276960531016	-1.99501310238498	129.321389263545	-2.01295646027757	128.988986395848	-9.31219381036344	143.118222379739	
2580000000	-9.37894952296429	-59.5679422041723	-1.99657866007263	128.3667466823	-1.97882397379432	128.459664961476	-9.43488228715593	141.98833323934	
2590000000	-9.49002499176338	-59.5080832012184	-1.97543500580877	127.622672300532	-1.96559064543039	127.344545978439	-9.5365112421277	141.238225907117	
2600000000	-9.6535481272741	-59.65666035034	-1.97942325384955	126.542224979774	-1.9693883691541	126.521091901984	-9.62586882306988	140.21951544701	
2610000000	-9.75090186071885	-60.2925814574834	-1.96229615467761	125.685207029402	-1.93150527487603	125.694672329121	-9.77842187444802	139.527177284508	
2620000000	-9.89185286344537	-60.4190706010002	-1.93843500438194	124.856104536694	-1.93031357526453	124.928037360444	-9.87521886466828	138.455354285018	
2630000000	-9.93685970270955	-60.722051105829	-1.94108427647272	123.950974579456	-1.93314782363772	123.87582297822	-10.0098107175512	137.729582136097	
2640000000	-10.0957556790768	-61.2403322622762	-1.91427014104124	123.179628439918	-1.91840192034493	123.137431181281	-10.1535897645065	136.382091057293	
2650000000	-10.3269426152017	-61.0110828858598	-1.89943817182088	122.34222788733	-1.90784555201446	122.117953131897	-10.3339474033319	136.074983534349	
2660000000	-10.4367258562349	-61.1916636195052	-1.91954529574862	121.395022735414	-1.90284972942141	121.401287551431	-10.5177116855959	134.810258827774	
2670000000	-10.5409787809591	-61.4787660467687	-1.90222559090934	120.471269516793	-1.89992129626863	120.420925171074	-10.6031558758215	134.452599888229	
2680000000	-10.7191674315604	-61.285197247696	-1.88929811057509	119.419121786503	-1.88131237201851	119.44968091591	-10.8245184082692	133.643959093842	
2690000000	-10.8835995692734	-61.7847104865852	-1.87828692520267	118.633366830574	-1.86198942702322	118.688621888876	-10.9571280969854	132.918519925842	
2700000000	-11.0934263769469	-62.148322134022	-1.86259295370777	117.747616487155	-1.86587042090853	117.629720631776	-11.1268140678562	132.467708344258	
2710000000	-11.2721337368913	-62.0522473438694	-1.84728119520679	116.893448368153	-1.8574111951247	116.878542517811	-11.2816558091136	131.252052946075	
2720000000	-11.4620607683776	-62.7027887260133	-1.86342110459726	115.812983318566	-1.83245254343273	115.767074327281	-11.5135803240373	131.150996227428	
2730000000	-11.6445560676868	-61.7197237358819	-1.82330137726991	115.016695934485	-1.83161193296596	114.905423787957	-11.6419641526964	130.387218306126	
2740000000	-11.9502759255712	-62.1766249767731	-1.82218048400134	114.143015426561	-1.84657849705672	114.087188214132	-11.9200303752347	129.59237151276	
2750000000	-12.0479771708969	-62.4947246296049	-1.79820759712765	113.27325662508	-1.81400906711863	113.226867089733	-12.0524642109983	128.793840582257	
2760000000	-12.274497936957	-62.3876409258162	-1.80926502969065	112.141350645055	-1.81718148882829	112.153722053548	-12.2935220560361	127.656625000129	
2770000000	-12.5656095934859	-62.4417874967501	-1.80572671900701	111.406274968112	-1.7963179846049	111.302191713478	-12.5613491162748	127.694383508831	
2780000000	-12.8264351577359	-62.6021213722454	-1.80034173850095	110.510024250369	-1.78567173126278	110.411345701959	-12.8754883829523	127.228516838434	
2790000000	-12.9922795986374	-62.0328978578892	-1.77455527978847	109.556971289012	-1.77169611560388	109.392898704916	-13.0949941633481	126.812437727754	
2800000000	-13.1779447775083	-62.4189958473273	-1.77483383676543	108.55541456046	-1.78489602694488	108.515159189986	-13.271540716192	125.896849612808	
2810000000	-13.575064650892	-62.3541092023001	-1.74069847133245	107.580982706395	-1.75296067921013	107.486400068976	-13.6058275121035	125.687102890887	
2820000000	-13.8444480135519	-62.4406222061652	-1.7722998181615	106.581349332218	-1.76293833100652	106.459337207457	-13.9112508153914	125.352270540074	
2830000000	-14.0864268491997	-62.1147635606859	-1.74036774949426	105.66943315753	-1.74594947782076	105.652890042852	-14.157220601882	124.577741297915	
2840000000	-14.4034767283693	-61.8159239373177	-1.74045442131036	104.758631943419	-1.75354865055833	104.684182046983	-14.5357432995086	124.76464222906	
2850000000	-14.7755959536178	-60.8383086459454	-1.74102371245961	103.804743911412	-1.74507037532508	103.868421870631	-14.9080465393111	124.627551095659	
2860000000	-15.1191957505052	-60.4529276840602	-1.73801190336773	102.809670688385	-1.7254592848483	102.855656358019	-15.1867683758451	124.310529259168	
2870000000	-15.4030561320012	-59.992749347798	-1.72694231892097	101.96209622961	-1.73691683539517	101.889177136559	-15.4044204290651	124.491936728419	
2880000000	-15.8032194674085	-59.3091474031434	-1.71500827621551	100.698214860639	-1.70251131143275	100.888976002806	-15.890282212589	124.637227672419	
2890000000	-16.2242861112238	-57.9161927640913	-1.71157761148072	99.9735418598118	-1.72803592466208	99.9327475631973	-16.133140715293	125.214813223491	
2900000000	-16.4402161176117	-57.663869651985	-1.71754124066488	99.1301995043522	-1.70028139409989	99.0520668500585	-16.5965366357337	124.950915039383	
2910000000	-16.8770038368064	-56.6930271129093	-1.72925388370725	98.0146722572407	-1.7051379761831	98.0781062064858	-16.9736244741745	125.997176667931	
2920000000	-17.4237176359716	-55.3338651084217	-1.72740537481551	97.2407521504005	-1.69906982966838	97.2085281857713	-17.442137666615	125.557987563156	
2930000000	-17.8887253693651	-53.8852447417163	-1.71824357469225	96.1371775998447	-1.69906423234807	96.0331785098508	-17.710991490845	128.121653171015	
2940000000	-18.113048880634	-51.1941140524953	-1.69702066020032	95.1312342462682	-1.69203246770567	95.0406232221976	-18.3217659074205	129.072557837814	
2950000000	-18.7261292126311	-51.4908002324329	-1.72018353072235	94.089499163216	-1.72075457062296	94.0630802813913	-18.5765004393279	130.11152418483	
2960000000	-19.1658065483067	-47.2657604419676	-1.71434145325504	93.2110243059734	-1.71198747014093	93.0761504906092	-19.1125092712596	131.657571897905	
2970000000	-19.6154468841406	-44.7071374303209	-1.72341159357013	92.1604159747274	-1.70109198620067	92.3602423066081	-19.6649896705316	133.969973504064	
2980000000	-20.1321268600609	-42.0407701479852	-1.70536028373597	91.2691170592316	-1.70623872238991	91.3067569604492	-20.1386892733711	137.71180101519	
2990000000	-20.6691753518841	-39.7453492775829	-1.72433512831342	90.2467203747376	-1.74223636981613	90.2653606479177	-20.3136420360732	138.826899228478	
3000000000	-21.0971263845462	-35.8722311473772	-1.73374436812048	89.219628899416	-1.69601352663882	89.2540703219255	-20.9145033766067	144.061325411822	
3010000000	-21.341660822173	-31.8731210289444	-1.71408119296678	88.3628629151435	-1.73460809661167	88.3385517973683	-21.5338835168295	146.55165024974	
3020000000	-21.7737778651648	-26.5650627833216	-1.70816544172413	87.327773000437	-1.706242809077	87.2867190233606	-21.4736775397165	150.902786488626	
3030000000	-22.1209866722872	-21.9939225284441	-1.71368389143337	86.3077126531285	-1.71722417185806	86.3204426752972	-21.5350612471014	152.814059968025	
3040000000	-22.2455294437226	-17.3675619545636	-1.73708183665738	85.2417599710705	-1.74757888359726	85.3619606924928	-21.8910184023364	158.096667175576	
3050000000	-22.4616028421962	-11.8941798989826	-1.73099604047493	84.5260335726481	-1.73113757421336	84.4100673737809	-22.0797890484305	163.586614505463	
3060000000	-22.4315055565411	-5.96337169836926	-1.7300527544076	83.4559838686195	-1.7580786252234	83.402908757411	-22.1148009507075	168.141149841076	
3070000000	-22.3014345701387	1.30134086472757	-1.75421312954259	82.647647507678	-1.74954231034028	82.454676004447	-21.8716622199598	173.074278151345	
3080000000	-22.064940672029	5.38593209226228	-1.7586136504667	81.5010232442563	-1.75126102201315	81.5157064069504	-21.8557618454399	178.208125250827	
3090000000	-21.9613341448249	11.2306781902009	-1.75975301617567	80.6274164567977	-1.75711015307906	80.5780585355094	-21.3529701004652	-177.19314555037	
3100000000	-21.7875265717152	15.8768419614619	-1.76795687335059	79.4037265029082	-1.75633835936179	79.4514001454343	-21.2029739769426	-173.625451623948	
3110000000	-21.4196815677743	21.5737175500895	-1.76473130129529	78.6114400009893	-1.78634517707034	78.4453001230154	-20.9341206246588	-171.499614771729	
3120000000	-20.900792844789	24.0242475378537	-1.76700054369563	77.6569452307786	-1.78378324797757	77.6664555359575	-20.362293910636	-167.983110393258	
3130000000	-20.7543818172128	27.7600912257773	-1.77362467797508	76.6335267454012	-1.80628762944	76.6529727707408	-19.9229758635521	-165.931832754978	
3140000000	-20.1200250741064	30.8782021770428	-1.7979122835861	75.7183967706056	-1.79618689634117	75.7200997900413	-19.6021246828274	-163.523855468697	
3150000000	-19.7167498923761	32.6734890108839	-1.83744740952051	74.6348409310602	-1.81648491170694	74.7189966443429	-19.1602570321823	-160.79494123534	
3160000000	-19.2289095875846	36.2325270144014	-1.81283141353096	73.7283296142823	-1.81252613544116	73.7027022625752	-18.6539425096595	-158.8602248304	
3170000000	-18.6828475125594	38.0732206928899	-1.84423980179666	72.8469804655761	-1.84408180610365	72.8570370418401	-18.3546993081114	-158.344333426411	
3180000000	-18.2661132944368	39.4395979164613	-1.85381362978062	71.8245862678927	-1.85248677404777	71.8036876189164	-17.7809941529605	-157.320980278779	
3190000000	-17.845308619848	40.7515989935616	-1.85477939377871	70.8485513919369	-1.84265525222806	70.8692482860654	-17.4430091012377	-155.426490441704	
3200000000	-17.5500872195671	42.3097017216794	-1.87778928915105	69.9294535047647	-1.88978661154433	69.9869462779059	-17.0187400958355	-154.494440563948	
3210000000	-16.9730239410124	43.7671165268995	-1.88629378717763	68.9640503245363	-1.87985057369713	69.0858019298993	-16.6693978401034	-154.673864997102	
3220000000	-16.5573572417957	44.8966812573754	-1.89843518499667	68.1458160887676	-1.90019772574531	68.0504793879569	-16.3009204523955	-154.006648080507	
3230000000	-16.3877721979452	45.0190910408719	-1.91561414791708	67.1076650564457	-1.9334787980293	67.2111213367233	-16.0003795441157	-153.533106664323	
3240000000	-15.9064661842601	46.8151840185119	-1.94435723462603	66.1381117809405	-1.94123091612938	66.3153363143201	-15.7119288553407	-153.36457153234	
3250000000	-15.6045687453629	47.4467611158783	-1.93417544909104	65.1760854709568	-1.93087529678127	65.2952546689428	-15.3487111124625	-153.854077848092	
3260000000	-15.26176870306	48.4489461250981	-1.97129032606118	64.3300319615072	-1.94556824490027	64.409058060506	-15.0295075711202	-154.069788671852	
3270000000	-14.9811164279331	48.3283571393222	-1.97308536534265	63.3183275196565	-1.98223653335446	63.3152359868227	-14.6999653841188	-153.589621425193	
3280000000	-14.7555018538221	48.516370406408	-1.98218695595974	62.4601950445407	-1.98746459639742	62.5641793134529	-14.5247568179847	-154.618738978297	
3290000000	-14.3599292308873	48.2633410024208	-2.01050949741734	61.5777501166103	-2.01271572174371	61.5195862853904	-14.199303837344	-154.105624045026	
3300000000	-14.1424934695919	48.8976554488536	-2.00928455333399	60.647612414309	-2.01721824991251	60.6970271207929	-13.8734224485673	-154.724119255021	
3310000000	-13.9696943049011	49.7019386028345	-2.023373633971	59.6939910432592	-2.03267519885803	59.8170446683353	-13.69994498936	-155.038579680556	
3320000000	-13.58563788455	49.3131477802615	-2.05529744689112	58.8983951670788	-2.04456218843475	58.8019598254009	-13.3943499118075	-155.567399501729	
3330000000	-13.3326583598816	49.9727262813888	-2.06577871629578	57.9298277185584	-2.06409489205351	57.8467783290224	-13.1184410721966	-156.123574092308	
3340000000	-13.2017014160363	49.7009774122636	-2.06605811095042	57.0584402103307	-2.07910259181245	57.0429113972945	-12.8560029947938	-156.430594007477	
3350000000	-12.9308890655868	50.0467301483393	-2.12033033935561	56.1327354192643	-2.11170379156433	56.04054704547	-12.7302632947679	-157.012694333853	
3360000000	-12.6630869276631	49.8282548294007	-2.12370988563287	55.1905644901778	-2.11814757591637	55.158440198452	-12.4908595471558	-157.835101450396	
3370000000	-12.5066769399722	50.1714613440825	-2.14698813399089	54.2579336408813	-2.13370627856918	54.2438585067345	-12.2465748988733	-158.085721497495	
3380000000	-12.3213448627617	49.9717164191174	-2.16366251438749	53.4091371617351	-2.13881907021781	53.3578764732041	-12.135222206712	-159.159360433031	
3390000000	-12.0798601062533	49.9497664298039	-2.1584857865337	52.5932584348166	-2.14341247871903	52.5152691196415	-11.8945142746788	-159.662878111206	
3400000000	-11.9543619249689	49.4958752981776	-2.17088829182311	51.5368306601018	-2.19605204423618	51.5786530548245	-11.7571892695551	-159.989005311203	
3410000000	-11.7887496956851	49.4837154464852	-2.18384684583976	50.7392458173792	-2.17775517520482	50.7740616491445	-11.6186682621399	-160.786256225119	
3420000000	-11.6680409960097	49.9861857837403	-2.19940788550548	49.8116257567851	-2.22370596574896	50.0154668224858	-11.4028791697823	-161.460788416942	
3430000000	-11.4428891759191	49.3458660096872	-2.23075335200439	49.1872344790516	-2.23550117936554	49.0437182278316	-11.2956225443392	-162.045291588395	
3440000000	-11.3246595712987	48.9829821164425	-2.21750726721798	48.2082006969233	-2.2648781390092	48.124348856375	-11.1032774069137	-163.076116409928	
3450000000	-11.0977833328189	48.984950491092	-2.27971001500594	47.3947102872325	-2.27799962155144	47.3933827100413	-10.9461451001607	-164.077229044594	
3460000000	-10.9492172680299	48.9103468226165	-2.29514838376692	46.6218767563046	-2.29968583958486	46.5594350957384	-10.8239199804449	-164.517648535817	
3470000000	-10.8278998517804	48.4755275924696	-2.29609270728266	45.5857583245684	-2.29040932645471	45.5725556793777	-10.6888330027073	-164.98409014283	
3480000000	-10.7928517972677	48.8077684299972	-2.31820597412149	44.711097599274	-2.32390378203162	44.7577936725818	-10.5480666677981	-166.338533785059	
3490000000	-10.6261733969733	48.5162110581865	-2.33364858525708	43.9035562243045	-2.32706532435792	43.7198179797896	-10.4971074926988	-166.529855009108	
3500000000	-10.4950275689761	48.1706418740569	-2.34231885686125	42.9264868387213	-2.34148230494221	42.9464396235333	-10.3384467774722	-167.309601761752	
3510000000	-10.402117511531	48.0661924189923	-2.3668363042469	42.0820818653045	-2.34222286812497	42.211008917902	-10.2447024761373	-167.840845232244	
3520000000	-10.2968578298791	48.0946199244491	-2.37538380976839	41.0994470978861	-2.37894347716229	41.1660532866933	-10.0851075785645	-169.437938683954	
3530000000	-10.127707192543	47.9567959451661	-2.41202324340604	40.4347400832405	-2.38822131927593	40.5743184417511	-10.0156143745845	-169.858507636331	
3540000000	-10.0984937328898	47.5882610897188	-2.39232815836393	39.6472037851422	-2.40254160308378	39.7274024668626	-9.89502399304114	-170.628064721464	
3550000000	-9.9500306022948	47.1551205955976	-2.42638601767831	39.0365962138638	-2.41849101271716	38.9720086965644	-9.76286051267553	-171.577060439834	
3560000000	-9.87450764838968	46.8292236999419	-2.42338100672086	37.9829020163966	-2.42252752906192	38.0062691343918	-9.7771584448933	-172.009571368403	
3570000000	-9.81934959166792	46.7295355023752	-2.41841007447476	37.1885742141729	-2.4323450797631	37.032006024983	-9.57058162016597	-172.812939319431	
3580000000	-9.710324066068	46.7526666495353	-2.45291406928989	36.2167122091056	-2.43249645666606	36.3481402759765	-9.58292919211066	-173.596061675703	
3590000000	-9.70457962683603	46.391768626601	-2.45729858280086	35.4451794137237	-2.47292751921935	35.4801787993063	-9.43707102545186	-174.805937843571	
3600000000	-9.58846103680721	46.1891776387185	-2.49975484799236	34.6968534112266	-2.4829841665011	34.6129416709984	-9.42303526622463	-175.613217287167	
3610000000	-9.47890853314787	46.2667907348447	-2.50733809726079	33.8638283016428	-2.50109725826273	33.8134461385857	-9.3413565191723	-175.831024380315	
3620000000	-9.45536726203533	45.7980733105449	-2.5201274166334	32.9023549835415	-2.48559280897415	32.994290057615	-9.27396449720321	-177.533879996695	
3630000000	-9.3914385793279	45.6320363274245	-2.493936172651	32.1287407990477	-2.51377950705291	32.1034528378262	-9.24089979004941	-178.12261627669	
3640000000	-9.30568829755422	45.3665541435739	-2.53629487822803	31.2303189589652	-2.51339217433428	31.3112475899876	-9.18845868592349	-178.714405035122	
3650000000	-9.30216595860199	45.0292587644987	-2.5220242576199	30.6639280796821	-2.53753705231905	30.6823731845858	-9.12142788834699	-179.521728711181	
3660000000	-9.19885361169528	44.9770806792594	-2.57152767051156	29.6046988182677	-2.55320488190263	29.8168386945366	-9.02686088028029	179.57451491081	
3670000000	-9.13947229858985	44.5111732301102	-2.54932167977373	28.8937651065032	-2.53705455154284	28.9456493484248	-9.02245561239097	178.754695155966	
3680000000	-9.06963421974669	44.2038943473744	-2.57741514730096	28.0493229565725	-2.54253718828788	27.972700001374	-8.97941720904096	178.301389612023	
3690000000	-9.1133505896085	43.6531924553758	-2.55102640751657	27.3572919733905	-2.5631795986686	27.3275723937545	-8.95092487510417	176.992002226899	
3700000000	-9.03428621192542	43.8814179291703	-2.58737386154273	26.4037966624685	-2.56730897386232	26.4131547353314	-8.92290723926063	176.394975902995	
3710000000	-9.05437328774713	43.6850452788897	-2.59606942041896	25.4788250432008	-2.59688863096886	25.6752202027258	-8.86101157954447	175.307476397448	
3720000000	-8.9864343143572	43.4845382291197	-2.58631105730949	24.7725598323315	-2.61627462412606	24.8123432756134	-8.82313631633376	174.355204376297	
3730000000	-8.99673065641099	42.9087452462748	-2.6184076323301	23.9819040422802	-2.59863200600046	23.9014953157942	-8.80975656482649	173.795491336515	
3740000000	-8.92512280862099	43.120514358632	-2.61387488476461	23.2131307768887	-2.60318364352112	23.2373459964852	-8.76336358907049	173.17613814473	
3750000000	-8.96526219893967	42.9385949314648	-2.5780128999531	22.4156725561803	-2.58521232523275	22.4651806860359	-8.78439893712855	171.936172500089	
3760000000	-8.93233521040698	42.2589747016942	-2.60760396897892	21.6010151002833	-2.62454851304594	21.5678724138395	-8.72045772607163	170.941224653907	
3770000000	-8.88853273252626	42.0635142742581	-2.62016757231746	20.8362520254631	-2.60882323974746	20.8467492125271	-8.73253237512008	170.244880238686	
3780000000	-8.84123844579596	41.9206972060851	-2.62938144684895	19.9974981116747	-2.62087391280419	20.0522997697548	-8.68688119760514	169.35714709756	
