!Keysight Technologies N9950B: A.12.38
!Date: Monday, 17 April 2023 20:57:29
!Timezone: (UTC-06:00) Central Time (US & Canada)
!Model: N9950B
!Serial: MY61131330
!GPS Latitude: 
!GPS Longitude: 
!GPS TimeStamp: 0001-01-01 00:00:00Z
!GPS Seconds Since Last Read: 0
!CHECKSUM:1011359305
!Correction: S11(ON U)S21(ON U)S12(ON U)S22(ON U)
!S2P File: Measurements:S11,S21,S12,S22:
# Hz S DB R 50
800000000	-8.40997560621581	-119.860510973827	-0.715651996360512	-52.5893352500596	-0.685599646443473	-52.4887280264442	-8.54989721419752	-165.566652513055	
801700000	-8.38943699967801	-120.010143208228	-0.705761335872942	-52.5833133780156	-0.709437820220801	-52.5788861124683	-8.51542516455536	-165.790170063807	
803400000	-8.37535248930565	-119.651466729927	-0.660002763157441	-52.6892057303988	-0.657144856956835	-52.7630649466923	-8.53457422294405	-165.978937471485	
805100000	-8.37498281106786	-120.110084050794	-0.70163366013652	-52.7864369493272	-0.698223462278661	-52.6691682749542	-8.5081866207623	-166.013351854308	
806800000	-8.41989306892053	-120.39356844073	-0.680886014402357	-52.8190369343861	-0.689311180036679	-52.8026848961995	-8.51390814690098	-166.332129808809	
808500000	-8.41790604445646	-120.242811959158	-0.680295852500456	-52.9161994137234	-0.691201823180783	-52.9884979950307	-8.49822244336242	-165.94302952575	
810200000	-8.37716717336842	-120.274261789478	-0.705423250394821	-53.0181005860007	-0.715964998781434	-52.9849255666377	-8.42099039181746	-166.256939052117	
811900000	-8.33516559573887	-120.254216260257	-0.706401326549471	-53.176045937051	-0.689165667563842	-53.2209003394066	-8.51891353297354	-166.143597453921	
813600000	-8.36692342221442	-120.149188990983	-0.709248648297849	-53.2240666004062	-0.713582184273087	-53.0971449560847	-8.47708806112921	-166.65980837743	
815300000	-8.38464354064163	-120.37314586041	-0.694813726023175	-53.2958922754002	-0.713793693422096	-53.3241490437751	-8.46578844355345	-166.37492606893	
817000000	-8.3238710419098	-120.406851476162	-0.697857825501199	-53.42494138168	-0.689425515854323	-53.5546210678018	-8.36917350245052	-166.62999019019	
818700000	-8.35761885020833	-120.459480485165	-0.699678162451689	-53.5169531406748	-0.717712821233103	-53.5208429133135	-8.39269164895553	-167.069930722579	
820400000	-8.3411891069034	-120.612963450717	-0.704317921278324	-53.6457687320614	-0.689684204413986	-53.7188304007602	-8.39655132903577	-167.358049871177	
822100000	-8.35960807666113	-120.656871690734	-0.713023004334491	-53.6825673179624	-0.704557503872076	-53.7094200107202	-8.4762429824372	-167.358917782283	
823800000	-8.32961516515206	-120.622305260047	-0.714187827556088	-53.8330351193779	-0.698020127471416	-53.8836384405768	-8.43554615084942	-167.439763937204	
825500000	-8.34169864791838	-120.429820164271	-0.726546601086074	-53.9923086646041	-0.698998247836293	-53.981477012608	-8.42236159022171	-167.45342316763	
827200000	-8.31139420091162	-121.058260036745	-0.714613884943876	-54.1340503756687	-0.706069662820114	-54.1652318227082	-8.47277018363279	-167.42116712379	
828900000	-8.32530164351858	-120.742353824969	-0.690816340748526	-54.0917771166462	-0.697352053140418	-54.2115928166601	-8.51132911882186	-167.906481656362	
830600000	-8.31292987299996	-120.644719268504	-0.706700322086388	-54.3065191402484	-0.700586118876319	-54.3059524739953	-8.41503905266586	-168.312997094926	
832300000	-8.33042692609442	-120.901484716119	-0.689632523913848	-54.2519351809262	-0.701378571153753	-54.461732697231	-8.42234404741649	-167.952172181906	
834000000	-8.30787867151545	-120.677591311317	-0.707685114556529	-54.5219488474065	-0.713408110850582	-54.4287814694663	-8.40086223614882	-168.010259866957	
835700000	-8.3253322746899	-120.946702520821	-0.715502068700483	-54.5907735548857	-0.703034480131519	-54.5336646634159	-8.40407131104884	-168.298916671059	
837400000	-8.3127226712147	-120.904566670844	-0.710795181892325	-54.8130386647285	-0.715920446892882	-54.5944080888106	-8.35141729586219	-168.852468586023	
839100000	-8.35368457088728	-121.088643841859	-0.709101756040613	-54.7513636132636	-0.699086619588976	-54.748931258892	-8.40770497653522	-169.023038867825	
840800000	-8.21990132874506	-121.003165703677	-0.730269703889001	-54.8296303711109	-0.71820942867704	-54.8642435457601	-8.36762666953011	-168.878161083726	
842500000	-8.28769391611571	-121.024734105063	-0.7209594117342	-55.0342162486946	-0.703081747968173	-54.9613408845652	-8.38945170481168	-168.858246116888	
844200000	-8.28665937849451	-121.369060805089	-0.715342779737145	-55.0606294153174	-0.713694293933057	-55.0837881832501	-8.43158728337408	-169.182752903744	
845900000	-8.28205170388396	-121.098280606335	-0.757048189793072	-55.2191430300659	-0.709738491712227	-55.0252447544109	-8.42720155355993	-169.771661697984	
847600000	-8.22801491024117	-121.534126391167	-0.747199418409328	-55.1471709394987	-0.716194323345192	-55.2229400506108	-8.40843134905337	-169.325002249062	
849300000	-8.2416693326219	-121.361140882369	-0.710603877007966	-55.4255603591069	-0.732038837599069	-55.3257276387486	-8.33055980096078	-169.194078894426	
851000000	-8.25431179030266	-121.33815064499	-0.720298820770049	-55.4258337017074	-0.72335244215983	-55.419868342609	-8.37956458390959	-169.605389240823	
852700000	-8.29013639463935	-121.483955599965	-0.719279947463355	-55.6072631507464	-0.714572007088905	-55.4406955023356	-8.32844961036795	-169.723029074776	
854400000	-8.25311055653182	-121.427038853283	-0.721912611639075	-55.7916044556932	-0.708317737746785	-55.7069266367153	-8.32785954899619	-169.632079297238	
856100000	-8.2538234174799	-121.516865575237	-0.719165094419896	-55.641567768975	-0.721323323566907	-55.6377886795493	-8.36476559016836	-170.550332853389	
857800000	-8.22730646290598	-121.927640831346	-0.717831714203808	-55.7898714834942	-0.722484603032863	-55.8939986405545	-8.36110603623229	-170.171487771577	
859500000	-8.23612558577175	-121.7977725419	-0.722385783246688	-55.8866820296999	-0.719718504251547	-55.8353678351825	-8.31813609570129	-170.711704318275	
861200000	-8.21524163543745	-121.674563936419	-0.738025764290979	-55.9782771242766	-0.725346724046257	-56.0181980970205	-8.30942623247315	-170.604839573028	
862900000	-8.20436984816592	-121.720182208516	-0.724527753449169	-56.1295412498781	-0.727157132517946	-56.0667740033053	-8.32402543338075	-170.381329877504	
864600000	-8.23908528286868	-121.976153821651	-0.720107574571578	-56.2287898683779	-0.732014687148518	-56.2360913158786	-8.38593685967921	-170.427961459579	
866300000	-8.19953981611579	-121.815171993185	-0.732873565814917	-56.3392648659859	-0.719244960682609	-56.441932447922	-8.32906952887498	-171.298415287195	
868000000	-8.21023642717688	-122.2508323315	-0.736932341690456	-56.3690620685773	-0.723676425386877	-56.3927729192751	-8.36165798558824	-171.296677036085	
869700000	-8.1833158231207	-122.442619553357	-0.743398571696451	-56.390178169426	-0.715028047369489	-56.3420537961073	-8.33557987136219	-171.222980620051	
871400000	-8.22943036286757	-121.680985732072	-0.746651787098869	-56.691841912944	-0.734572022994227	-56.6161966992338	-8.32841003804842	-171.266437389459	
873100000	-8.21564331239849	-121.92434504062	-0.721237682750882	-56.7278396816342	-0.715129732569452	-56.5873903230857	-8.23668915164561	-171.574498030823	
874800000	-8.15792041962078	-122.151768007518	-0.730057770572535	-56.8618467020113	-0.736635108624863	-56.8908749026032	-8.31304673610781	-171.559337150228	
876500000	-8.18305617394271	-122.36321009405	-0.731793124693595	-56.8968617339651	-0.712582293066033	-57.0194702749889	-8.391476713742	-171.688496714083	
878200000	-8.2058355125665	-122.584364964167	-0.73558927743032	-56.9136918265639	-0.710522068697836	-56.8387792362499	-8.29087396913859	-172.11279780341	
879900000	-8.15427406629223	-122.242465338061	-0.737831458855689	-57.209978476093	-0.726516921468769	-57.223961774557	-8.27651453631539	-172.226088574842	
881600000	-8.18353550739919	-122.574546479743	-0.725235143793801	-57.1648570786013	-0.735995744935617	-57.2291303160705	-8.23859033789262	-171.818212285973	
883300000	-8.18648256377635	-122.479865452288	-0.755296204591561	-57.1654871465742	-0.72477904788959	-57.280869138387	-8.30668882508728	-172.472127832203	
885000000	-8.16563697932853	-122.612328717189	-0.739567260259986	-57.3811778738992	-0.736065505757967	-57.2929615943817	-8.32134104846675	-172.486668702607	
886700000	-8.16988923105774	-122.469425903443	-0.738237648971592	-57.3959719876434	-0.712512145698143	-57.4481761227644	-8.31935200295443	-172.737253029818	
888400000	-8.2162318559281	-122.458776487394	-0.721425699395781	-57.4779736205652	-0.723657423587223	-57.5252904404638	-8.30267828551689	-172.515532815922	
890100000	-8.17117010602105	-122.688364807447	-0.738910714045103	-57.644669182535	-0.743050421935312	-57.7031718640361	-8.29438718872819	-172.960517336803	
891800000	-8.16779929578222	-122.733609601194	-0.747226533768748	-57.6234110939381	-0.734442128608857	-57.7259828384072	-8.27329907492048	-172.712674058439	
893500000	-8.16752929989942	-122.749168667755	-0.732717905455706	-57.8529699401536	-0.733643974416022	-57.8494169438055	-8.26427432893667	-173.278611595903	
895200000	-8.15655698459256	-122.910763904271	-0.733561714209047	-57.9242217622751	-0.738748549397214	-57.8634593966869	-8.25031909175596	-173.189058118522	
896900000	-8.19078240212255	-123.084357435542	-0.736820906041012	-58.0373518546237	-0.7303541670561	-58.0034161457322	-8.24467112740577	-173.307416547255	
898600000	-8.13498615741842	-122.745253562236	-0.726972699066993	-58.1069751167172	-0.732427956929064	-58.1203045659248	-8.26140390507114	-173.82802716579	
900300000	-8.10574956108648	-122.732562488358	-0.760462450628035	-58.2155518326958	-0.719902012337824	-58.2238576172372	-8.24621193523739	-174.076409408927	
902000000	-8.1582919937994	-122.863225534002	-0.748395963859356	-58.4197081530374	-0.719451787548524	-58.4000816527287	-8.27866635610319	-174.203855817817	
903700000	-8.12240954939881	-123.097935349609	-0.752686321230144	-58.3728264522602	-0.737110384747485	-58.3007995263019	-8.23775618453717	-173.954713175089	
905400000	-8.16745685623939	-123.01379243648	-0.7644409953024	-58.5553560460744	-0.751080780945632	-58.5576582195793	-8.28475121429572	-173.958489519158	
907100000	-8.14125153490313	-123.173380219555	-0.752158686423891	-58.5708917659667	-0.748753820204706	-58.6156628527914	-8.20935664171526	-174.773459013258	
908800000	-8.12271221702979	-123.087546303938	-0.768771628393852	-58.7645213388575	-0.726213137727865	-58.6936783137392	-8.28471983920443	-174.658113220158	
910500000	-8.1566239416615	-122.804055905804	-0.74043744373187	-58.8451685719499	-0.746854924706808	-58.7145278004148	-8.21290643780319	-174.710158384252	
912200000	-8.1588899454643	-123.133869728107	-0.759651522598789	-58.7777000740769	-0.739950236550109	-59.0265558986945	-8.26891843462393	-174.874612467029	
913900000	-8.16395694446242	-123.349265733226	-0.754407886856529	-59.093436571784	-0.745105102100629	-59.0141998544277	-8.2231554389532	-175.209017823006	
915600000	-8.1755692546097	-123.258229102885	-0.757905599652634	-59.0524924192582	-0.74586605499023	-59.0043950264875	-8.20659888017119	-175.128508892629	
917300000	-8.10998955378936	-123.319412378992	-0.748206974255813	-59.1911146607595	-0.745587000824911	-59.1763549190782	-8.20853279122852	-175.449070043006	
919000000	-8.07091821351822	-123.31974978079	-0.77199057858774	-59.1601634047035	-0.744374102307782	-59.3234181155738	-8.25506301762972	-175.71632565914	
920700000	-8.16441437281281	-123.593439646619	-0.720763893640552	-59.2712519429943	-0.7331949536447	-59.4420202622769	-8.24543260137659	-175.411688835934	
922400000	-8.16548501955401	-123.277912147459	-0.75006960824094	-59.545317460827	-0.733607782801111	-59.6053642902034	-8.26719654161849	-175.43151195142	
924100000	-8.14363229746103	-123.53878691929	-0.760502995770106	-59.5246694538076	-0.740597083076332	-59.4696653643607	-8.23606210406374	-175.570286504661	
925800000	-8.09381221756987	-123.713456703317	-0.762710543564563	-59.6257426930196	-0.758538052165107	-59.6221837739608	-8.20170643862195	-176.175720455263	
927500000	-8.09270095934522	-123.594594720039	-0.755130769938162	-59.776339958452	-0.760667378376963	-59.8201504196591	-8.19808349886602	-175.999355204624	
929200000	-8.15784814887413	-123.288950464691	-0.725077082674835	-59.8556503249948	-0.726430826132012	-59.998827689544	-8.22227045134528	-176.21214902613	
930900000	-8.11638184689629	-123.514308029349	-0.751666364818615	-59.9592369481589	-0.736801587206012	-60.0369526403799	-8.29662345684221	-176.285487203809	
932600000	-8.07575691994558	-123.897727922775	-0.7603669657632	-60.028433776592	-0.738541293125798	-59.9992857517261	-8.24183330197568	-176.862865424568	
934300000	-8.10695919769626	-123.810753545473	-0.762479243483121	-60.0595271057012	-0.740804622393292	-60.1642944918508	-8.17986985949098	-176.534200803549	
936000000	-8.12781143582062	-124.099715280241	-0.734662409925355	-60.1690791256308	-0.737947672224716	-60.1220173668432	-8.23839884443613	-176.768821345219	
937700000	-8.13786558750888	-123.628173362728	-0.749041795832679	-60.494504510516	-0.75442132625138	-60.4219454557622	-8.20102796283167	-176.856010244545	
939400000	-8.10819147486671	-123.94176753945	-0.758531394554252	-60.3354426816368	-0.764555775579511	-60.4330354788496	-8.23721225070555	-176.998173671284	
941100000	-8.10925188401103	-123.687559176511	-0.758322896814323	-60.5747904975411	-0.749462191634711	-60.6592043787715	-8.21677811138099	-176.978781159287	
942800000	-8.11225007621722	-124.015057211922	-0.741638591895175	-60.6270045134439	-0.755948982810338	-60.6656959690663	-8.22390896095063	-177.285408762129	
944500000	-8.11663937401156	-124.444060747011	-0.745879229548125	-60.8028324516292	-0.748635734261517	-60.8208167988092	-8.19151273367785	-176.987700111053	
946200000	-8.07700426809131	-124.011312584399	-0.750538714913261	-60.8578984358427	-0.748168887641352	-60.8780453886532	-8.18730079254257	-177.57150099409	
947900000	-8.11642116605127	-124.332166351736	-0.739923804022013	-60.8954729937635	-0.731375975893421	-60.9855428932692	-8.25854005558075	-177.58582968985	
949600000	-8.06265385327125	-124.386231997553	-0.766999685344941	-61.05665299996	-0.772162891885372	-61.1537404467347	-8.20463143474507	-178.039051947327	
951300000	-8.1346692714709	-123.868863424998	-0.750090107634138	-61.1659746664316	-0.742715165532407	-61.0908571302045	-8.21255889085342	-178.268454838931	
953000000	-8.13356583076902	-124.128600226852	-0.768424243648192	-61.3097027303335	-0.741549025751797	-61.2921071882563	-8.20963743154214	-178.122331709781	
954700000	-8.12102131487963	-124.046626641166	-0.763410416873685	-61.3202752279056	-0.760236986496933	-61.325436866836	-8.19392667979242	-178.682810686064	
956400000	-8.13505811155812	-124.397029879271	-0.752672162767103	-61.4298462090515	-0.738501038262312	-61.369955541073	-8.24440866350845	-178.736505397926	
958100000	-8.10983503008576	-124.456864029618	-0.775682848144772	-61.5676322478095	-0.733158775522427	-61.627234236549	-8.19549345723595	-178.416289828717	
959800000	-8.11534179293376	-124.61696515147	-0.75279707081383	-61.7309691313007	-0.735002149695164	-61.6248811980907	-8.16007272015858	-179.143662281498	
961500000	-8.11053747791866	-124.420284382833	-0.748138682192164	-61.7640354015519	-0.747509698041154	-61.6855676361137	-8.19228543494418	-179.219189772647	
963200000	-8.1033689390371	-124.532843234504	-0.752258119957156	-61.7730718732389	-0.745160314922376	-61.9020090793291	-8.23995268738437	-179.172691719927	
964900000	-8.07596026189653	-124.36725666739	-0.76716489255065	-61.8773371670448	-0.76795499779558	-61.9436421540856	-8.1932152349871	-179.010498445693	
966600000	-8.11541407461904	-124.821331921897	-0.744360086601415	-62.0292705759594	-0.756064331222487	-62.175486580629	-8.21472543399253	-178.906963863467	
968300000	-8.12976959337097	-124.406198462213	-0.758033559858611	-62.1386341348431	-0.746177750744156	-62.0164625887104	-8.18967791228955	-179.567100663836	
970000000	-8.09626690112339	-124.608980064904	-0.754196080820109	-62.1682668770411	-0.746830041566535	-62.2705201167289	-8.19204042861024	-179.377132813305	
971700000	-8.13711365511971	-124.853284788986	-0.753123693954155	-62.2636551725312	-0.763344631064617	-62.3074579655052	-8.20075675866075	-179.728573641623	
973400000	-8.13648873114779	-124.978122461146	-0.748196823237265	-62.3327545900516	-0.760988832572701	-62.3079119428965	-8.24451407666771	-179.826353118065	
975100000	-8.12667107401378	-124.94695999443	-0.748127456757329	-62.4465796687755	-0.734302356700834	-62.4739021131221	-8.25520265463904	179.819154849251	
976800000	-8.10010347626698	-124.810385968052	-0.75925204793567	-62.6366924535696	-0.754775302251046	-62.5680013045597	-8.25346696161156	179.444402388367	
978500000	-8.09267349276844	-125.009326266994	-0.768562683166433	-62.6571411533335	-0.74431499234919	-62.6206527882144	-8.24513123627395	179.541495570253	
980200000	-8.11617211080997	-124.871476452801	-0.768657087785421	-62.7458998874929	-0.766392069171081	-62.6531222473814	-8.20130511785456	179.285026007263	
981900000	-8.12048432805313	-124.701393812829	-0.754821763468352	-62.9645484962444	-0.760667580199212	-62.9196081240853	-8.20311088792274	179.519867320328	
983600000	-8.0646567276487	-125.479287992838	-0.749686834949446	-63.1064775972804	-0.758656620342473	-63.1319325869372	-8.246152362376	178.813210426396	
985300000	-8.08205466484165	-125.268657902577	-0.768014214501389	-63.0130272438235	-0.75383728014031	-63.1708038694749	-8.20875224821193	178.534656356033	
987000000	-8.12700229277508	-125.611130319728	-0.744194958458734	-63.0679515777006	-0.742087321147069	-63.126875338814	-8.25695877591256	179.292644195545	
988700000	-8.11088116453239	-125.297678922728	-0.749008996246778	-63.18853163882	-0.733527551959335	-63.338080324368	-8.21932094363085	178.693204856513	
990400000	-8.02045328172172	-125.415068386815	-0.76154339041893	-63.1882789284765	-0.734686339098616	-63.330267634672	-8.23921953336347	178.536703632032	
992100000	-8.0963664415652	-125.957493127324	-0.741793066090912	-63.3758945966635	-0.735916878075452	-63.5641240351685	-8.24596275136421	178.942235016579	
993800000	-8.1690455373932	-125.590523129603	-0.755833792531374	-63.4367287283089	-0.755280985496569	-63.4838440524301	-8.21623476334703	178.670065992922	
995500000	-8.11850002559873	-125.941775258794	-0.750027790068697	-63.5780384065349	-0.743232186452231	-63.6285492072845	-8.27837137047937	178.148272226524	
997200000	-8.09109644211782	-125.751090598573	-0.740547996889565	-63.8007810148625	-0.73173199250968	-63.8223652441152	-8.23820376820667	178.145993924983	
998900000	-8.14020069571788	-125.536051534136	-0.757548650720037	-63.8838638603461	-0.757083297038499	-63.7211797658119	-8.19578630447132	178.037682167557	
1000600000	-8.08610922493574	-125.364700753745	-0.779468065616302	-63.946123091528	-0.752659275726721	-63.9652554731844	-8.25723155349088	177.723785225055	
1002300000	-8.09744286318651	-125.473697520673	-0.752656389194193	-64.1302427716395	-0.735450328863806	-64.0625447107912	-8.24491076398093	177.432242847884	
1004000000	-8.10402842240022	-125.997302284595	-0.738083228184069	-64.1567725089588	-0.744759091413013	-63.987014121258	-8.23180071905808	177.655393545473	
1005700000	-8.08910522212909	-125.770864914257	-0.788159539760867	-64.3389477548477	-0.759395615405902	-64.293919449592	-8.2091944988666	177.598341439753	
1007400000	-8.07772199055311	-125.830802525112	-0.767813195155094	-64.3722957634161	-0.752915967330448	-64.3893693220475	-8.23601144739824	177.330916579669	
1009100000	-8.10258376044333	-125.940909853329	-0.742343599825239	-64.6131805236581	-0.72260883172376	-64.4611973792468	-8.19991804729067	177.125967177663	
1010800000	-8.12467074249339	-125.97922906354	-0.764623402150688	-64.5159169321731	-0.763926708949923	-64.4304583007015	-8.19275940735735	176.94862414562	
