!Keysight Technologies N9950B: A.12.38
!Date: Monday, 17 April 2023 21:15:12
!Timezone: (UTC-06:00) Central Time (US & Canada)
!Model: N9950B
!Serial: MY61131330
!GPS Latitude: 
!GPS Longitude: 
!GPS TimeStamp: 0001-01-01 00:00:00Z
!GPS Seconds Since Last Read: 0
!CHECKSUM:1128820532
!Correction: S11(ON U)S21(ON U)S12(ON U)S22(ON U)
!S2P File: Measurements:S11,S21,S12,S22:
# Hz S DB R 50
12500000000	-13.3279872930476	-132.984864904448	-4.61812740547192	146.800238865309	-4.59207626049425	146.808122152466	-16.8948995145074	134.055159378361	
12512500000	-13.0979227449515	-132.031323196141	-4.64351789561337	145.916349454853	-4.65494772152425	145.991021780061	-16.7431729907162	135.769009208107	
12525000000	-13.0554587734457	-130.207502122486	-4.62779999885624	144.992223200279	-4.63614039334819	144.917279336962	-16.4835841038214	135.978491357592	
12537500000	-12.9129995794324	-128.865268624684	-4.65538481828264	143.980329611893	-4.65867332682184	143.999030779641	-16.3854387670421	137.500650723897	
12550000000	-12.8096913629327	-128.321114655103	-4.68120370787752	143.114433734035	-4.65302552613568	143.034226485327	-16.0576390533565	137.950645996511	
12562500000	-12.5862229144354	-126.475361088369	-4.66559655746058	142.327630492098	-4.65843476474039	142.189689655245	-15.8568626943246	137.588296652591	
12575000000	-12.5415421476389	-125.720059035824	-4.68104631148111	141.232655995903	-4.66250993617462	141.220128100751	-15.6608130175049	138.817244530112	
12587500000	-12.4336754181735	-124.979320732991	-4.66587900857743	140.323988356426	-4.66449653391648	140.251792630707	-15.3014014222181	138.511180082427	
12600000000	-12.2912770645813	-124.537203660002	-4.67258942918467	139.250857269439	-4.6673621685676	139.422763202899	-15.249654336594	139.271988362037	
12612500000	-12.223810125594	-123.511922489703	-4.68690656802477	138.472597877393	-4.6809697389558	138.479980322335	-15.0559220846522	139.092646966388	
12625000000	-12.081397181177	-122.581017499383	-4.68335399862336	137.460004703835	-4.69224062042412	137.594670266628	-14.9346056703078	138.593495342506	
12637500000	-11.9993737955924	-121.645187099878	-4.72345439492818	136.597118705763	-4.69111102382535	136.454259420268	-14.6943258955826	139.17472484273	
12650000000	-11.8568043495254	-120.484247462655	-4.70963636786415	135.589238371574	-4.72663626196916	135.670425555447	-14.3571703496572	139.241539905922	
12662500000	-11.8586811180863	-119.437038134213	-4.75277649714347	134.511283568844	-4.74233522902637	134.488942973241	-14.3866104801457	138.921139902684	
12675000000	-11.6912438434617	-118.928263691235	-4.7466413573392	133.748349638732	-4.74891805041075	133.579670263336	-14.1127556865839	139.131030900372	
12687500000	-11.4966928568612	-118.346850922665	-4.74677970180506	132.554905458068	-4.74064805665375	132.960520232092	-13.9759717956015	138.780979087822	
12700000000	-11.4956654709618	-117.769258634116	-4.77950741172593	131.916950941345	-4.74356971025701	131.873766082626	-13.7801472865385	138.796956956866	
12712500000	-11.3158561286935	-117.016114751293	-4.79216935980415	130.974068953517	-4.78273943228589	130.887785396615	-13.5667011671257	138.736178224976	
12725000000	-11.2315633897275	-116.845032450747	-4.78342531885571	130.016329299357	-4.77870762715163	129.896618257652	-13.3852432978931	138.200963210059	
12737500000	-11.1856741347858	-116.206334649028	-4.79536935922548	128.854296785925	-4.76313166195419	128.934771923135	-13.3439520989509	137.031944653386	
12750000000	-11.0904445771604	-115.280320944868	-4.82979069584039	128.143202725395	-4.78451804357147	128.12415475675	-13.1913314265844	137.667358363254	
12762500000	-10.9440497152817	-114.685053420935	-4.80936526454398	127.255086525406	-4.81927062619778	127.283753482473	-13.0473137498547	136.680028257642	
12775000000	-10.8739227310802	-114.074093491764	-4.8106777657588	126.406322890803	-4.84979027984449	126.199274848325	-12.7598691197547	136.688960738935	
12787500000	-10.680629455168	-113.382453197904	-4.87955647470583	125.206620382436	-4.8296165887359	125.550452282597	-12.7693842769365	135.758096395368	
12800000000	-10.5890983330189	-112.830346958029	-4.87022899313514	124.532896001716	-4.84764428515637	124.625827412656	-12.6013683336567	135.82269623554	
12812500000	-10.4954584133961	-112.492427167568	-4.86841542134885	123.518639151238	-4.85623243154748	123.405164762972	-12.4444395557285	135.681356059281	
12825000000	-10.4770792734291	-112.440865912553	-4.8802132444183	122.61575983205	-4.87856208989442	122.717235798975	-12.3276953886967	134.436514059032	
12837500000	-10.4002589148976	-111.869523961202	-4.89075540781189	121.830366818791	-4.8973776124285	121.864015690361	-12.1707287908868	133.713711797759	
12850000000	-10.3508288440444	-111.771943479895	-4.86913894718267	120.788813260105	-4.87725702720332	120.881906596481	-12.0623771848501	133.415310712697	
12862500000	-10.2703844214392	-111.239212222742	-4.88378943301461	119.862978632432	-4.88727980949767	120.104150276259	-11.9713187785105	132.077592204265	
12875000000	-10.2201538727498	-110.928728529515	-4.87709654034577	119.047692190744	-4.88290281319379	118.959505680417	-11.8901712086176	132.057101423101	
12887500000	-10.1053979916746	-110.223779550651	-4.94360514650539	118.131571792047	-4.93595622654406	118.208274887269	-11.8433390534766	131.444411427924	
12900000000	-10.0278705137563	-110.065795581387	-4.91111424995017	117.004293404155	-4.9275856860313	117.232159230175	-11.6411176600419	131.277831017342	
12912500000	-9.96258775332511	-109.202115522965	-4.97167870239702	116.262458071172	-4.95472411552067	116.315285804436	-11.6971390769379	130.300785689479	
12925000000	-9.85756062510654	-109.112545680051	-4.94935340309258	115.390291090479	-4.96433842485957	115.497439017811	-11.5221552958684	130.036168338485	
12937500000	-9.85807954469447	-108.742027389984	-4.94773097611887	114.44474046484	-4.94056045139676	114.618901086325	-11.4414521692021	128.957673192243	
12950000000	-9.7901668915064	-108.580480823664	-4.98080587298712	113.650950835749	-4.98886079684614	113.714966839333	-11.2874213656125	128.359388189286	
12962500000	-9.67589385979405	-108.511990563878	-4.98414730953743	112.710178526778	-4.96613086271931	112.735936647278	-11.2286622875181	127.745635547343	
12975000000	-9.73131938517043	-107.741410886049	-4.97207896342459	111.997737098967	-5.00931308701784	112.167118381802	-11.1689889335733	126.797640295107	
12987500000	-9.65014692043608	-107.724340466709	-5.00339353687699	111.057427004919	-4.98494075323742	111.110376548228	-11.1271791496288	125.845492708493	
13000000000	-9.62143026525734	-107.296675505154	-5.01731472393638	110.098456783656	-4.99112081413331	110.129064327753	-11.0673965646547	125.134545850258	
13012500000	-9.57273738496717	-106.776186893746	-4.99300709094284	109.093136355881	-4.97036730675171	109.17782575815	-11.0761824468511	124.758613185619	
13025000000	-9.49582914967771	-106.32480904329	-5.01453876766316	108.400002919255	-5.05179648012251	108.323612208303	-10.9596483489699	124.341302814156	
13037500000	-9.48075473286301	-106.695979327028	-5.03204906815142	107.393556909893	-5.04193519303129	107.628088643243	-10.886477091287	123.50124565765	
13050000000	-9.44535406122226	-106.290887530218	-4.99883924596866	106.430282187196	-5.04115006021967	106.631475016993	-10.8099351499075	122.656848582894	
13062500000	-9.43781104994899	-105.909482007628	-5.031042934804	105.626162197247	-5.05572576163163	105.763955231909	-10.7752597766121	121.837824346066	
13075000000	-9.39900939233459	-105.930586085993	-5.05869661435791	104.717810103336	-5.03691153008963	104.82677421065	-10.7464401866098	121.416015816511	
13087500000	-9.31563268095572	-105.62530123837	-5.06109174414825	103.99617827547	-5.05603337657821	104.050399933718	-10.6912181066139	120.384817573591	
13100000000	-9.36460197992195	-105.333009123483	-5.04381533179296	103.098970808748	-5.05923763007651	103.133651548851	-10.6605062969989	119.326545380747	
13112500000	-9.31963515107317	-105.175297175765	-5.04913613752289	102.008727519407	-5.07589046602993	102.27647844668	-10.6222003102776	118.215531035731	
13125000000	-9.32134267593181	-104.834342661503	-5.10000313138199	101.323660318879	-5.05602247687019	101.383710212028	-10.6587045111356	118.157239586425	
13137500000	-9.32187160022058	-104.064498580924	-5.08632675237343	100.267307104299	-5.08399132002239	100.309105841991	-10.5913107633904	117.468521161825	
13150000000	-9.19447044105457	-103.974831301326	-5.11129405434923	99.6249711569213	-5.12319824373198	99.7501645240857	-10.5727305249878	116.361956471535	
13162500000	-9.19181104267681	-103.935314395703	-5.09848977825279	98.5651632872266	-5.0773586596137	98.7411033500226	-10.536539266466	115.940718613716	
13175000000	-9.20223180049479	-103.553368883487	-5.1112947923429	97.7926680515558	-5.10591003454662	97.8035459279504	-10.4685094290146	115.213843315116	
13187500000	-9.20002327920341	-103.416239652123	-5.08769517633003	96.7096579927655	-5.0984891593458	96.8552238397427	-10.4499840378722	114.329382184926	
13200000000	-9.20657864685441	-103.014610463094	-5.0730219079658	96.0705529892285	-5.09556126793478	96.2090291564724	-10.5351496583691	113.287875079449	
13212500000	-9.19588973416992	-102.926952000783	-5.08240482812714	95.1245632099927	-5.0984610518169	95.1777529418587	-10.4604942956133	112.831833955901	
13225000000	-9.20681524370829	-103.044915027699	-5.13001177996604	94.1735158940504	-5.09896132273482	94.3197994803248	-10.5184876472735	111.254112016126	
13237500000	-9.22511674324759	-102.681514828496	-5.10720983168191	93.4176868424521	-5.12119699836086	93.3995882511814	-10.4681364970107	110.946318597736	
13250000000	-9.20793547488752	-102.139528274658	-5.11279971591223	92.6551095147017	-5.12820255299663	92.7193903524506	-10.5070133248755	110.197164554026	
13262500000	-9.26790217310445	-101.942091154622	-5.15417489482432	91.7792804117361	-5.16449408915036	91.5587936013556	-10.4092329017655	110.202483420739	
13275000000	-9.22959951113196	-101.608656628298	-5.11690559096665	90.8273602315016	-5.12649508599627	90.8724232217425	-10.5721172293949	108.796000502984	
13287500000	-9.28280266037997	-101.585821639949	-5.10699854283773	89.896109484899	-5.14782407124775	90.0949322227016	-10.575537604876	107.798224467586	
13300000000	-9.26790813444909	-101.109188908359	-5.11679206262018	89.0247584386123	-5.09917229415412	89.170487398877	-10.5882005748611	107.634757992379	
13312500000	-9.30415554383932	-100.93127285998	-5.10806361486924	88.299462602108	-5.1194943349938	88.2016637139924	-10.5374482055219	106.70851502927	
13325000000	-9.30591059912665	-100.653249806064	-5.11646416358803	87.3757516383994	-5.09457728548722	87.2766469843317	-10.5914191835346	105.978749287651	
13337500000	-9.34136038777933	-100.36877228816	-5.09357871083323	86.4777425223861	-5.14120403373425	86.2624882901607	-10.5832800977373	104.887861540271	
13350000000	-9.36967755759381	-100.131042037391	-5.12006482640777	85.6035450170978	-5.12924590017573	85.3436881898434	-10.6290787495969	103.967276687542	
13362500000	-9.35618244363868	-100.08236850002	-5.10579973036049	84.8020623124825	-5.11126102494904	84.5829097764204	-10.6907189560964	103.359954992565	
13375000000	-9.3828054125659	-99.6794438128251	-5.12292600103681	83.8198422954392	-5.11927834841585	83.8983146322438	-10.7176117176527	102.541043126202	
13387500000	-9.44148312072941	-99.437712991981	-5.11547391977221	83.0977139638614	-5.10229856426666	82.8172686044771	-10.7657449850049	102.047810967462	
13400000000	-9.4320509289947	-98.8590479693134	-5.09925227633748	81.9671481512031	-5.09588428090529	81.9311431451058	-10.8542382038438	101.344732540508	
13412500000	-9.48720000408139	-98.8641811308952	-5.0862664566622	81.0766070400386	-5.13792923083535	81.098153800199	-10.8469628615275	100.694958804452	
13425000000	-9.49564665766737	-98.4279452121446	-5.1011071995436	80.377475859444	-5.12634783534727	80.2819788506275	-10.8569077927356	99.8004160093341	
13437500000	-9.57964543666653	-98.2742292102866	-5.12046441920629	79.2987081490809	-5.10149593930531	79.2305216626513	-10.9123479941214	99.3119063832919	
13450000000	-9.60358124480652	-98.2242946392564	-5.12401148852544	78.4732990616269	-5.11669577263116	78.579798704907	-10.9973184233394	98.1611048494356	
13462500000	-9.67408046722846	-97.7906890373052	-5.10664479895675	77.4321558320592	-5.07712347593929	77.5343046291329	-11.1023152887548	97.4384445831777	
13475000000	-9.73942017626477	-97.2112746592995	-5.11029908155972	76.7282630656067	-5.11627156708922	76.7134026518992	-11.1481488943259	96.8827635853885	
13487500000	-9.76125841535782	-96.8627908410085	-5.08197674496566	75.7967230996471	-5.10751781796149	75.8116426376192	-11.1986367201029	96.8408779492276	
13500000000	-9.81938782592185	-96.3131176101836	-5.08425525905678	74.9746972369606	-5.07469629645053	74.7883269354152	-11.2759356405411	95.974480588961	
13512500000	-9.86717353186641	-96.3425418441425	-5.08063332646159	73.89935608636	-5.0966430334859	73.8840272406331	-11.3574038747153	95.1206902394215	
13525000000	-9.98757524810834	-95.7018472317045	-5.07327292535493	73.0842506065198	-5.12909873902151	73.1031123748783	-11.4168450432832	94.0987855370376	
13537500000	-10.0041041353103	-95.3124446597886	-5.07634967860833	72.1652500916834	-5.10287028231515	72.0448534568706	-11.470736915159	93.7529583643768	
13550000000	-10.1026255994792	-95.0566548403401	-5.10888704346833	71.3699727795768	-5.07458862785201	71.2792938216748	-11.5863548918984	93.3064795113922	
13562500000	-10.1262157068176	-94.7892371787882	-5.06561387211021	70.2548390048506	-5.10103574815192	70.3507779437241	-11.643669394508	92.2669580400573	
13575000000	-10.2720882985405	-94.0950096644942	-5.07696078727317	69.5392984736575	-5.04332980086854	69.4719338292341	-11.8342224098973	91.8521090244907	
13587500000	-10.2761198796193	-93.3453766625687	-5.08103129252108	68.5319271799805	-5.05913648992363	68.446620385563	-11.8846892054667	91.292268508546	
13600000000	-10.3946727601252	-93.4460251016514	-5.05104522366396	67.629714515209	-5.06104106674531	67.7732820826586	-12.0276025009983	90.4970462819936	
13612500000	-10.3990034776935	-93.1144229080462	-5.06454589596465	66.9120426101967	-5.08935387396397	66.8144469048587	-12.1058242089579	89.7339449487345	
13625000000	-10.484875668	-92.6438296586587	-5.07398969366624	65.8957897454549	-5.06957628785015	65.6455745428666	-12.2169945928848	89.8294021635918	
13637500000	-10.5688534513024	-92.0638680473853	-5.05264731203335	64.8425962655617	-5.04761151725021	64.7787884693457	-12.3202748884398	89.4693876592003	
13650000000	-10.7045552426369	-91.4097159061073	-5.04417077029212	64.0639698819177	-5.06329956642965	63.9132384829269	-12.4425372391296	88.7244335879997	
13662500000	-10.80945087027	-90.7575478118201	-5.02933443237294	63.0922714590281	-5.04509959999962	63.2245865371047	-12.6230622218391	87.718897903768	
13675000000	-10.8211828234178	-90.1847616820553	-5.01226774487568	62.2581537706394	-5.0442574262403	62.0078163484261	-12.6712942908071	87.7607357320619	
13687500000	-10.9488591152773	-89.2126508539459	-5.02019125259061	61.2116904804714	-5.07488058456132	61.0972592261521	-12.8460730067296	86.8945525566115	
13700000000	-11.0435232312419	-88.6319148201916	-5.00385826532174	60.2647706398114	-5.03450606156442	60.5387853697516	-13.049850831435	86.436351239328	
13712500000	-11.0824757761911	-88.0379313006802	-5.00252556680479	59.5096719848911	-4.99940245023661	59.1706207941681	-13.0700212595009	86.3533902489547	
13725000000	-11.2139874853248	-87.3568918459118	-4.97416062350744	58.2848466342797	-5.00017666297562	58.3367686623772	-13.3076284589685	86.3752308655425	
13737500000	-11.3055120300208	-86.8698068548156	-5.00135263463822	57.4563170411649	-5.02167543043696	57.4379976153409	-13.4352388513799	86.2887853927593	
13750000000	-11.3506896035548	-86.166415317483	-5.00680247853179	56.5750962626923	-5.00192978711993	56.4912175952553	-13.5218115255936	85.7505408800837	
13762500000	-11.4470164180112	-85.9074566886201	-5.00158968076303	55.6586045729086	-5.02788548374548	55.4582997600135	-13.7252338958129	85.6207024630209	
13775000000	-11.5706079801882	-84.8289801384293	-4.97504721306041	54.671871473256	-4.99730528844904	54.4394046292651	-13.7840074257082	85.8013199396283	
13787500000	-11.7254440383078	-83.3232809497583	-5.00850159337848	53.70368637526	-4.99540699904926	53.6681191335413	-13.9866286152305	85.6889509222167	
13800000000	-11.8195371507613	-82.691781562863	-4.98270845740076	52.8117922280707	-4.99555526562614	52.79372160269	-14.2231993176534	84.8389924927082	
13812500000	-11.8529795073263	-81.6340595898053	-4.95953580715861	51.9003708304295	-4.98422060917048	51.8365494867776	-14.3377382193283	85.7148145272236	
13825000000	-11.9784225935885	-80.7510494160069	-4.9562150862279	50.8887575164875	-4.97514473993951	50.853363183244	-14.6745653510779	85.2881551252762	
13837500000	-12.047402182181	-80.2148238901656	-4.96570141266051	50.0668217582206	-4.96870553940484	49.9657233716159	-14.8807499391666	86.0735874155196	
13850000000	-12.1029810058171	-79.2182492967686	-4.96991917539074	48.9939570728376	-4.96274250257287	48.8144444321337	-15.0211330882829	86.1932367136746	
13862500000	-12.2812794182282	-78.4639031552091	-4.99718712233635	48.1340254698811	-4.96852923563764	48.0670045075388	-15.2338202793924	86.3873252375017	
13875000000	-12.2993716310931	-77.3867889723484	-4.97926916900382	47.1421901288908	-4.97414332881625	47.0353839841006	-15.3607947406969	86.5836669630495	
13887500000	-12.5576903912801	-75.4280963059648	-4.97704242095315	46.1401668972742	-4.95465598908594	45.9464453755369	-15.4749462292462	86.7941010227131	
13900000000	-12.6093892816896	-75.1580203776568	-4.94409901336562	45.0786222172473	-4.94864464749697	44.957696128396	-15.6988423108446	87.4615661197475	
13912500000	-12.7231338335651	-73.4937783115088	-4.98111253673632	44.3837447095836	-4.9456854243816	44.2407291520635	-15.9928963158455	88.1146471820046	
13925000000	-12.8179675504345	-72.1977337323958	-4.94942564157509	43.5090129996116	-4.9587455884937	43.3135621598352	-16.0504733843015	88.0067737119292	
13937500000	-12.9137098412862	-71.5283217370013	-4.94934536022807	42.5779139825891	-4.951340534768	42.5281790457839	-16.4318066618791	89.1052742782243	
13950000000	-12.9033058795877	-68.9691078777176	-4.92617427146362	41.2575520112563	-4.93273745777898	41.2612470161612	-16.5041919556441	89.8433530345607	
13962500000	-12.9107488947876	-68.7382997322661	-4.97277614559459	40.2325723975164	-4.90965023583207	40.3599015736435	-16.743054387476	91.7871789092068	
13975000000	-13.0573849131074	-67.8206467540599	-4.92291941271605	39.4170610693944	-4.91807329092714	39.2957830298843	-16.8301294591726	91.7311396606834	
13987500000	-13.1514231153762	-66.0372680601791	-4.96680312371279	38.5081658367702	-4.90743285991088	38.2144617968886	-16.9156047501696	93.4186977933124	
14000000000	-13.2130757645527	-64.7399450041353	-4.95302308749475	37.4188924581975	-4.94011143192105	37.3662672067507	-17.0842216870785	95.2972432495931	
14012500000	-13.3654664085827	-63.698728036323	-4.94239830818379	36.4200410304692	-4.93846692692229	36.5840668726049	-17.280498260632	96.2926873996404	
14025000000	-13.3780196744497	-62.1683881297492	-4.93384850635486	35.5601214791053	-4.95575546478069	35.6664967288428	-17.382407826188	96.4532548414345	
14037500000	-13.40843977977	-59.8349527798599	-4.91336594722666	34.6790573954763	-4.93426032341371	34.6808177239062	-17.3556685521082	98.8464040399435	
14050000000	-13.4047224809341	-58.6306130426982	-4.95932487402876	33.7382906839327	-4.95536078409069	33.7138003888179	-17.6104577561295	99.8409075714415	
14062500000	-13.4056027820863	-56.4854275477506	-4.92274361238154	32.7464843662371	-4.9164201428856	32.6536268838949	-17.8054269629666	101.405658004871	
14075000000	-13.439648977436	-55.8077113549216	-4.97053933374689	31.7897395425502	-4.94320423636483	31.856910687131	-17.9401544653167	104.69906346746	
