!Keysight Technologies N9950B: A.12.38
!Date: Monday, 17 April 2023 19:42:09
!Timezone: (UTC-06:00) Central Time (US & Canada)
!Model: N9950B
!Serial: MY61131330
!GPS Latitude: 
!GPS Longitude: 
!GPS TimeStamp: 0001-01-01 00:00:00Z
!GPS Seconds Since Last Read: 0
!CHECKSUM:0230909018
!Correction: S11(ON U)S21(ON U)S12(ON U)S22(ON U)
!S2P File: Measurements:S11,S21,S12,S22:
# Hz S DB R 50
2000000000	-12.0315252173672	-16.0886200493751	-0.3607554996349	-166.497417394336	-0.372519268806064	-166.399838778619	-11.8960843427936	-140.173400139296	
2002000000	-11.9629218336665	-16.4825017045782	-0.402640076408241	-166.534333222651	-0.366278487925062	-166.65031006912	-12.1235152271394	-140.384329460182	
2004000000	-11.8739636001057	-16.0705534295336	-0.403293790148265	-166.906093183749	-0.385597127489513	-166.898724130758	-11.924747871753	-139.825122563376	
2006000000	-11.9451404967457	-16.6000985107257	-0.41649216948811	-167.006532451534	-0.4139957344859	-167.035295842453	-11.8235560270412	-140.54573067605	
2008000000	-11.9314105793942	-16.2976825539162	-0.416807524457627	-167.170309319497	-0.395065641711244	-167.194825675677	-11.7643665660188	-140.611304646978	
2010000000	-11.8356209723535	-16.2075552316115	-0.415463308282135	-167.250218436314	-0.391982041778185	-167.292228819317	-11.7390692017908	-140.550151413191	
2012000000	-11.8071872409039	-16.5102272176512	-0.40276088225687	-167.48087032587	-0.38993848290222	-167.46965362995	-11.8306251654086	-141.323464749645	
2014000000	-11.7320272371046	-17.5609306406039	-0.415225079827141	-167.402711380188	-0.405224958908841	-167.571659766524	-11.7850410753647	-141.348685541566	
2016000000	-11.6890198051891	-16.2042024488843	-0.417318601149893	-167.84376751219	-0.421742440068724	-167.754760167866	-11.6104155271769	-141.352536525906	
2018000000	-11.6617600557977	-17.0489933129584	-0.388603544690689	-168.007212386222	-0.411597840756563	-168.066095737342	-11.6517877967701	-141.834566129059	
2020000000	-11.5604534701245	-16.7151689220861	-0.408886139834502	-168.266195423799	-0.403715325751385	-168.213270436551	-11.699491581168	-141.528874229188	
2022000000	-11.5296958226407	-17.3353415040141	-0.417778592217598	-168.278201200341	-0.4024364731868	-168.215666389336	-11.7003246266987	-142.506350944972	
2024000000	-11.5475580050406	-17.8181285602433	-0.435777792980654	-168.36437346181	-0.440341059505901	-168.555076539046	-11.5412836406405	-141.799245277264	
2026000000	-11.527363965195	-17.030104357564	-0.425634515798143	-168.64634976405	-0.435784061503545	-168.546545191969	-11.5247838794686	-142.319039414721	
2028000000	-11.426030268801	-17.8756617879939	-0.416803493726862	-168.818684481749	-0.417850324960832	-168.884262401978	-11.3669036766109	-142.440270243566	
2030000000	-11.439400227072	-17.6838813191752	-0.426392339912379	-168.99448237545	-0.431069057496217	-168.94726722593	-11.432103894658	-142.763552826935	
2032000000	-11.351198147544	-17.6954525792752	-0.458782100650303	-169.101733123724	-0.441232065659519	-168.9948968858	-11.3507870220287	-143.083117251556	
2034000000	-11.3696903951633	-17.7487838012135	-0.457177629679048	-169.324418527899	-0.427201744055719	-169.262222508356	-11.3795800617142	-143.627327649992	
2036000000	-11.3347963275431	-18.2574543631622	-0.448940661724551	-169.503849432719	-0.431513281877125	-169.442599128322	-11.3740086749521	-143.244587204969	
2038000000	-11.1718010739619	-17.901228686298	-0.454041112999139	-169.652767649871	-0.451603239348314	-169.717201750024	-11.3018576595325	-143.406951565931	
2040000000	-11.2384454369524	-18.164997259829	-0.443575792176046	-169.870470908719	-0.452955279809519	-169.717237808567	-11.2497854124355	-143.564205026492	
2042000000	-11.305609341741	-17.5885138443035	-0.411721374865504	-170.077751773307	-0.431373083707777	-169.87171088433	-11.1630630109976	-144.24462654877	
2044000000	-11.1456495245387	-18.4617427446274	-0.46530126455079	-170.262097661777	-0.442259711737549	-170.040807389169	-11.2454668209715	-144.568354949048	
2046000000	-11.2516361782227	-18.8938478928939	-0.469089487392311	-170.244037720427	-0.459193260301295	-170.332145559168	-11.1702277664557	-144.644322797584	
2048000000	-11.1825763498641	-18.8694887724917	-0.460106117595845	-170.354350686727	-0.453755749138758	-170.428215424199	-11.1540929662691	-144.377818354748	
2050000000	-11.0666321022022	-18.699910140797	-0.477770836565917	-170.464289509617	-0.461957636550002	-170.535631452821	-11.1297549157301	-144.615016150607	
2052000000	-11.043992521766	-18.6516378231394	-0.464504634391297	-170.819989463232	-0.473581698355243	-170.718582010387	-11.0505294585095	-144.924110473418	
2054000000	-11.0302477228462	-18.6931446426626	-0.480268348662233	-170.963627377861	-0.483180812814151	-170.999309100055	-11.0810813527237	-145.335305046401	
2056000000	-11.0046502658326	-19.176853946507	-0.470982762930722	-171.172445859801	-0.461283462004666	-171.214290365391	-11.0913072988741	-145.608437084588	
2058000000	-11.0066074872427	-18.4994856955662	-0.478140697070014	-171.242084349084	-0.476099654372707	-171.197599859964	-11.0023461609595	-145.643718637746	
2060000000	-10.9351872941986	-18.7789732254607	-0.455963516708596	-171.454073567103	-0.459544483367514	-171.5475724198	-11.0004774434671	-145.296537975174	
2062000000	-10.9725593084071	-19.4896712105578	-0.478420825254952	-171.681597647195	-0.48073170672794	-171.697249765193	-10.9215426063227	-145.787755198313	
2064000000	-10.8098910915081	-19.5547990849929	-0.481868558888871	-171.713202719492	-0.470649204351698	-171.727108974727	-10.8486875321462	-146.111313732488	
2066000000	-10.8860601738599	-19.6210023094643	-0.502182482934369	-171.850345824513	-0.48872311782047	-171.849977745744	-10.8092165598562	-146.494209557436	
2068000000	-10.8446653894285	-19.5330269728285	-0.493459208489874	-172.04132241752	-0.492789223507061	-172.123135508371	-10.8041050192064	-146.827468897592	
2070000000	-10.8452355527938	-19.9759271843222	-0.506736466513395	-172.336078911047	-0.507888610451963	-172.164565529538	-10.7967643700815	-147.087046708814	
2072000000	-10.8170485707799	-19.5431160805232	-0.493895119904145	-172.374334694004	-0.490962819065669	-172.391186096673	-10.8246268828348	-147.195521539881	
2074000000	-10.6586813204706	-20.0488152560045	-0.495914673701083	-172.549113185318	-0.490865577541081	-172.529274090322	-10.6786015016475	-147.657545046263	
2076000000	-10.6541442598212	-19.9471735407719	-0.482916090272417	-172.679305580298	-0.480090068557333	-172.579413667497	-10.7597514254271	-147.669167470567	
2078000000	-10.6162544214554	-19.8530085641652	-0.488385782000176	-173.010371580691	-0.494664056824329	-172.851259952465	-10.6798767102385	-147.839590702183	
2080000000	-10.6238813700798	-20.0133767536395	-0.47718342963402	-173.124030053359	-0.526479936536526	-173.08102062456	-10.5816501897594	-147.679574890952	
2082000000	-10.5628561718102	-20.6327900088897	-0.53059823570518	-173.307994948462	-0.522385967986363	-173.129929446691	-10.5794191658808	-148.552701911442	
2084000000	-10.583695071349	-20.5774156583994	-0.522062591139826	-173.46899574094	-0.510971219088552	-173.300576119219	-10.6419218124101	-148.284378283938	
2086000000	-10.6508112472655	-20.233911989237	-0.49671537784453	-173.625679330109	-0.517666275077801	-173.491235076851	-10.6216874508165	-149.076656418246	
2088000000	-10.5365740535741	-20.3800172672626	-0.512383653439954	-173.715102662574	-0.519584245166114	-173.679960936293	-10.5344538850253	-148.77970523026	
2090000000	-10.5031957432077	-20.4802005224715	-0.529693804074695	-173.89647436049	-0.523079517077696	-173.754351495116	-10.5156325864581	-149.285654267701	
2092000000	-10.4833811571968	-20.2528067588604	-0.516902227678654	-173.992172668132	-0.516212119124915	-174.009358690059	-10.5030770871187	-148.946452213285	
2094000000	-10.4440023900762	-20.9959276635442	-0.55509985949996	-174.082418612999	-0.532847227645924	-174.102111480851	-10.448482955916	-149.513717958472	
2096000000	-10.393653879932	-21.5553086261397	-0.537610313733311	-174.292441691619	-0.534227519883355	-174.394717110939	-10.3623341046278	-149.671423707403	
2098000000	-10.4446705200668	-20.9795811944243	-0.528513509402814	-174.501219347072	-0.517589126877453	-174.616537275265	-10.4392547422065	-149.186166444458	
2100000000	-10.3793966081106	-20.9033497924902	-0.536298166983918	-174.760990111521	-0.546203543366301	-174.69729196625	-10.3442340696277	-149.878911535808	
2102000000	-10.3646945494124	-21.2007809454599	-0.513230744261106	-174.822951244416	-0.555430851448707	-174.919733967618	-10.2359001457578	-150.046851603822	
2104000000	-10.2770543492917	-22.0299899657938	-0.564988039383504	-174.991944634527	-0.563452164464313	-174.829339956667	-10.26470748578	-150.462838711094	
2106000000	-10.285707399859	-21.4803232551628	-0.535651737675972	-175.032976966438	-0.546254538417049	-175.124084538049	-10.3418920578824	-150.516102285495	
2108000000	-10.2745095988373	-21.1731823165018	-0.536278030745608	-175.214811246899	-0.547859977736734	-175.266102721154	-10.289089399729	-150.946800545476	
2110000000	-10.2213040942573	-21.8430641333643	-0.542010096060492	-175.338933523146	-0.546321142549348	-175.298933287597	-10.2513118931693	-151.019027076652	
2112000000	-10.3076161409141	-21.4779333856388	-0.549991635651851	-175.587534094464	-0.560923832968994	-175.624605750675	-10.2812916271139	-150.743446293624	
2114000000	-10.2226077914155	-21.5634425417507	-0.532553428694404	-175.614666440529	-0.546602878597396	-175.624364614981	-10.2220634256152	-151.578679269991	
2116000000	-10.2491709605339	-22.0956057115831	-0.585957984224983	-175.977675586631	-0.541457938537328	-175.844245659382	-10.2765259346973	-151.931159874186	
2118000000	-10.2061605078027	-22.2217460062264	-0.556527901877597	-176.077470221171	-0.571790997675585	-176.072314202347	-10.1216385661044	-151.472102154608	
2120000000	-10.0870695664873	-22.7903514017254	-0.574700866064639	-176.049499975974	-0.567554917933858	-176.178622174487	-10.1628906504267	-152.277337468909	
2122000000	-10.0917426807749	-23.0137648163457	-0.572910539521477	-176.308518476564	-0.583711702206486	-176.371871501399	-10.1468940133638	-151.722526761705	
2124000000	-10.0927649771664	-22.4550622991768	-0.569115015267851	-176.589006176877	-0.55975122997179	-176.536767978579	-10.0695281088295	-152.329816280793	
2126000000	-10.0407325247948	-22.4990002013465	-0.55868761659481	-176.563771625788	-0.541960347337139	-176.669378742856	-10.0655877252147	-152.759290682294	
2128000000	-10.0701521243861	-22.635127205565	-0.579672173328868	-176.883807886896	-0.568999821658341	-176.919380779967	-10.1031524949573	-152.83278351972	
2130000000	-10.1509686427938	-22.6791219680314	-0.562100444279937	-177.006375591715	-0.577748290166497	-176.907576552149	-10.0640957387334	-152.980470259793	
2132000000	-10.0215320765694	-22.9592834194263	-0.561848908488173	-177.309967636317	-0.578034360219445	-177.096338639453	-9.97774498031046	-153.653241034731	
2134000000	-9.99999767704279	-23.3279622635067	-0.560070758537017	-177.369162121998	-0.550861435085277	-177.392128743067	-10.0301567456303	-153.827891568535	
2136000000	-9.96890906939189	-22.7321448024201	-0.569429273766418	-177.612374165538	-0.592110175390236	-177.478809766625	-10.0088926734156	-153.167758093614	
2138000000	-9.90718579194198	-22.8632982258543	-0.564625762974583	-177.817040773172	-0.60248611386032	-177.646363431873	-9.94070719557111	-154.100781602511	
2140000000	-9.92924626216449	-23.1262959164417	-0.57624122895811	-177.874003714496	-0.567679961165975	-177.628079858511	-9.92137372082123	-154.415578817948	
2142000000	-9.86838745804462	-23.6858952373676	-0.59367264138747	-177.863472992565	-0.570038175854287	-177.855551095119	-9.91681145062198	-154.030235389748	
2144000000	-9.85248787548855	-23.4372898513728	-0.592814217340145	-178.180379103038	-0.584135795860315	-178.138348645207	-9.87124606014742	-154.62340237133	
2146000000	-9.85524700625007	-22.8670335019027	-0.587793806287551	-178.419478418231	-0.600442166298661	-178.187196882484	-9.90577423008956	-155.041256960515	
2148000000	-9.85276098489019	-23.28838884626	-0.580405488125362	-178.379361082728	-0.576523030160197	-178.344731743123	-9.87055769372368	-155.280675071233	
2150000000	-9.80426782607811	-23.541241152631	-0.601882301817091	-178.589234247849	-0.594951705790132	-178.577620900627	-9.82175346185293	-155.019806537741	
2152000000	-9.82263383256983	-23.0510327226361	-0.592144156720688	-178.798482666501	-0.609216238344747	-178.734305832468	-9.77986684699279	-155.388297385663	
2154000000	-9.77952003055237	-23.4365964409448	-0.590808094301467	-178.899808841701	-0.598548111637383	-178.992090075306	-9.81264706637237	-155.696826409325	
2156000000	-9.77654753779427	-23.9814149850768	-0.592881402610529	-178.983573884453	-0.591122903166975	-179.064570971304	-9.8014434893667	-155.187160365174	
2158000000	-9.72355678261436	-24.0599124154484	-0.600132383912935	-179.244096892235	-0.584181981604313	-179.272226627121	-9.82705652287062	-156.079132034299	
2160000000	-9.69367311941051	-24.0572448929231	-0.622695138881577	-179.40247115084	-0.614300041777899	-179.332247776586	-9.70217701720112	-156.336645708893	
2162000000	-9.59955097483271	-24.3427795097986	-0.61189769681246	-179.5567208855	-0.625090173755845	-179.41596624486	-9.61955926260944	-156.074050965627	
2164000000	-9.66856698883707	-24.469371911633	-0.608883001871877	-179.713543815612	-0.610233857259605	-179.58957443699	-9.72843122798945	-157.135476898975	
2166000000	-9.6996724804958	-24.3956653739162	-0.622278921643554	-179.819275162296	-0.629671328092273	-179.789816633557	-9.68337507304557	-156.887839308285	
2168000000	-9.68139200459209	-24.6206057136553	-0.621307387594061	179.942436920575	-0.608668421709625	179.922752745273	-9.65231799774492	-157.078429202484	
2170000000	-9.61380608327109	-24.2944404692012	-0.626150390446089	179.78222863037	-0.613895665926132	179.901560169361	-9.67902561403578	-157.124479952498	
2172000000	-9.68218528161855	-24.244852014824	-0.600214407135428	179.685979652317	-0.626668310881902	179.562940225696	-9.64386366932434	-157.1927616615	
2174000000	-9.56321108544475	-25.0706190656217	-0.627182079140234	179.543776603054	-0.642138291600285	179.636930516585	-9.53595694025477	-157.671476513846	
2176000000	-9.56230900207494	-24.8830249290489	-0.620251989994837	179.396724955618	-0.619476471050595	179.447679078028	-9.61442427502085	-158.182243912613	
2178000000	-9.51714086092377	-24.7222989827874	-0.645336658050356	178.994510901509	-0.611818686672433	179.194433431194	-9.59185261124644	-158.167392441635	
2180000000	-9.45406933904049	-25.1285255433214	-0.655314582705273	179.115094977345	-0.626930271688627	179.05596746089	-9.49522869834083	-157.944882460312	
2182000000	-9.50632080362315	-25.3162627525521	-0.637208114381142	178.965861638028	-0.640259272184295	178.93165846606	-9.48805874616415	-158.674070586518	
2184000000	-9.49292728145262	-24.8155582617964	-0.633834098620677	178.704750582532	-0.612318869611209	178.809003702845	-9.54682575514303	-159.204623423802	
2186000000	-9.56283418111119	-25.7368786305831	-0.620613354982364	178.607123096991	-0.622545268179178	178.597832383806	-9.58994358727695	-158.688319262531	
2188000000	-9.48994520863	-25.4079719321437	-0.64290256205065	178.492568218056	-0.65430006836771	178.464682190813	-9.43445492244664	-159.008596337778	
2190000000	-9.42337530172551	-25.4225406053498	-0.664055092006824	178.209742870862	-0.656263374450026	178.406890844626	-9.47292373462701	-159.469065658677	
2192000000	-9.3718936766401	-25.6928657460813	-0.651516457472548	178.079398006368	-0.665529689445084	178.087520373797	-9.34792390409789	-159.116702404735	
2194000000	-9.42069499161001	-25.3974120115697	-0.637801026785194	178.021066065234	-0.644069917000362	177.874076206948	-9.39806258361739	-159.074653529593	
2196000000	-9.34566763624557	-25.938493446334	-0.65936582394256	177.794891264159	-0.656966608786812	177.778899325529	-9.44568363530488	-159.862695951306	
2198000000	-9.37474984270129	-26.0007739073887	-0.662790258300223	177.560878825226	-0.663035221376003	177.63500091577	-9.39601265265923	-160.107310038846	
2200000000	-9.33462912774471	-26.1147448627298	-0.661725980800252	177.471561706336	-0.653974764379653	177.491713238191	-9.41951632712312	-160.482511185411	
2202000000	-9.2871234509194	-26.2516358828135	-0.655439424854549	177.100955971499	-0.657239272634115	177.212928824229	-9.28494703928004	-160.412831414369	
2204000000	-9.36499017062934	-26.3339219118826	-0.646824207239562	177.214431329868	-0.685309567672098	177.160811935655	-9.29260723892313	-160.16475396854	
2206000000	-9.30511714885419	-26.8480847945303	-0.677972757475614	177.149086605939	-0.657581556432887	177.151486517817	-9.33557447465102	-161.319480761564	
2208000000	-9.30964025491287	-26.5715129727855	-0.643184793278896	176.920041980595	-0.64916491928899	176.905081353421	-9.36869515027005	-160.92771212676	
2210000000	-9.27594885546588	-26.6888456506734	-0.673039371827085	176.684215456571	-0.657480251454382	176.794419539027	-9.30119621898523	-161.6478479085	
2212000000	-9.31126119645557	-26.6515666182749	-0.655872566201966	176.641483422387	-0.663302917926207	176.693547579826	-9.26822538575439	-161.49188677083	
2214000000	-9.23948071315621	-26.7002316388325	-0.68250707657599	176.515465280715	-0.653312862575765	176.508946101836	-9.30711036472762	-162.092064205332	
2216000000	-9.16654766337912	-26.7903307263938	-0.642422138393919	176.225078422119	-0.679136529215651	176.205134679795	-9.22824301106855	-161.73016172271	
2218000000	-9.2225909798964	-27.0790220840557	-0.674511653395971	176.231674887667	-0.668116400750318	176.080206421335	-9.20049889018711	-161.899885296462	
2220000000	-9.20749761023604	-27.068630733837	-0.689115246848888	176.006291371583	-0.707909656418767	175.907242595009	-9.15919443419735	-162.222213408454	
2222000000	-9.15515637643336	-27.8124147934953	-0.675613132741369	175.884002032872	-0.663057040065891	175.792791045043	-9.29102940151074	-162.228466753674	
2224000000	-9.15922707986273	-27.4161862233288	-0.687535615807902	175.742546583741	-0.681851202353027	175.723748189455	-9.19162269787876	-162.763067710924	
2226000000	-9.12233647415182	-27.6455508211287	-0.688640421793267	175.50821860396	-0.665136976977034	175.510959769429	-9.13581823225927	-163.009536395371	
2228000000	-9.12156753742535	-27.6211484401784	-0.685020046180968	175.324437741754	-0.670664324269291	175.312027424984	-9.17808372877364	-163.316537169014	
2230000000	-9.04888182355344	-27.6169335644682	-0.692411805813934	175.172156878097	-0.662549796531268	175.343596804559	-9.16025056258815	-163.826335751964	
2232000000	-9.04761494306811	-27.2317718767809	-0.698127981349062	174.943019575776	-0.675692725624957	175.097680025309	-9.17779314890875	-163.597064359755	
2234000000	-9.13136903330955	-27.4753202110393	-0.673930891517113	174.883785038912	-0.675500049070379	174.694725844926	-9.12108681356945	-163.344046775711	
2236000000	-9.1647054797905	-27.961515851261	-0.670869560286896	174.826522427839	-0.678464571481829	174.807184748404	-9.12489518648921	-163.83623977829	
2238000000	-9.08832897472853	-28.0546083276008	-0.697372314867354	174.639181081708	-0.706498109263491	174.810445962451	-9.04208237774868	-164.685865739712	
2240000000	-9.01579708619024	-27.9763982820405	-0.729646633106308	174.296867916497	-0.696650829153446	174.453238452058	-9.06727186287348	-164.753683545015	
2242000000	-8.99978946517245	-27.7003054930036	-0.699707482978476	174.447266442562	-0.691943108967078	174.296780142195	-9.09802828931054	-164.119621291156	
2244000000	-8.9666301496765	-27.5858078272751	-0.705306263885034	173.980660308861	-0.687751869612888	174.054277996627	-9.05662979403066	-164.877265465025	
2246000000	-9.11359437718147	-28.6067643578812	-0.702932259527803	174.159926155195	-0.702664231312067	174.054458200324	-9.06672971305866	-164.876655805221	
2248000000	-8.98463384794128	-28.2705583964623	-0.737730943835718	173.873465647635	-0.721262548286692	173.765055289364	-9.09565931462426	-164.986901674516	
