!Keysight Technologies N9950B: A.12.38
!Date: Friday, 14 April 2023 14:41:48
!Timezone: (UTC-06:00) Central Time (US & Canada)
!Model: N9950B
!Serial: MY61131330
!GPS Latitude: 
!GPS Longitude: 
!GPS TimeStamp: 0001-01-01 00:00:00Z
!GPS Seconds Since Last Read: 0
!CHECKSUM:0638181875
!Correction: S11(ON U)S21(ON U)S12(ON U)S22(ON U)
!S2P File: Measurements:S11,S21,S12,S22:
# Hz S DB R 50
800000000	-44.0919268803157	17.6178275247187	-0.0313486885354879	-29.7709294335048	-0.0104018413931135	-29.6976865707971	-50.5892181066622	78.7786590178363	
801700000	-44.0499601879442	6.41326084536368	-0.0219573609928669	-29.8044702150185	-0.00870389138330071	-29.8192065872725	-49.7319787337591	116.098189333297	
803400000	-43.9801598490974	10.2173449090416	-0.0322804512958569	-29.8096772548362	-0.0143436381807264	-29.8425004711122	-49.2160340983977	100.114359776363	
805100000	-44.5108871028258	11.4440763147461	-0.0249719511830163	-29.8337856381449	-0.0177118022629597	-29.9104101524344	-48.3216450068174	90.726262149878	
806800000	-44.2985337662787	8.2938488150031	-0.0226644169435843	-29.9646628217739	0.00109506536916135	-30.0358763461952	-49.1713176258249	110.461467514945	
808500000	-44.3000937445733	-2.50165729050132	-0.0306684705623473	-30.0346493804089	-0.0198012278889589	-29.9979245558642	-50.0168247762363	89.8296251513582	
810200000	-45.3974174229746	13.1873427536005	-0.0171543319110547	-30.120780254048	-0.0134778502315577	-30.0633409273125	-50.0976933634132	117.861712408686	
811900000	-45.4195502145775	3.17539997005708	-0.0227071482102443	-30.1371350271089	-0.012119653238087	-30.1384961240187	-46.0483178904706	99.3178268496394	
813600000	-42.7941441331598	15.0968935402878	-0.0319072990856852	-30.184957615673	-0.00218482039945974	-30.2057459179874	-46.6894620425256	76.9870973203364	
815300000	-44.2208038819696	20.349709437013	-0.0206410433277447	-30.3699251258835	-0.00912757356838808	-30.2488665036478	-50.2553370307099	99.8880644992284	
817000000	-49.9154687669146	29.0929680823148	-0.0156468048497421	-30.294849149392	-0.0151931894757461	-30.3467410122521	-48.2953601438434	103.648458173875	
818700000	-44.6142991352745	26.8299797706866	-0.027496228944337	-30.4918095175057	-0.0137469286743639	-30.3756532444883	-46.6490669308755	88.1020888697733	
820400000	-43.1001417305186	13.824471932437	-0.0226964323423698	-30.5599580973119	-0.0118078945089373	-30.4187270911874	-47.0821206879904	89.2393463661297	
822100000	-44.1597015360556	11.4790559998352	-0.0213008858239398	-30.5132647392667	-0.019163501498404	-30.5846954344317	-48.4987392143773	99.0397997737314	
823800000	-44.6561076014101	6.70306634753508	-0.015772809257468	-30.5397533130421	-0.0171068437067717	-30.6935368624653	-47.695589917658	98.4763640887756	
825500000	-46.1841116573093	12.9643323612622	-0.00492213800570918	-30.6919845941657	0.00205525635020237	-30.7133188306553	-50.265109037939	108.955244278945	
827200000	-43.5978810925684	11.3559048057771	-0.00701753536023044	-30.7000568589061	0.00495837863816656	-30.7526196410045	-45.2756157643582	102.821059407758	
828900000	-43.7517873326179	8.57542451146217	-0.0261614053302363	-30.7856538400061	-0.000294311306268923	-30.7781866025916	-50.1490282787401	106.300335925455	
830600000	-43.2736472828095	9.0207031319589	-0.016793363844559	-30.8709777829888	-0.0184653702250703	-30.8179075315065	-46.5118362936154	101.405563511309	
832300000	-43.0781838835398	12.2428929031057	-0.00652461246687693	-30.9603366345508	-0.0198165904710493	-30.9086804553604	-48.0793507403087	85.2030183086708	
834000000	-44.5478222314997	6.50690223466751	-0.018357354746622	-30.9922586677078	-0.00990202276965167	-30.938958866134	-56.8149834118384	107.474526083567	
835700000	-42.1817068008879	7.06413011153949	-0.0210747100860023	-30.9900407670877	-0.0215674364013318	-31.0224452138276	-51.8176349047372	80.8153911486994	
837400000	-42.2381866833742	11.7062856652102	-0.0319531013679289	-31.192347874039	-0.0196109155066145	-31.0479324539278	-46.0051220387804	102.735509520119	
839100000	-42.561540546065	7.74775436538717	-0.0285641793562034	-31.1204253232023	-0.0159902490241028	-31.2178314801753	-48.569543007949	98.7180988110309	
840800000	-43.7274489587906	10.2285996109526	-0.0289776100044981	-31.2622172456552	-0.0136167266038872	-31.2263727851671	-54.1973954713065	102.248773255903	
842500000	-42.1692481667326	9.75504583761483	-0.0164016498620134	-31.2505815880113	-0.0132998946469803	-31.4055785836648	-45.5454797068989	94.4941215152502	
844200000	-44.7472019582761	20.7377665768569	-0.016625847792306	-31.3715747281534	0.00750355819707313	-31.2757410116293	-51.4250875326585	92.7425678155587	
845900000	-44.3351593735793	0.0155650694747739	-0.00632387967822827	-31.3625960147737	-0.00196871790866353	-31.4319690247133	-47.2668896936316	83.8593216742208	
847600000	-43.0158336003586	11.4270434597537	-0.00972738579551215	-31.5633447340228	0.00142496985841282	-31.4703336330851	-50.0702783797075	85.549880316413	
849300000	-41.5753279727453	14.8887272337063	-0.0331845897453312	-31.490394090941	-0.00678949480413589	-31.5832784575447	-47.6433762710153	102.011867160635	
851000000	-44.7275764245449	3.35288906132237	-0.0136355016425549	-31.5568514189224	-0.0349707389606373	-31.6463383364028	-48.0791822664915	94.842772817056	
852700000	-46.7807419095067	4.52895165312826	-0.0147912262120262	-31.7162423933024	-0.0234497943135738	-31.6851602946009	-47.3079068710979	86.2921870774894	
854400000	-42.6857384988069	10.1284087859746	-0.0160757160803909	-31.6527183898454	-0.00823270104285097	-31.7990352897517	-48.7622637005236	96.7189213119123	
856100000	-43.5715568558657	15.1850445558892	-0.0250731997709766	-31.9337085623725	-0.0155105579307605	-31.8267719911281	-47.1716879707698	131.774431148055	
857800000	-44.1986886107293	-2.56262774097592	-0.0226477870663782	-31.8437208245081	-0.0134469653125485	-31.8188284350564	-51.2944457004741	72.7791272604142	
859500000	-41.8669256107724	6.41637641332248	-0.0213717196622493	-31.8520510693205	-0.0160408846133021	-31.9519798761734	-47.0065508099435	99.7674199144513	
861200000	-42.7088160370256	3.20616335728337	-0.0282194353977053	-32.0271252797487	-0.0137933233224709	-31.9691097770666	-49.4143692636081	109.677556945272	
862900000	-42.0895669945732	14.9232000857438	-0.0148416359020303	-32.0987625012346	-0.0152892580300009	-32.0065161434508	-48.5270552445974	90.2105735973075	
864600000	-42.7761278858474	10.8346418783745	-0.0377910764044948	-32.2230551293454	-0.0247798292521971	-32.1537982979573	-47.1204717432022	104.297891052903	
866300000	-42.7444657510266	14.2705370040059	-0.0111138236793538	-32.1421777886177	-0.0010261193400535	-32.1430247601702	-48.8691835376846	116.845061968349	
868000000	-44.464997331199	10.7074668481105	-0.0177491715546929	-32.2626986856999	-0.0170040415594332	-32.2954962412166	-48.8467737622921	105.728574398567	
869700000	-43.4854409472082	8.18648643049822	-0.0204528941185657	-32.3561131611044	-0.0206852317661759	-32.3601042546761	-49.8138440694056	92.956571990015	
871400000	-43.5962187693213	7.23601505248939	-0.0386074826812819	-32.3419755237777	-0.0107529998622055	-32.3525574889422	-48.851068889509	112.360108148647	
873100000	-44.579588506733	9.97648191666633	-0.0118958694733355	-32.4507554074982	-0.00342169314789458	-32.4626956399833	-51.5949261248564	127.035173412995	
874800000	-42.4283301051826	13.2011146718963	-0.0283099457032335	-32.4820639949549	-0.01547788158264	-32.479658902233	-48.6504137711178	109.720313980712	
876500000	-42.8271383378669	27.1011371085185	-0.0251951695505369	-32.7154403681659	-0.0157374885701805	-32.6402975915841	-45.9278779173052	103.240742785834	
878200000	-43.090251789545	21.8099650291455	-0.0307827882836303	-32.7193550140917	0.00067147819182567	-32.5329465119253	-52.9095163350972	116.9855581547	
879900000	-42.9245757041518	15.011194262141	0.00723880785549439	-32.6662954675165	-0.00166323996039916	-32.8006152629026	-47.2587696365759	100.059038132367	
881600000	-42.5391940592749	19.5650535880002	-0.0211414130037202	-32.7986766421485	-0.0110383995650563	-32.6289781635002	-53.4793863767723	105.092858534545	
883300000	-43.5748702949858	7.26638581429945	-0.00858866747009216	-32.7568008241631	-0.00671317325732358	-32.749316723179	-45.2995862971829	101.388001972103	
885000000	-43.219730726963	22.9590631767347	-0.0183538911013308	-32.8968694942332	-0.00336786092622176	-32.8725169965559	-53.0634787047574	97.8928239255716	
886700000	-41.8732620602872	14.8129101217733	-0.0236572441439384	-33.0026601021977	-0.0074740695191651	-32.902667176462	-48.1616045534077	142.592675006976	
888400000	-44.330692666322	6.09514892787299	-0.029119601981097	-32.9106634546265	0.00564176716717335	-32.9591802730877	-47.8586004640569	111.459888043211	
890100000	-44.4205287138447	16.9931828338849	-0.0205537292878748	-33.0726353874097	-0.012223311597493	-33.0611391732532	-49.0364235557958	109.610886943918	
891800000	-43.320053837259	12.9135379802997	-0.0212750663217225	-33.1464926147511	-0.00789828931842309	-33.1020645536817	-51.9370994720871	111.066473403338	
893500000	-43.1417702895947	12.2767564751562	-0.0175703025720009	-33.1637445095417	0.000434388402914487	-33.18678921039	-50.4979094796049	127.898284178986	
895200000	-43.2023804648531	15.5574823958321	-0.0112202798948978	-33.2970938084445	-0.00515309490369884	-33.2958250044988	-50.2644494145151	121.658821045732	
896900000	-42.4379829886656	9.77809653534992	-0.0218892783296086	-33.2226752066814	-0.0208407674889581	-33.2855034144987	-55.5493766671798	129.213448764487	
898600000	-42.2184816364288	15.5411675111358	-0.00924264728399812	-33.4524996754259	-0.0101120603557137	-33.3645720959009	-48.9814006081192	99.7436020536161	
900300000	-43.1599105213521	14.2853268489771	-0.0304784021938172	-33.4689291558189	-0.0167177783314088	-33.5091917438148	-47.8685431315335	93.137254387971	
902000000	-42.5747231069557	11.4569969467967	-0.0193826065340991	-33.5523178391715	-0.00220401140250972	-33.4575532957777	-51.5117497639235	125.148251986653	
903700000	-42.9656046795672	11.4730683452422	-0.0179758814577927	-33.6715615957456	-0.00738712471546935	-33.5869669693214	-48.561892140759	127.779794048628	
905400000	-43.7571510556487	25.2846133514361	-0.0340365834804499	-33.7399547665327	-0.00488529564183259	-33.6074193574477	-52.8426676983332	140.036091678716	
907100000	-43.0910364137964	9.64013181611426	-0.0155462098177072	-33.6561197173027	-0.0102805279250794	-33.6998261925218	-53.9155798408986	87.3019889436806	
908800000	-43.9006409426362	5.42359522867144	-0.0320051503339605	-33.7710766816407	-0.000733509449628604	-33.7535599815329	-51.1819903936624	127.170174463636	
910500000	-43.0601554858755	13.6812591685947	-0.0265716458042998	-33.8606732361674	-0.00806101357056542	-33.7032181778601	-52.5870444162268	67.1646752881835	
912200000	-42.7381520269434	16.6787265170201	-0.0289424759833266	-33.8618876258857	-0.0123032383187078	-33.9292831410369	-49.0702932015412	109.06309986485	
913900000	-43.4892362496845	20.9394312538311	-0.040108579580722	-33.9477390334986	-0.00661886474296827	-33.9025748254388	-52.3834416647825	138.898626342838	
915600000	-43.2992696467605	22.2826034917808	-0.0292154659410331	-34.1176750146152	-0.0151198737284522	-33.9576343984911	-49.9972583594124	124.128865867358	
917300000	-43.5506908852078	4.5591962582759	-0.0163791523144795	-33.9818968669023	-0.0108200100489849	-33.9958905526885	-47.9101490395683	107.871497971916	
919000000	-43.8846626465302	4.70626145631399	-0.0340299942356039	-34.1841174633946	-0.0362761280546998	-34.1182165914761	-46.6336856108133	107.764510869763	
920700000	-41.7836614723522	6.59919091421783	-0.0292419631989712	-34.0775845568557	-0.0174704945359889	-34.127341289865	-48.2848868699994	115.777666238488	
922400000	-42.6233996842106	15.0743833659407	-0.0146419274667076	-34.2446387800123	-0.00571661156285418	-34.3426062410475	-57.9042936245693	145.595848175439	
924100000	-43.9489865689994	8.07689492086057	-0.0114087288499282	-34.3586118120666	-0.0197975228776965	-34.3350503888266	-48.4041470044706	107.353534413276	
925800000	-44.2269177763022	14.2995520747786	-0.0160922612721938	-34.4946936967862	-0.00563228384898862	-34.4009022576439	-52.3363698275476	101.008942381146	
927500000	-42.5215283895271	9.0935522891378	0.00291443609536825	-34.4977756298476	0.000333042206492136	-34.4300664447009	-51.0628833972867	118.198547119326	
929200000	-44.9616865091374	8.40660214682047	-0.0201524336076806	-34.6457173718259	-0.0112631370604291	-34.5566817960308	-50.9237510424885	94.0738175304101	
930900000	-41.8719359554054	3.45653474695461	-0.019708208347212	-34.5742826695973	-0.0186363540823993	-34.5009728147598	-49.4633680182081	99.9006552807015	
932600000	-44.3276917800497	16.9004118316526	-0.00802277275342721	-34.6992179669139	-0.00387113640831649	-34.5652258656653	-46.8473193400132	103.828261279063	
934300000	-41.0556792454655	15.6776116357821	-0.034103579394827	-34.6640319639714	-0.0135035057713763	-34.7093812296548	-49.4917535989071	131.897114497513	
936000000	-43.6139726679388	13.8629735402898	-0.0221725027743853	-34.7167830256197	-0.000670082279984583	-34.7877450825404	-46.8461779852314	92.5872064654113	
937700000	-45.2782936132902	7.60187455280175	-0.0161483048167163	-34.9193833828319	-0.0248665895693157	-34.8632013877377	-47.6780161664022	99.6189928094723	
939400000	-43.3595259687869	-1.51213181138652	-0.0275679517516906	-34.8471231589098	-0.0196146582345591	-34.8941046417966	-46.6022950191432	110.115230515039	
941100000	-42.8541901372118	13.0705441748593	-0.0375122600421957	-34.9634438734047	-0.00673804052481936	-34.9258234744641	-47.5753625053098	99.8498014966001	
942800000	-41.669398601477	-2.99615333441094	-0.0231080506216784	-35.0183283605363	-0.0173204865152789	-34.9174758705134	-50.8326346098742	66.720655537342	
944500000	-42.3183473731163	15.8282461927439	-0.0236947427920102	-35.1255166957986	-0.0117451355022228	-35.0410738179142	-54.8783179470551	105.989263024858	
946200000	-44.7303362383	-1.04386090499122	-0.0124983742187354	-35.1843854422505	-0.0166318456633489	-35.1520900454638	-49.1913229737742	132.517730302942	
947900000	-42.7721792463416	4.32719710992746	-0.0352118983450926	-35.2158682999424	-0.0199888867395347	-35.2197031244764	-50.0144928620322	73.6920425854059	
949600000	-42.3402867301748	-1.56335146090319	-0.0105814252384261	-35.2761409908906	-0.00239316994516058	-35.2695436091122	-53.2967604198217	123.835077959854	
951300000	-41.8074131402695	10.9933716474917	-0.0201432951574806	-35.3334277643292	-0.0257610086136414	-35.3048074371673	-49.4944420993615	100.212862225381	
953000000	-41.6016102199384	18.0878242074761	-0.0261981174622887	-35.4184790544083	-0.0174219727714893	-35.4274857235847	-54.2558049966653	73.4204534423195	
954700000	-46.0350142585768	-4.50345830824538	-0.0173076670974196	-35.4940119201991	-0.00781356941998559	-35.4749768538771	-49.0496122310323	103.84150009363	
956400000	-41.5744252044349	-4.44179680587028	-0.0374915379518622	-35.5222138793696	-0.0197892278455562	-35.6023171296319	-48.1872391493365	107.097059743763	
958100000	-42.6054875693989	-3.2914279009073	-0.029075114833071	-35.6658388393786	-0.014103958364969	-35.6676788236139	-53.8317754207816	83.2235658874999	
959800000	-42.4332629350363	17.3032356580234	-0.0309960918215788	-35.5949564375144	-0.0160450594421306	-35.7002176157462	-50.1478962508043	106.340210104606	
961500000	-41.8903054407621	2.81308070613271	-0.0232470131642912	-35.8271695009114	0.000378569155820958	-35.6822985646654	-51.2788588662621	83.1698542197298	
963200000	-42.7622250948983	2.12280276641422	-0.00473727609065423	-35.7601918742067	-0.021401648926566	-35.8438760000814	-48.2733969327814	99.9798245055716	
964900000	-43.1136671598736	-4.88910215639548	-0.0127807641712724	-35.8118536657403	-0.00675595507465499	-35.7727520754626	-50.3770973410576	114.57714283313	
966600000	-44.7645576407062	-12.6746571536974	-0.0175760816061204	-35.9332129343388	-0.0104823751710001	-35.9716371257388	-48.1742571079672	107.955254175833	
968300000	-41.853140789004	-4.69980309667378	-0.0247435417955358	-35.9428416281787	-0.000695814078418026	-36.0189162756641	-47.5245893252256	94.8922685133188	
970000000	-45.5858720347446	8.80817716580988	-0.0126998115785766	-36.0279904112975	-0.0130596816634421	-36.0309519397356	-52.3277932137161	95.6456271572171	
971700000	-42.9387436088347	3.1597472464929	-0.0158048308911122	-36.166947200867	-0.0210937007180041	-36.1387985238834	-49.4160522812997	80.9200465171731	
973400000	-43.5722785994469	-4.30849028297886	-0.0134087345818919	-36.1333554229301	-0.0138821061904557	-36.2722406945191	-47.2345356198476	107.70415827834	
975100000	-43.3114123517559	-4.62781021103006	-0.0206047464139267	-36.2793512331064	-0.0178036547211345	-36.227817492122	-49.2477729978525	112.474853442044	
976800000	-43.380516423551	4.52244880874629	-0.0350611779059592	-36.2937592062633	-0.0118854359379258	-36.3469024875555	-48.8734672884289	97.1117077028308	
978500000	-41.6755633313764	16.5601799832423	-0.0190802500750495	-36.3568678230984	-0.0120195647654497	-36.3007837999927	-49.2100804821031	91.7119936933456	
980200000	-42.0067425352382	-8.42224722383384	-0.0170234468368572	-36.4554339678809	-0.0119407615165934	-36.5444741421783	-47.3536394521488	108.490621617545	
981900000	-41.9083771399513	6.16541603456998	-0.0284868986579331	-36.4654214224609	-0.0181744897511733	-36.4789348232729	-50.507263646675	84.7380612234615	
983600000	-41.3725768879148	7.72396673062657	-0.0161026012589435	-36.6479186488267	-0.00586825342212606	-36.6215361000712	-51.172736679709	111.507499771657	
985300000	-41.7936329969686	-3.17554109182317	-0.0370282270936718	-36.6024997525186	-0.00912958959727701	-36.6745201307798	-46.4049266821213	106.241861295442	
987000000	-41.3440923273819	1.35627422209113	-0.0205513105086133	-36.5425173586193	0.00538968265117318	-36.7482238136961	-48.8898190069525	121.825308916636	
988700000	-42.3369519503676	-8.05330266183342	-0.0157430083127651	-36.8518533368676	-0.00269845899112804	-36.8036517593418	-52.0361260244733	83.588033466955	
990400000	-43.3010975621166	-4.39471538075584	-0.0110846924025198	-36.8692448173405	-0.00437305220128579	-36.7866198155702	-50.2574445072691	132.774022505613	
992100000	-41.6031484841523	6.99950900684565	-0.0228808237901844	-36.8074541704834	-0.0127050875689889	-36.8477467172641	-47.240282533265	115.52784406163	
993800000	-42.7655470882183	-9.29396583207871	-0.0115156263222915	-36.9013874978557	-0.0125976909487449	-36.9247255096368	-51.4727112292488	126.657174922261	
995500000	-41.3420628781547	-0.126305351360337	-0.0397691629484241	-36.8916986522092	-0.00492901273484453	-36.9757758851337	-48.7906382615541	102.684084324489	
997200000	-42.1128340191157	-1.43482150156951	-0.0200693041136929	-36.8755679614171	-0.0224596396289369	-37.1046352796164	-51.3542315146287	119.853493320112	
998900000	-41.884775498101	-4.59118104658435	-0.0229355577458579	-37.06157085987	0.0114130041082736	-37.1860040466947	-51.7152167656602	116.67168958466	
1000600000	-42.7394536441205	3.03953166466053	-0.00916956816097823	-37.2052944882284	-0.00309928916198598	-37.1953927373976	-48.2119378660701	115.627857324831	
1002300000	-43.4969326682989	7.66736020140606	-0.0242342092136286	-37.1177448338854	-0.00167494325696576	-37.177849960862	-48.3640240573883	129.015973425983	
1004000000	-42.2823389586565	5.01020947637357	-0.0201935011433502	-37.3279812645537	-0.000307095456398309	-37.368675682169	-47.6787268800658	134.665772104344	
1005700000	-41.4136717021432	2.69434943095498	-0.0240126908040475	-37.3152175230833	-0.0205652634486837	-37.3209708802763	-49.00135412279	117.828754608291	
1007400000	-43.9323566498352	2.0127470463343	-0.0413707016806759	-37.4702964066913	-0.0189023784417561	-37.4635400526979	-50.6290565721772	93.5920218055034	
1009100000	-41.5729618673795	1.66052236488705	-0.022490078341943	-37.3554390243486	-0.0056904024501475	-37.4688943543428	-50.2530386260185	115.853253229465	
