!Keysight Technologies N9950B: A.12.38
!Date: Friday, 14 April 2023 14:09:33
!Timezone: (UTC-06:00) Central Time (US & Canada)
!Model: N9950B
!Serial: MY61131330
!GPS Latitude: 
!GPS Longitude: 
!GPS TimeStamp: 0001-01-01 00:00:00Z
!GPS Seconds Since Last Read: 0
!CHECKSUM:1986026312
!Correction: S11(ON U)S21(ON U)S12(ON U)S22(ON U)
!S2P File: Measurements:S11,S21,S12,S22:
# Hz S DB R 50
2500000000	-0.243888160899041	-142.082197751223	-36.8869728453076	-28.0444191028059	-37.1312162773046	-28.499552145666	0.0168041356449449	-75.3629137003465	
2510000000	-0.246583737105123	-143.600064838361	-37.0674485194781	-30.0036584950246	-36.899105191206	-27.8173330473102	-0.00672004247022478	-74.8092108298245	
2520000000	-0.272107578426132	-145.155770206809	-36.8844053819756	-30.1072891701386	-37.0073214403746	-30.7778305830353	-0.00293984318661114	-74.6016122868064	
2530000000	-0.25939816798864	-146.789625762904	-36.7303900827831	-30.5033741625655	-36.7639842745644	-29.9229673210795	-0.0100477658080708	-74.0678739643298	
2540000000	-0.278332962640862	-148.239598958409	-36.838874349701	-29.019645445675	-36.9137063903536	-30.7139596243968	-0.00162504579811688	-73.5885215119888	
2550000000	-0.250433975065858	-149.715424226938	-36.7955988183877	-29.0085366400921	-36.8530354255462	-31.294401687714	-0.00935801613814774	-73.2212906810639	
2560000000	-0.270444066269903	-151.210286447143	-36.9083232994807	-31.0095170166915	-36.9096581508878	-31.597757126703	-0.0136547783514058	-72.9129676465501	
2570000000	-0.251254292410793	-152.606464654518	-36.742061105214	-31.5510585667052	-36.5144215263822	-31.5881823785076	0.00236071958175254	-72.3653456273109	
2580000000	-0.239159636201027	-153.770164533927	-36.5748951496464	-30.936824278056	-36.5940271184684	-32.050929882483	-0.018189649381553	-71.9743703497471	
2590000000	-0.251120009543066	-155.100889419946	-36.6903271135114	-33.4772844714889	-36.5985180319576	-32.8941861322604	-0.0286062218201022	-71.5901661542141	
2600000000	-0.251963565111485	-156.424824752008	-36.4006999322224	-34.6761770133353	-36.4701460630407	-31.3652130460623	0.000336693080068376	-71.2241903910298	
2610000000	-0.259429272281113	-157.703796740162	-36.5211401436806	-32.6714801084511	-36.4548948416349	-33.6407931443061	8.26828232616987E-06	-70.8513762684092	
2620000000	-0.269933541633678	-159.365366673572	-36.6642475389414	-34.2768458093684	-36.6231224957402	-35.0277942358139	0.0118023401236498	-70.4266950759447	
2630000000	-0.266483505666987	-161.082405622711	-36.4487033837584	-36.6362744159747	-36.5078872553088	-33.7597867713697	0.000211453936373821	-69.6597355127326	
2640000000	-0.276040437900944	-162.562567049829	-36.4625942347676	-34.3399347756137	-36.2216113123708	-34.658691768862	0.023676211361567	-69.4282952938879	
2650000000	-0.275350937537921	-164.202806795298	-36.4438873227738	-35.4596522499181	-36.1902846343896	-38.4345811197739	-0.0097740742960005	-69.0870304988782	
2660000000	-0.267215673833301	-165.851612583365	-36.3381647526813	-38.9848572929316	-36.2893811581338	-38.0288612907959	-0.00741926819737773	-68.59417916444	
2670000000	-0.266453230283716	-167.433101705825	-36.0655110897206	-38.0037560241257	-36.1312459429766	-37.9799313827945	-0.00831405165510603	-68.106813187463	
2680000000	-0.268704001017803	-168.86094257541	-36.1913754877521	-37.2727832559282	-36.1211259390842	-37.9276855402329	-0.00253140230092198	-67.6856900265943	
2690000000	-0.254311305672882	-170.354432163201	-36.3328840104678	-37.3885450977127	-36.1146014238653	-38.2025651855375	-0.0171623863123959	-67.3814760198215	
2700000000	-0.253499965422809	-171.665809021753	-36.076798400145	-38.8111334705569	-36.1814956686484	-37.4417781261615	-0.00508999759915531	-66.9642225897502	
2710000000	-0.263127945922191	-172.898417963978	-36.1294216452058	-39.7998135118505	-36.0899140336525	-37.8774513171055	-0.00987941812865799	-66.5248378734095	
2720000000	-0.275715806610733	-174.150617948338	-36.0159585131777	-39.1096213381669	-35.969010981435	-39.1319113820669	-0.0258901956601005	-65.9925822279711	
2730000000	-0.259846695736969	-175.508325001818	-36.1696229624809	-41.5028825960228	-36.1567197723776	-39.111892627405	0.0115051114080974	-65.5672048596757	
2740000000	-0.263259187323274	-177.089327370888	-35.7698142162723	-40.2366729183276	-36.0463060242301	-40.7469580212989	0.00677722025152265	-65.3455686139548	
2750000000	-0.281361941723415	-178.611386717778	-35.7707300394289	-41.4790404381991	-35.8864670274407	-40.7126153489792	-0.0141787792738601	-64.8389385249695	
2760000000	-0.28918253171281	179.80949339464	-35.6590333930741	-41.7758131168748	-35.9159410624481	-41.9328491271845	0.008817180540163	-64.3155466191073	
2770000000	-0.286066526212837	178.157184600027	-35.9414435719589	-41.4365213303118	-35.8029214607334	-42.0938836463139	0.0176807995683042	-63.9286766145092	
2780000000	-0.275706401783704	176.32619828844	-35.8377079913503	-43.0105783274542	-35.808398237055	-42.6080892635533	0.00191723030158858	-63.4507777801043	
2790000000	-0.282159885149718	174.818214309006	-35.9699017068622	-43.1081060887604	-35.9666011257382	-43.8075185596808	-0.0018950276165998	-63.0110537638604	
2800000000	-0.27912799975983	173.443635185992	-35.7809265211332	-45.7953835744957	-35.7101341123726	-43.7815378644923	0.0139417339879794	-62.6593619987313	
2810000000	-0.298120832562328	171.709140784718	-35.6787193400338	-43.9546838006425	-35.7525841115207	-43.7387290777103	0.00322021198365559	-62.2011961760032	
2820000000	-0.267407139138475	170.408863972897	-35.7238636997774	-44.7668554534542	-35.8126753089011	-44.9758048172289	0.00303245484314856	-61.8434256113961	
2830000000	-0.271327218085903	169.137955581902	-35.675773866163	-45.411592510158	-35.8946271237702	-45.1878657110162	0.000454915373291109	-61.3975480967596	
2840000000	-0.267512148793839	167.875891587354	-35.9712801741977	-46.5643406294537	-35.6645448794126	-46.5687627736402	0.00336276009990205	-61.012492928951	
2850000000	-0.275039564810116	166.532032380416	-35.5497430127286	-45.8703652265759	-35.6485764516934	-45.9109912780985	-0.0251235910871729	-60.53643290515	
2860000000	-0.277225882448823	165.204908401126	-35.3153178118642	-47.7057144741218	-35.7064974923714	-46.468131807573	-0.0105302699108222	-60.1054772222343	
2870000000	-0.296276887346016	163.748714145532	-35.5575077253231	-46.2301079970512	-35.5751723760306	-47.3233522787167	0.00489989425340227	-59.6755124587639	
2880000000	-0.280239601376482	162.019527148456	-35.3221996295641	-48.0053019135257	-35.2817612328865	-48.3498550170182	-0.00355959293939241	-59.3625350673932	
2890000000	-0.303440236973917	160.427355966024	-35.4490091748032	-47.000740154786	-35.4342042796117	-48.4042911112101	0.00361574599591619	-58.9579663814541	
2900000000	-0.310360633160174	158.580425823147	-35.3409374455492	-49.0555933874602	-35.2606942267515	-49.0707432966791	-0.0170081694063686	-58.5796571704854	
2910000000	-0.303040277138424	157.006727950702	-34.9963950644605	-49.8355216173698	-35.2574687574914	-49.3246368209945	-0.0137000673348916	-58.0085574317825	
2920000000	-0.300563715852341	155.317798420736	-35.3028977411016	-50.8232460606939	-35.3440333795241	-49.8637335556966	0.00430187638101255	-57.536252214331	
2930000000	-0.302581564257352	153.728784540349	-35.053067041251	-50.5203453813705	-35.2947567219513	-50.8399465071525	-0.0110854084042465	-57.2119316618319	
2940000000	-0.312380832757924	152.238994693971	-35.1909526033874	-51.2999832411016	-35.2100893800267	-51.5885945187025	0.0130679960692785	-56.7327802433249	
2950000000	-0.286274990765726	150.782218821107	-35.1540887260193	-49.9485783118006	-35.083040957338	-51.103235443951	-0.00686904980123441	-56.2914827405511	
2960000000	-0.275969257249645	149.560994497009	-34.9579233853285	-52.0852683387225	-35.1127290134519	-50.6635102798871	0.00517935301915051	-55.747111391993	
2970000000	-0.285553479227293	148.101001659192	-35.0750516370928	-52.0151778159841	-35.1464010029327	-52.3552353984505	-0.0153049687895809	-55.3348173619644	
2980000000	-0.297500846415009	147.000515731004	-35.1274418498953	-53.4101075541143	-35.0429031891979	-52.6870812866602	0.0107803465214018	-55.0271470936302	
2990000000	-0.279945708733716	145.49901152217	-35.0433387348009	-53.6425335638579	-35.0849523816779	-53.4609817018734	-0.0208227378304664	-54.5829542803655	
3000000000	-0.309879562982767	143.839255153448	-34.853141897064	-53.5713173279115	-35.1332183407679	-53.761440919967	-0.00597058692398474	-54.1925319358182	
3010000000	-0.320799052158965	142.37781103266	-35.0155022802455	-55.4807005338898	-35.081861693106	-53.7401804141838	-0.0140110126465468	-53.7212753285273	
3020000000	-0.314163960394555	140.721867460411	-35.0095025409291	-53.3619706107439	-34.9048636072867	-54.8541682202611	-0.0164871532216646	-53.340756009621	
3030000000	-0.313865063676762	139.011631959543	-35.0190976511505	-55.3384114050102	-35.0961739161251	-54.442799639523	-0.0159943735932725	-52.8556572104929	
3040000000	-0.317257844784563	137.319443290812	-34.9817897398938	-56.9344101213246	-34.8352512216274	-55.4344997542672	0.00366868578674655	-52.5956513299539	
3050000000	-0.323433528355178	135.747704850316	-35.1703501683361	-57.1570954539278	-34.8369460795115	-56.7495787681106	0.0161181638072411	-52.1777483390797	
3060000000	-0.312054318275226	134.090719359724	-34.8616219274974	-58.0835000519548	-34.8032141311712	-57.3023064831415	0.00955754028283893	-51.7030097391488	
3070000000	-0.333548481014544	132.703032047271	-34.8645566510897	-58.9146193158036	-34.7920697418219	-57.8656067342505	0.00331249270840913	-51.0922172600856	
3080000000	-0.32240844332925	131.367600227249	-34.7896431368782	-58.5212657865386	-34.7855567982312	-57.7848150769996	-0.0182722148132138	-50.5271945501702	
3090000000	-0.301047427226737	129.992169892414	-34.8782815585775	-58.2362172421692	-34.8469565644355	-56.865869924695	0.000652628221999129	-50.4069631119269	
3100000000	-0.289442256292018	128.74599325079	-34.7599092287487	-59.7325329075357	-34.701430224928	-59.0591464211876	-0.00305594304307811	-49.9138655169514	
3110000000	-0.300274340810225	127.506220743327	-34.5273720180005	-59.5097310802549	-34.5933522531775	-59.4423090726615	0.0031021209514298	-49.4105640973092	
3120000000	-0.32859157177176	126.052236797932	-34.6315712424627	-60.6960301321505	-34.7295054800323	-59.537450822735	0.0101294414738394	-49.151932509885	
3130000000	-0.318715167693762	124.511003843659	-34.578517627915	-60.8604768132932	-34.594325341726	-60.7076254411272	0.00331379428061358	-48.6573290035191	
3140000000	-0.3491941828626	122.848347581274	-34.5653690120588	-61.2497813129398	-34.6324667141581	-61.3970535336213	0.000843362987139918	-48.2060905736094	
3150000000	-0.337604231660086	121.26984953272	-34.6032625349049	-62.3579697295661	-34.4893623269146	-61.1969972541234	0.0142272905713414	-48.0089307587559	
3160000000	-0.347899603950493	119.52169523833	-34.5499787628705	-61.8184436816204	-34.4267327027705	-62.7464980493619	-0.00951627046871971	-47.6176142735344	
3170000000	-0.342114264191106	117.701075515821	-34.7168953544429	-63.2812614863678	-34.5492730522729	-62.609743085385	-0.00596900684539531	-47.1589614382848	
3180000000	-0.342029378952156	116.155750676899	-34.5722755639903	-63.8385261227983	-34.5013968173691	-61.7418811261764	0.0153192586376946	-46.6658139347259	
3190000000	-0.340690571138619	114.67287094907	-34.580350149968	-64.094846114589	-34.5218396815459	-62.5010699097329	2.59863926019731E-05	-46.1335862976606	
3200000000	-0.31280027831442	113.231829691446	-34.4568622353107	-64.4668278634907	-34.4724073421626	-65.1011539279915	0.00021691647453756	-45.6599913801778	
3210000000	-0.324849946768962	112.064078325167	-34.4488140488524	-65.5928319108722	-34.4330847695145	-65.4280509437917	0.00289006500018737	-45.336809197872	
3220000000	-0.317366297190101	110.782020905718	-34.6710434505776	-65.2151519304191	-34.41171553371	-66.1264826406107	-0.000291999549710826	-44.9289090529794	
3230000000	-0.308418424574236	109.467988607204	-34.3528304658172	-65.3473930182699	-34.399508972587	-66.4934322547548	0.00712033485924856	-44.3944819791567	
3240000000	-0.314472743625552	108.076878852797	-34.350660350519	-66.1095501075264	-34.4149417295136	-66.3132423424817	-0.000458979875292864	-44.0495771891484	
3250000000	-0.353140851810737	106.67816072803	-34.2820892322651	-67.2382706737858	-34.2508435365544	-66.6920192264737	0.00466821715111261	-43.59260126008	
3260000000	-0.356484031546508	105.057690694579	-34.152753758305	-68.254026191872	-34.3141956408553	-67.5507685696274	-0.00471806870202551	-43.1118872095168	
3270000000	-0.353747213560581	103.515764872501	-34.1854561298507	-68.881808002202	-34.263196642624	-67.749584973981	-0.0104997524508303	-42.9123531711674	
3280000000	-0.34976965343972	101.681485359409	-34.2363922568091	-68.2606172118039	-34.2634699736	-69.0820304145678	-0.0142632990654228	-42.3628811388163	
3290000000	-0.372550994024083	99.976469858814	-34.2853709141591	-69.9932369066001	-34.261516943008	-68.8610207307788	-0.0100464248527235	-42.0018843216429	
3300000000	-0.370836535726127	98.3742473235658	-34.1944827266822	-70.6527016098614	-34.2261475163647	-69.6594969327427	0.0142076328139963	-41.6038930720153	
3310000000	-0.361772260663175	96.880311109974	-34.1278144674633	-71.0176483912364	-34.1507396455035	-71.414018639937	-0.00100095497097636	-41.182776094394	
3320000000	-0.348657910010021	95.4817842755723	-33.9989910025017	-71.6219962221551	-34.2034151658344	-71.3534566643264	0.015063160738404	-40.8411357771903	
3330000000	-0.330718570221733	94.0171595110434	-34.0415954022265	-72.3469265984356	-34.2542510196296	-71.4207643097368	0.00402636504989376	-40.3986977968513	
3340000000	-0.329968758617638	92.7194487887203	-34.0404693892779	-71.4740470412626	-34.0467900867836	-71.4312190041772	0.0212781309622603	-39.8168150011938	
3350000000	-0.342819097294942	91.6758317163197	-34.0411012778528	-71.6912397640224	-34.2526531173161	-72.4402463914265	-0.000311645419648141	-39.3649648433735	
3360000000	-0.324657981860197	90.3844714094146	-33.9302301823525	-72.0778340079792	-34.2785712920104	-72.9550762411225	-0.00310636403010916	-38.930713383806	
3370000000	-0.3393120758426	88.9603355933333	-33.9673632205999	-73.5644041788757	-34.0624419218328	-73.4137929953442	0.000761757063039045	-38.7043134737732	
3380000000	-0.332845117366224	87.6952567369275	-33.7781977265957	-73.4145520953389	-34.1824089890743	-74.7075239387765	-0.0120959160845214	-38.2491033452044	
3390000000	-0.342408348133913	85.9340182077093	-34.137925333721	-74.8901459875091	-34.0201479086672	-74.2400961874444	-0.00764797195433353	-37.8336109132583	
3400000000	-0.363204794883084	84.3242265683173	-34.07517734978	-74.7104739351566	-33.8401586992152	-75.515178902472	-0.0129242758035272	-37.4250802312914	
3410000000	-0.382746497589943	82.5645615760932	-34.0151427815563	-74.8064552764498	-33.8268018907999	-76.0687224311938	-0.0105832395870585	-37.0022440536133	
3420000000	-0.366850828190675	80.8603226698533	-33.8485824570104	-75.2768680845203	-33.855437725018	-76.423476730843	0.00825788894424525	-36.4981605647285	
3430000000	-0.363258060948856	79.3793476238069	-34.0796985652422	-77.441582052677	-34.0787717552576	-75.3752069799492	-0.0189589490648893	-36.2992714542789	
3440000000	-0.379543801560266	77.7638728157733	-33.8547164355087	-77.2310200474796	-33.750329854145	-77.7673973359419	-0.00545416833104816	-35.7634039833121	
3450000000	-0.37442212044753	76.5904122437957	-33.7814116819914	-77.9716148823496	-33.8925649346153	-77.027746804515	-0.0145316814402998	-35.2992482953847	
3460000000	-0.360186071652799	75.230447367172	-33.9202707376281	-77.6910572285506	-33.9872449507574	-77.5151797392328	0.00314795142175641	-34.9748270598882	
3470000000	-0.348382402057345	74.0192370176427	-33.8992720536133	-78.4103151603545	-33.7740827932974	-78.2768793802742	-0.00773399489324512	-34.3433289391622	
3480000000	-0.338118023958755	72.8307094226358	-34.0692850751085	-79.1830241478902	-33.8480169923018	-80.0132013399258	-0.000716174176318379	-34.1161533943286	
3490000000	-0.342507642739964	71.5702388152115	-33.7561159251913	-78.960962245045	-33.8992535893588	-78.873704422929	-0.0148796223635557	-33.6407515322353	
3500000000	-0.327461260492484	70.0909941699966	-33.7062322091134	-80.2739933823564	-33.7233029192467	-78.6645428989409	-0.0231531870879156	-33.0978959734065	
3510000000	-0.357890962035427	68.7730659870656	-33.7422060773512	-79.6356140664189	-33.7044626077534	-79.8819599118828	-0.0228955257177423	-32.7390138406241	
3520000000	-0.364306844013852	67.0975627546835	-33.6128937049118	-80.8490865723032	-33.7064014470634	-80.8462648292037	-0.00867158719080813	-32.3744153103832	
3530000000	-0.385191768989225	65.543035064911	-33.8437024245669	-82.3488928730023	-33.4913500104964	-82.3023068144759	-0.00863983912635171	-32.1418583622075	
3540000000	-0.388356800928792	63.9928100050852	-33.6216620663839	-81.829704683048	-33.5466055040467	-81.7901098339527	-0.00871612559119517	-31.590315243015	
3550000000	-0.390481486294138	62.3316742471962	-33.5587710029844	-81.6500798844652	-33.6151111001456	-83.6111149132607	-0.0218464218424296	-31.2160089013951	
3560000000	-0.370542665334371	60.856773691981	-33.6480160681567	-82.3816933935635	-33.6806842175946	-82.2480174002855	-0.0220672554671844	-30.8109718228134	
3570000000	-0.353515726778196	59.4378346171427	-33.7422508810851	-83.008182610812	-33.7287360545457	-82.8964557885691	0.000213916667365482	-30.4792879937641	
3580000000	-0.361974466081206	58.0013189003161	-33.7556603229851	-83.7262425236148	-33.6018508097865	-85.2361033090403	-0.000383204753340134	-30.0569341630781	
3590000000	-0.349402716872039	56.8139257719098	-33.5722384652353	-83.2439168003016	-33.6284638847272	-84.7537736763163	-0.0214331354190538	-29.6598701133368	
3600000000	-0.354314528516906	55.6384940345679	-33.7330681380791	-84.4849924866567	-33.6666199820142	-84.5688114343151	-0.00116161001518873	-29.1749526756328	
3610000000	-0.333228030737848	54.5250218664026	-33.6316268075729	-85.8729617610595	-33.5480547019853	-85.4624461392564	0.00304821319002177	-28.6368342087756	
3620000000	-0.351463417513145	53.2036173573722	-33.5453576974458	-85.5109398375447	-33.4057110264295	-86.3829360963815	-0.0152710543946682	-28.3269640399874	
3630000000	-0.335485245460105	51.7983106072262	-33.4279051846008	-86.0769498155859	-33.493075656252	-85.1201662177899	-0.00677872585790876	-27.8745848583146	
3640000000	-0.360909978236039	50.3857831050565	-33.2739147278488	-86.8259457890019	-33.4587763498528	-87.160138719139	-0.0319732815631746	-27.5065727345105	
3650000000	-0.368437196791099	48.8356086924638	-33.2387747593696	-87.7168530224173	-33.5193038239608	-87.783020627346	-0.0181177242105191	-27.0759356343128	
3660000000	-0.387103775101895	47.2166881492814	-33.3606605813571	-87.2056240653982	-33.5330720102656	-87.9135669170511	-0.0280401307484625	-26.6678988952935	
3670000000	-0.368345230569668	45.5765821196719	-33.3432405456943	-87.9574689047172	-33.6152978493215	-87.1628196178202	-0.0217030753931279	-26.2725220584277	
3680000000	-0.404624489097404	43.9525548030991	-33.2918777205144	-88.8923106295618	-33.3631315974035	-88.4723693728193	-0.0336802984337082	-25.806327207092	
3690000000	-0.392675077734115	42.6172980174145	-33.3580212337277	-89.1386258633137	-33.4074021529856	-89.1310030382983	-0.0155600141859521	-25.5160602014466	
3700000000	-0.359995235271374	41.2251835582724	-33.4214896731414	-89.2258099179728	-33.2631767099593	-90.3178951488265	-0.0333362452637264	-25.1665045495295	
3710000000	-0.350888466376903	39.9040643361262	-33.3294287446337	-91.3112528099583	-33.3087188554222	-90.0131290950622	-0.0164289173669141	-24.677257966698	
3720000000	-0.365891378964089	38.8630580881858	-33.2962173050793	-90.8150805035314	-33.2432083508698	-90.6834016858792	-0.0181581905499844	-24.2583076162838	
3730000000	-0.357846654505529	37.6746363280679	-33.4673840212101	-90.442658413292	-33.3635207389338	-91.1442575173228	-0.030960140635652	-23.838374613094	
