!Keysight Technologies N9950B: A.12.38
!Date: Friday, 14 April 2023 14:47:12
!Timezone: (UTC-06:00) Central Time (US & Canada)
!Model: N9950B
!Serial: MY61131330
!GPS Latitude: 
!GPS Longitude: 
!GPS TimeStamp: 0001-01-01 00:00:00Z
!GPS Seconds Since Last Read: 0
!CHECKSUM:1734243936
!Correction: S11(ON U)S21(ON U)S12(ON U)S22(ON U)
!S2P File: Measurements:S11,S21,S12,S22:
# Hz S DB R 50
800000000	-8.5737335129609	-164.508177766239	-0.710416126320074	-56.0864418837194	-0.702040854593296	-56.0257491821312	-8.43569158492242	-127.6049778195	
801700000	-8.54206158352678	-164.522343247965	-0.71591558252836	-56.0930523196616	-0.69543589655876	-56.1585529553644	-8.43096007555792	-127.779885216656	
803400000	-8.5575307380541	-164.647060122537	-0.714931990976984	-56.2227619157055	-0.705865389338261	-56.169094148349	-8.43060502345866	-127.717198178606	
805100000	-8.55121776480755	-164.802298285607	-0.706717095301627	-56.1833685481059	-0.707695126041523	-56.3609907555523	-8.43590890203673	-127.683591717663	
806800000	-8.54888307337884	-165.020950151307	-0.720874521566762	-56.4227637209708	-0.699025153786591	-56.4300625144758	-8.43415186755367	-127.912872596822	
808500000	-8.52632717168699	-165.036560160472	-0.718744875156927	-56.4792028988728	-0.715714482507846	-56.5881168315744	-8.41794007942926	-127.95294044445	
810200000	-8.52111656010463	-165.436179897548	-0.710967231736159	-56.6638457867322	-0.70904589370224	-56.5614352231143	-8.4166673450459	-128.045341552842	
811900000	-8.51364574289548	-165.458142146309	-0.735684571698409	-56.7727787866705	-0.698312080873995	-56.7501173851172	-8.43552909692175	-128.058949665443	
813600000	-8.56016316487848	-165.513162229316	-0.716770538655711	-56.8876325226824	-0.695215135727086	-56.902514122078	-8.41085639524388	-127.883633209232	
815300000	-8.52320523051962	-165.786644224492	-0.708153998004056	-57.0105249614774	-0.702589625109116	-56.9620445058173	-8.37477882717156	-128.163507547372	
817000000	-8.49587860160179	-166.125167976674	-0.715760364234771	-56.8942302785158	-0.711227356249856	-57.142103908875	-8.3917120622949	-128.316357819101	
818700000	-8.53966206008479	-166.213820979855	-0.718319529885414	-57.1946204873593	-0.714393925340614	-57.2317532071549	-8.41184274416087	-128.241997624404	
820400000	-8.52758458014439	-166.018786989856	-0.722828555082916	-57.329793467945	-0.705769743538443	-57.3424257224997	-8.38984415344697	-128.314076284774	
822100000	-8.51501216157533	-166.296851021017	-0.718678945615952	-57.4197049982502	-0.713134420500647	-57.4391546078858	-8.36795815538101	-128.488553259366	
823800000	-8.50337186305693	-166.421051715327	-0.723237549012365	-57.4614332659779	-0.726752675246714	-57.5692105262648	-8.38729997601526	-128.517339118296	
825500000	-8.48488649464523	-166.681533280218	-0.713820089860046	-57.5693436974145	-0.711792146211527	-57.5723766174146	-8.34836211924483	-128.549055593049	
827200000	-8.49939611870926	-166.709651140802	-0.712375608774597	-57.6643795769424	-0.711043717636381	-57.7032542626233	-8.39055607500452	-128.592234647909	
828900000	-8.49293038492896	-166.926099788691	-0.736925944858808	-57.8401066551418	-0.713837047890432	-57.7860171745846	-8.34756353295298	-128.633949948309	
830600000	-8.49405462178636	-166.939816040632	-0.712039709259859	-57.9305384118323	-0.713486549092342	-58.0142292243496	-8.3503986365683	-128.838422392069	
832300000	-8.50883430816844	-167.146444609696	-0.723426230788649	-58.0302496104018	-0.729544154080692	-58.1513565543549	-8.33751573837582	-128.717508521216	
834000000	-8.49072549813945	-167.382999580706	-0.732258047369482	-58.1219034238088	-0.719907676913847	-58.0104436076983	-8.30933266280088	-128.75751517171	
835700000	-8.47928234907883	-167.370621393744	-0.72664658169567	-58.22765342899	-0.736944614330745	-58.3001027374355	-8.30203166573703	-128.996118443794	
837400000	-8.48646919049243	-167.635363970105	-0.738014009044391	-58.5195896676688	-0.734108218913628	-58.3572806641327	-8.35008498589477	-129.111155264078	
839100000	-8.48964553428505	-167.708071430472	-0.751173410552325	-58.4630817637156	-0.733685449339819	-58.4955584311769	-8.31093710693064	-129.119479449731	
840800000	-8.45433342013068	-167.964148266631	-0.731340576944545	-58.5852007535289	-0.73282599828679	-58.4869020521848	-8.27410459299447	-129.144777374962	
842500000	-8.48651494218913	-167.976957292181	-0.736593679769054	-58.5622255469786	-0.724517456329945	-58.7753081124246	-8.32622403047052	-129.166995393515	
844200000	-8.46578775929764	-168.456349577409	-0.733735664664958	-58.7208402018421	-0.728854212938036	-58.7259084223687	-8.29377252404107	-129.30482544079	
845900000	-8.43823934334365	-168.40616602761	-0.72108247925123	-58.8789015881988	-0.713765653038465	-58.9121632034015	-8.30013366090027	-129.270906056864	
847600000	-8.46274841727777	-168.513454251092	-0.737632133562044	-59.0212257829068	-0.72852225765038	-58.9892560764493	-8.26904993150211	-129.320704286806	
849300000	-8.46914948557691	-168.561140514168	-0.747485762717421	-59.1009224643143	-0.731051219348005	-59.1363920409374	-8.28406787501829	-129.511963083053	
851000000	-8.39728105522473	-168.817233025651	-0.718756861550467	-59.1612798762523	-0.745837787228075	-59.2791790750942	-8.29170063689195	-129.517983905468	
852700000	-8.41871310392947	-169.102919767162	-0.737679986226014	-59.3367348620032	-0.732959542826635	-59.2787062196766	-8.28378196352233	-129.528208475992	
854400000	-8.45694687023531	-169.123592147484	-0.748422788965333	-59.296643361051	-0.747718139072978	-59.4149201263541	-8.26512633251288	-129.679944604094	
856100000	-8.44776206944688	-169.302663051437	-0.745854629526511	-59.5980771667779	-0.733177445484622	-59.4514373232811	-8.25948690491992	-130.015158918292	
857800000	-8.40013073019018	-169.245486113839	-0.73917649364728	-59.4891682649249	-0.744324259121909	-59.5760239129674	-8.22738680561115	-129.665916508218	
859500000	-8.44594369172776	-169.489635139314	-0.743805115525929	-59.650977483387	-0.731944271030099	-59.6997950355423	-8.25508687165036	-129.803741431785	
861200000	-8.42473497668104	-169.538272419612	-0.754058863310065	-59.7667657731375	-0.72670716172663	-59.7500217816675	-8.24211626563932	-130.066443819693	
862900000	-8.434912663715	-169.858074004821	-0.741347623829309	-59.9605697036671	-0.740194441683759	-59.8775875566397	-8.23392109683922	-129.999836770925	
864600000	-8.41668596187646	-170.04519820317	-0.739186451826785	-60.0826693439405	-0.749116870198053	-60.0415697259979	-8.25251569167405	-130.167157787761	
866300000	-8.42116387987581	-170.015284538646	-0.745160492374128	-60.0013750976988	-0.731455628951497	-60.0553430231294	-8.23025303005392	-130.261319268974	
868000000	-8.3946030482941	-170.348180253659	-0.739570916207364	-60.1934855397796	-0.741973266546085	-60.171013960181	-8.2381047629117	-130.253477694642	
869700000	-8.377818710912	-170.415223269671	-0.739832693750936	-60.3383125939671	-0.758100187805977	-60.4207055777402	-8.23141166485487	-130.235041952977	
871400000	-8.38576418443895	-170.488841251253	-0.756221152101142	-60.3278482811078	-0.748416771165308	-60.3992514142015	-8.22388506724927	-130.525174138787	
873100000	-8.38358543891772	-170.799174953291	-0.738472795859772	-60.517774935915	-0.743676007962767	-60.572869237568	-8.20644049112526	-130.532972431887	
874800000	-8.40958643093002	-170.889824544188	-0.753996227005189	-60.641617638004	-0.737386139933527	-60.6006546331426	-8.20062215046037	-130.557824246894	
876500000	-8.42409592944933	-171.195940240706	-0.740332452513459	-60.7859496338307	-0.739689269646925	-60.7571706011444	-8.22305130574911	-130.524145043088	
878200000	-8.38730339939253	-171.354657445567	-0.76367052663209	-60.919331857062	-0.731891751467441	-60.7056458273987	-8.18392872243816	-130.621128662211	
879900000	-8.39899712211416	-171.304585887388	-0.74093197335891	-60.9248411390438	-0.720937408968312	-61.020488907059	-8.21294316699566	-130.803592794065	
881600000	-8.39592510666928	-171.406090353671	-0.747250399086762	-61.0573780019958	-0.745313266286456	-60.9931371896933	-8.17722741280977	-130.810940586806	
883300000	-8.37991537024953	-171.635984581581	-0.757135274355665	-61.1040279420685	-0.75449170361527	-61.1322022903384	-8.23304400616183	-130.810671837963	
885000000	-8.36399113328199	-171.855947213651	-0.721087086223329	-61.2108686735311	-0.749042848276575	-61.2772410301366	-8.17002903540116	-130.974643646416	
886700000	-8.37892564626771	-171.821243955349	-0.750047664705794	-61.3138862819718	-0.73870493330245	-61.2819749042646	-8.17035277284719	-131.302590647899	
888400000	-8.32240228688772	-171.994747680705	-0.760637594168641	-61.4286630983461	-0.741031574058117	-61.3592183826187	-8.19006857854345	-131.058319638123	
890100000	-8.34296339493013	-172.39756757975	-0.751914248794161	-61.5518061197974	-0.74255181893629	-61.507464591641	-8.19131903136075	-131.191332171074	
891800000	-8.3431698355301	-172.284058857183	-0.741083566324246	-61.6170112217447	-0.763129930012085	-61.5851159485351	-8.15633070084695	-131.143007164574	
893500000	-8.34266311301373	-172.524072145282	-0.753178993220426	-61.7333218389329	-0.741514776663349	-61.7743326089931	-8.17281338194728	-131.408774835546	
895200000	-8.34087622962474	-172.725568648452	-0.750682645950764	-61.8219012367015	-0.746011966777115	-61.9468696800714	-8.173308670678	-131.480138539767	
896900000	-8.3541104595541	-172.627598140816	-0.76756800065077	-61.8386527698703	-0.755738129953328	-61.927359821039	-8.1438818111115	-131.512215306345	
898600000	-8.35870767392112	-172.763270547782	-0.74592031524938	-62.1137674090589	-0.755550277776656	-62.0056426181145	-8.1757748990458	-131.391075869757	
900300000	-8.34998498364206	-173.018344079527	-0.746246748375572	-62.1999566258064	-0.756267508043906	-62.2281081026641	-8.17779452341637	-131.498692638482	
902000000	-8.33797083319304	-173.166955189845	-0.746884118131811	-62.3602546905253	-0.750068219546317	-62.2396396641816	-8.14698548524251	-131.741818349821	
903700000	-8.33838013009697	-173.212902440639	-0.75154678255298	-62.3304108427548	-0.748007760957558	-62.4145238339738	-8.15194370389295	-131.872720867733	
905400000	-8.35015546930256	-173.670430864547	-0.761448545492989	-62.5695605597201	-0.752384721578669	-62.4712001767152	-8.15051933081671	-131.78603495088	
907100000	-8.33120172861904	-173.441597992996	-0.762107820448935	-62.6110449506611	-0.767597012452839	-62.5790056658204	-8.14983830120224	-131.728388366353	
908800000	-8.32376585521035	-173.669961095888	-0.761518408661925	-62.6275374150358	-0.760128689064577	-62.6535207244568	-8.16331862572095	-131.944074558776	
910500000	-8.33439747768113	-173.795503925304	-0.767222882427503	-62.8104070970607	-0.757200344577068	-62.7785028776813	-8.15173621755508	-131.748159848773	
912200000	-8.33567292409747	-174.005743179036	-0.771498275672024	-62.8954991155137	-0.750671405868994	-62.9490378165091	-8.16503082951601	-132.100123667795	
913900000	-8.32899673344115	-174.178863876377	-0.763923222701318	-62.9473191647768	-0.756290303967441	-62.9304663367947	-8.12829960182373	-132.188329955084	
915600000	-8.32486209277756	-174.360772591544	-0.755086414463711	-63.2358193154173	-0.75617413295596	-63.1420464832702	-8.15589543251214	-132.20681832794	
917300000	-8.29288177573555	-174.284362568248	-0.753414012355109	-63.1431927098262	-0.750979831858097	-63.2718528442931	-8.16534714345092	-132.263614178717	
919000000	-8.2847043880368	-174.431458479381	-0.769826091720443	-63.2782436325031	-0.757918191768249	-63.3047568994271	-8.16843256494208	-132.320720687669	
920700000	-8.3126898391612	-174.456203553146	-0.776951616388411	-63.3525163559805	-0.762451084608035	-63.4466206869395	-8.15278823752464	-132.414167241976	
922400000	-8.32263970711092	-174.769304512688	-0.755620410051227	-63.5170724832049	-0.761812457213568	-63.6064913038324	-8.12111275589637	-132.49625832289	
924100000	-8.29917950277576	-175.033499072131	-0.749439625849499	-63.661225523065	-0.756956924267474	-63.5575727131282	-8.14544902618602	-132.379770406748	
925800000	-8.27104038727526	-175.349956678306	-0.760213954858775	-63.7794297470086	-0.753190518904386	-63.7553555389127	-8.15073046521143	-132.51611964355	
927500000	-8.31320499305549	-175.177703237447	-0.747954656805269	-63.8258157169645	-0.746483125412354	-63.8004491249515	-8.12286827040513	-132.504672977972	
929200000	-8.28665017294921	-175.471378485115	-0.754885815109316	-63.9469929574926	-0.762760172256063	-63.9498819734836	-8.14424030306038	-132.54029028408	
930900000	-8.29517251096573	-175.359107443925	-0.768290708216752	-64.0202515362988	-0.75171777637948	-63.9935936962544	-8.14060738899291	-132.506879151818	
932600000	-8.30767819636818	-175.690493760479	-0.761074945008558	-64.2052184421454	-0.754024690040448	-64.183812075454	-8.17307838286818	-132.758495775692	
934300000	-8.32436399829118	-175.688627152024	-0.772990290145967	-64.2902160376409	-0.75966833088819	-64.241225884554	-8.12606817534074	-132.915631789734	
936000000	-8.28240601269939	-176.034814976356	-0.741145653777697	-64.433184066896	-0.750122941578563	-64.4783726086765	-8.15804348555195	-132.862176784407	
937700000	-8.26066803855823	-176.084172467648	-0.758611462502937	-64.4786397751696	-0.762353519321666	-64.5279157311837	-8.15946347792906	-132.85591122608	
939400000	-8.27926370073894	-175.962321665437	-0.782244047370295	-64.4960263240048	-0.756205532600854	-64.700115853195	-8.15891454528449	-133.101828234143	
941100000	-8.29901524927628	-176.312400889642	-0.773296903325794	-64.6167110042988	-0.743363753952907	-64.7019476880611	-8.14599461368565	-133.064682483786	
942800000	-8.28141192517333	-176.275889823579	-0.773437699497319	-64.8447809151979	-0.768085903583226	-64.8339320612847	-8.10549153232707	-132.949514542812	
944500000	-8.3042098154906	-176.745556387975	-0.768405860192107	-65.0183971856896	-0.761856540323815	-64.8782131924479	-8.10184848989806	-133.085269162545	
946200000	-8.26636795515885	-176.752323589676	-0.766441263312189	-65.0345480037666	-0.74623024347573	-64.9501044685402	-8.12269502673958	-133.280791078287	
947900000	-8.28361578698751	-176.802489144561	-0.774680690946389	-65.1646187466804	-0.77817098434392	-65.0795438227552	-8.14006067375742	-133.030564650076	
949600000	-8.26799414977997	-176.957447274846	-0.762801748373839	-65.2811038019522	-0.758573585521134	-65.1184862636983	-8.11698535625689	-133.207769526403	
951300000	-8.31822917256623	-177.031827539358	-0.764182886785389	-65.333261264551	-0.760714505421197	-65.3277994130935	-8.11844385672067	-133.33084245492	
953000000	-8.32444161450441	-177.283880569891	-0.772677423174952	-65.4261837112152	-0.773129571027433	-65.4031639545913	-8.10913361990458	-133.233359914473	
954700000	-8.26582541242217	-177.609228541757	-0.773644729906163	-65.5602199743617	-0.765285912125692	-65.5454317040345	-8.12818716061781	-133.533464913923	
956400000	-8.27804307179428	-177.370523370932	-0.778603571960006	-65.62436451909	-0.761632630631842	-65.6649752949143	-8.13644558077326	-133.625822591303	
958100000	-8.28495513701655	-177.604361803615	-0.781390266926883	-65.792906836137	-0.774429474346673	-65.7452060087532	-8.10401668058414	-133.500124741604	
959800000	-8.31339510480434	-177.962396103571	-0.771499726944022	-65.8166935081668	-0.752187111575512	-65.9882431342735	-8.11550636214363	-133.741253398721	
961500000	-8.29559779734052	-177.750838608928	-0.77319228530763	-65.9627192274024	-0.753155856230951	-65.9509219996577	-8.11488687189501	-133.612601807268	
963200000	-8.28287086403916	-178.092598107831	-0.771988851493332	-66.0941000221326	-0.771323977171806	-66.0544038892881	-8.1320581363078	-133.748435583603	
964900000	-8.2785452397162	-178.260903663154	-0.770558724619653	-66.1791435481657	-0.760196880501588	-66.104165055796	-8.11817889138262	-134.004250730292	
966600000	-8.25207362886428	-178.33872833943	-0.76579276798111	-66.2026675460148	-0.774369357580963	-66.2901433559346	-8.13954801280967	-134.05382159913	
968300000	-8.29144034810796	-178.518054420461	-0.789018926122668	-66.4209893478764	-0.755193160509826	-66.3830675912533	-8.13910324877611	-133.952272043711	
970000000	-8.2754809728426	-178.952459403951	-0.758955665163373	-66.38906839721	-0.770791393945076	-66.5381446613229	-8.0991655877522	-134.028307360482	
971700000	-8.30234158917019	-178.797722869757	-0.763412459491952	-66.6081274516487	-0.76523148597326	-66.6284320248654	-8.11578060536078	-133.925570395779	
973400000	-8.28613015885155	-179.075359060342	-0.781872555682633	-66.6342767945648	-0.757837501139599	-66.7774909471524	-8.11418730680867	-134.221427389775	
975100000	-8.26529975593463	-179.176856528692	-0.762525683491759	-66.7587417028436	-0.760407481786472	-66.8417080528988	-8.10938405564515	-134.33090334857	
976800000	-8.29999549297607	-179.290874110614	-0.770160417411677	-66.8675425523828	-0.750688877451777	-66.8804239935305	-8.1043566784253	-134.203313472927	
978500000	-8.31763306725414	-179.53184585074	-0.771050536751939	-67.0405625162607	-0.774551825122944	-67.0092083407952	-8.12243650542183	-134.291837294609	
980200000	-8.28878610682304	-179.507512384329	-0.778437227215937	-67.1330783592676	-0.757867204107576	-67.1189788772913	-8.13393852778648	-134.421938353068	
981900000	-8.3169966538461	-179.708261040523	-0.776490929458974	-67.2098354024436	-0.766367452147286	-67.2818312335881	-8.09038506029981	-134.428773751438	
983600000	-8.30906805023776	-179.875486359557	-0.759827199775008	-67.423638639872	-0.763593261662725	-67.3695969897238	-8.09911558844561	-134.585567261079	
985300000	-8.29220218855449	-179.851857988286	-0.771060981076775	-67.3661336628493	-0.751215958295584	-67.4413710491256	-8.1149956497429	-134.609961790649	
987000000	-8.32578553864548	179.887410624853	-0.780438743676422	-67.5128529356413	-0.768554113524555	-67.5380809971241	-8.10392127181716	-134.778137468669	
988700000	-8.27894940468174	179.729823118107	-0.770537650249247	-67.8076979345275	-0.755835309628128	-67.5936829619745	-8.09044362282506	-134.563755867279	
990400000	-8.27536898330604	179.492049778546	-0.757376554710324	-67.7626955278533	-0.759520889157387	-67.6632302019426	-8.08529241788063	-134.9879222666	
992100000	-8.3152488991153	179.39254721199	-0.760695349654233	-67.7695024773267	-0.76729091198895	-67.8315282447517	-8.10122109334656	-134.985736193773	
993800000	-8.27616027510432	179.33145789825	-0.769614107687652	-67.8652123827544	-0.768655432265553	-67.8700073557828	-8.08131925896349	-135.075686651368	
995500000	-8.30510040433293	179.28645020327	-0.798498753230655	-67.9723945978212	-0.754506215115025	-68.0267711918752	-8.10879154902531	-135.008190215274	
997200000	-8.30388505038908	179.033268626403	-0.76882160205126	-67.99645464063	-0.766160379987483	-68.1742473223199	-8.08877186434575	-135.120545719205	
998900000	-8.29765297933119	178.891336097456	-0.767996974850985	-68.2199586683206	-0.758044183903928	-68.2691838383755	-8.08091044043706	-135.22840312441	
1000600000	-8.32747726408338	178.597408146989	-0.789510833691996	-68.3107427876176	-0.764946284292438	-68.3965662959608	-8.11403717954293	-135.269622324235	
1002300000	-8.29546140871575	178.409024587925	-0.770507260582949	-68.3681004958389	-0.762748555111783	-68.4624464363046	-8.09891944955814	-135.380926900991	
1004000000	-8.31254736515188	178.374236574478	-0.759373746812887	-68.5237515849985	-0.747245029966783	-68.5606083014417	-8.09980191444033	-135.517039540249	
1005700000	-8.31151971340832	178.322949518276	-0.783245761712365	-68.6004442306907	-0.770175235954227	-68.7389329400413	-8.10603602431363	-135.586391498819	
1007400000	-8.28615413701916	177.963323218355	-0.782153416489459	-68.6873442233237	-0.77500207573842	-68.775127263619	-8.08517756619111	-135.469003602979	
1009100000	-8.32154321878356	178.000859657908	-0.776095413846035	-68.7799221210951	-0.762623799227269	-68.8238396178809	-8.09731263298088	-135.658498912381	
1010800000	-8.26845730536276	177.802786176336	-0.759773061314033	-68.921296324604	-0.77996163359062	-69.0065589666574	-8.11278812618336	-135.735472524451	
