!Keysight Technologies N9950B: A.12.38
!Date: Friday, 14 April 2023 14:45:29
!Timezone: (UTC-06:00) Central Time (US & Canada)
!Model: N9950B
!Serial: MY61131330
!GPS Latitude: 
!GPS Longitude: 
!GPS TimeStamp: 0001-01-01 00:00:00Z
!GPS Seconds Since Last Read: 0
!CHECKSUM:0614635008
!Correction: S11(ON U)S21(ON U)S12(ON U)S22(ON U)
!S2P File: Measurements:S11,S21,S12,S22:
# Hz S DB R 50
800000000	-6.9790723518595	-178.706640555894	-1.53765472826436	-62.9514256139381	-1.51674893552232	-62.9689717910736	-6.82446463223225	-136.144172395242	
801700000	-6.96012334669988	-178.802696864495	-1.52646261220366	-63.0233203094366	-1.526038669022	-63.0990016832751	-6.83935445034075	-136.316409479149	
803400000	-6.959751627318	-178.988196959452	-1.52837087482864	-63.1634208033075	-1.52503086118133	-63.182560597171	-6.83976934583228	-136.328534511016	
805100000	-6.97631445837999	-179.116878527043	-1.52966775839534	-63.2258095598728	-1.53570886259405	-63.2956751887179	-6.84573516278066	-136.282581579567	
806800000	-6.95685649327539	-179.312407823731	-1.5309236251698	-63.3698889532617	-1.51601427129873	-63.4416312205018	-6.83418511314928	-136.45973279414	
808500000	-6.95785995188884	-179.414290821019	-1.53610217708943	-63.4960406066486	-1.53137597724211	-63.5465450871994	-6.82947357964169	-136.549917173527	
810200000	-6.96039604140393	-179.653798702076	-1.5330727491685	-63.5825360135422	-1.523086045222	-63.5977940942963	-6.82111857056412	-136.642214385346	
811900000	-6.94841879907811	-179.779561482506	-1.55376848011017	-63.7610476271849	-1.51820842405837	-63.7561165788648	-6.83944706635801	-136.665813224288	
813600000	-6.97589258037893	-179.803037589553	-1.53997188360121	-63.8630926924915	-1.5214021545605	-63.8509026962918	-6.82444398366167	-136.467860355532	
815300000	-6.96679491000463	179.926078472779	-1.53549792719442	-63.9625406546607	-1.51785589221021	-63.9851516888111	-6.81567380694632	-136.722010231087	
817000000	-6.93999578444084	179.574875365606	-1.52661261787335	-63.9971123586035	-1.54106955722563	-64.0941202429602	-6.83578085147063	-136.769315751601	
818700000	-6.9687106498026	179.538289110149	-1.52483281217706	-64.195795588361	-1.53323054449749	-64.2945642984778	-6.84062291265629	-136.830182769658	
820400000	-6.97040722594126	179.613600848965	-1.54552716629183	-64.3761196078238	-1.5323657553754	-64.2694534267481	-6.84722402250967	-136.760340877561	
822100000	-6.96757911146547	179.256388645564	-1.54571712740608	-64.4803717780854	-1.54527347421713	-64.3627810608032	-6.84003765330577	-136.925662028085	
823800000	-6.95815486283821	179.263434447992	-1.53373356725502	-64.4442230029633	-1.539445504574	-64.580117335373	-6.83278757306469	-137.019487251013	
825500000	-6.95286587229618	179.043968500492	-1.53930101716827	-64.5572301685738	-1.53071105344141	-64.6185777464967	-6.82383683246943	-137.001047959214	
827200000	-6.96650932962255	179.043187792747	-1.53679363634291	-64.6534943823787	-1.53345037197407	-64.8030796019281	-6.85687147696068	-137.178429403153	
828900000	-6.95927194367317	178.806744623956	-1.55451931773541	-64.8692376844251	-1.53424783168754	-64.7236390679351	-6.81986352762042	-137.075509040159	
830600000	-6.96430923542246	178.754528081389	-1.5372536690549	-64.9138602484782	-1.54307340128131	-65.018968181541	-6.84383933739713	-137.335376563669	
832300000	-6.96544420578073	178.457117925289	-1.52392094165908	-65.1504311920065	-1.53933409071753	-65.161754508462	-6.8122421606685	-137.213604024619	
834000000	-6.95504719627884	178.253688655532	-1.54778220743999	-65.176812251683	-1.54678512276039	-65.1548435837706	-6.80453746426046	-137.292611048762	
835700000	-6.95018462296953	178.216333464208	-1.53834470161797	-65.3217653025026	-1.57063968174582	-65.2402518874301	-6.82055692034549	-137.348311701114	
837400000	-6.98111233314775	178.137069259673	-1.57013453656062	-65.4619253674135	-1.54964487876775	-65.4070166719943	-6.84042665395173	-137.436237005566	
839100000	-6.96316452401778	177.900145252532	-1.5677207000075	-65.523091472287	-1.5430787420034	-65.5990799720248	-6.79931841869882	-137.581596612598	
840800000	-6.96529450698431	177.711790144488	-1.56904534274998	-65.6251618651899	-1.55775991166527	-65.6427291371796	-6.79840029697807	-137.628397257256	
842500000	-6.97779509074481	177.671056486946	-1.55753681688335	-65.6242132847194	-1.5462786073936	-65.8289221382184	-6.83205326580374	-137.577949097939	
844200000	-6.95815321759007	177.299550071377	-1.5450628972441	-65.7636210585472	-1.52693440893147	-65.8007058816429	-6.7999941770702	-137.661720589805	
845900000	-6.95139175095122	177.334896168131	-1.54727615749754	-65.8829223578258	-1.53119292965387	-66.0471396469686	-6.8176042701049	-137.677076714241	
847600000	-6.96515887336961	177.10403384223	-1.5447753210181	-66.1630974919556	-1.53916867654592	-66.0297221383542	-6.78685541157166	-137.634354019095	
849300000	-6.9678929186422	177.090958185174	-1.55671530623066	-66.2324535927866	-1.53314507527801	-66.2934644470159	-6.80356295414484	-137.846899896576	
851000000	-6.92562614994922	176.908708321989	-1.54790887138983	-66.1421453700037	-1.57165204491475	-66.3955927404469	-6.81465205717274	-137.898134290527	
852700000	-6.93231569997327	176.598072722166	-1.54072519458976	-66.4033481689393	-1.55017124134662	-66.4908519764762	-6.83574243632773	-137.987661908243	
854400000	-6.96774458962413	176.593884536624	-1.54670341566187	-66.3698616459992	-1.55472930838326	-66.5635630029206	-6.79578584454054	-138.055040309498	
856100000	-6.96015607565415	176.340697290922	-1.55321290436367	-66.7848496353749	-1.54811086173136	-66.5758477077983	-6.8099693562719	-138.223881356818	
857800000	-6.94343472976156	176.422531625055	-1.56128796497985	-66.6356492570168	-1.56258450926394	-66.7076064286055	-6.80210772340374	-138.030383282954	
859500000	-6.96632561001742	176.181011625255	-1.55979112893966	-66.7658812201572	-1.5503983623786	-66.808985477873	-6.8054723735717	-138.116313825359	
861200000	-6.96695587974582	176.090107239123	-1.56008863502385	-66.9438395961544	-1.55204863668942	-66.8555920106554	-6.81227748355703	-138.278887994968	
862900000	-6.96661497934229	175.808640789561	-1.55365162931429	-67.1188335930749	-1.55249146053059	-67.0257822252801	-6.8097476918301	-138.248291110921	
864600000	-6.96048585996049	175.610272709352	-1.56250261314997	-67.2273370226596	-1.57417693645176	-67.1267980300396	-6.82723454808832	-138.333924052027	
866300000	-6.96540955107026	175.582028419463	-1.56406889906253	-67.2782246471439	-1.55037405836096	-67.2545594655829	-6.8183364785975	-138.488832727316	
868000000	-6.9472076465813	175.31236698705	-1.55935266413849	-67.4230514444868	-1.55494319979194	-67.4473423481996	-6.81567073036935	-138.507533741347	
869700000	-6.94940335351407	175.286924062212	-1.55987541779576	-67.5499708652408	-1.5594584227292	-67.6111006239012	-6.81955722213583	-138.47739425173	
871400000	-6.95294636186857	175.11553346644	-1.56877889904906	-67.601051229486	-1.56179284027393	-67.5979807272313	-6.8174484360915	-138.698549703746	
873100000	-6.95433467925983	174.877366436293	-1.55709630370877	-67.7227212718641	-1.5569858527184	-67.7986250793638	-6.80953900052195	-138.742534287647	
874800000	-6.96841546664854	174.725383601874	-1.55617235372774	-67.8926650613068	-1.55175038426206	-67.8628357667933	-6.80710770835578	-138.731259033425	
876500000	-6.98944226025756	174.452647167945	-1.54482676203971	-68.0068886297415	-1.54615318174622	-68.0539694463916	-6.82019033747711	-138.779776418515	
878200000	-6.97473361001795	174.382466370446	-1.5870787072453	-68.0887508252571	-1.54978840039118	-67.9940302751488	-6.79907841587901	-138.840879264217	
879900000	-6.99168477302746	174.336511438992	-1.5609391542467	-68.209683505869	-1.54376134914769	-68.221811823159	-6.81716271906696	-138.865950606164	
881600000	-6.97521719955638	174.231404549873	-1.55846062705472	-68.335116012925	-1.55594567274029	-68.2516783221263	-6.80343722400319	-138.961777304272	
883300000	-6.95443933180886	174.066137670764	-1.54440202390602	-68.39678048719	-1.54534403203014	-68.3652417590842	-6.827983227791	-138.975404827515	
885000000	-6.96588962120722	173.744572435328	-1.53366692636689	-68.5377183308949	-1.57051380327471	-68.4880805139473	-6.80907403521551	-139.051187487926	
886700000	-6.96600544771994	173.825452143083	-1.55429114332303	-68.5748137658546	-1.55150407775331	-68.5900308817742	-6.81267358879982	-139.332298259106	
888400000	-6.94905921192229	173.757937061055	-1.57059129075313	-68.7059378038484	-1.54408691345272	-68.6929676741243	-6.81362831367318	-139.162020929331	
890100000	-6.97061223088838	173.393676291595	-1.56421703551116	-68.7402780102983	-1.55178947176911	-68.8297351648989	-6.81635908439377	-139.260599533258	
891800000	-6.97862960157608	173.388551747981	-1.56542225050246	-68.9318130673743	-1.56546304911023	-68.9294416274764	-6.80915212227473	-139.288235747938	
893500000	-6.97893222415209	173.12569388073	-1.57311205958533	-69.027920914391	-1.54737355465825	-69.077447857665	-6.81906428982828	-139.439474125239	
895200000	-6.96200490212648	172.974089110095	-1.55322198587307	-69.1326795415176	-1.55431438511624	-69.1968654426091	-6.81079899492671	-139.463240014517	
896900000	-6.98091683866141	172.927220431718	-1.56159273316852	-69.2182651628918	-1.56875168705199	-69.2381614530084	-6.81774358228508	-139.457065609471	
898600000	-6.98521440413983	172.745313703032	-1.54922748437961	-69.4684272210203	-1.56323129024808	-69.3496974976412	-6.83342949290303	-139.426303170319	
900300000	-6.96972544340656	172.569728141207	-1.54337502537539	-69.5864961082406	-1.56653379579593	-69.5412900324642	-6.82285339492305	-139.520452646453	
902000000	-6.99108759027537	172.475494988224	-1.56400144057288	-69.6689693228391	-1.56566644478575	-69.5278546411434	-6.83121437943371	-139.64336939015	
903700000	-6.98325181889339	172.299733408146	-1.54767491724624	-69.7680341716318	-1.54139501200021	-69.7608337024792	-6.8013419094743	-139.849208820764	
905400000	-6.99431428534645	171.992759944243	-1.55916973541564	-69.8829665971908	-1.56531140536446	-69.82762939698	-6.82696573165189	-139.794773597815	
907100000	-6.9871350955284	172.152602970709	-1.56278015252355	-69.9521900239854	-1.56706732300102	-69.8912911891255	-6.81620048528419	-139.708451145172	
908800000	-6.98689923869083	171.913149222024	-1.56236367708779	-70.0401084941068	-1.55896441199098	-69.9726165573396	-6.83727262210355	-139.855941860075	
910500000	-7.00126083554481	171.779818524759	-1.56246709558889	-70.2346613628129	-1.56171484421203	-70.1780885465566	-6.83617767721707	-139.800355397115	
912200000	-7.00026113678263	171.584801757999	-1.56346237121963	-70.2525245555302	-1.55530048416783	-70.2930575418633	-6.84607662795537	-139.975765175329	
913900000	-7.01065510968808	171.351202142797	-1.57017459393326	-70.4315357798651	-1.56228094878825	-70.3597145798106	-6.82057813641531	-140.077530989546	
915600000	-7.01572832745507	171.250849038236	-1.56926134348829	-70.6352388373017	-1.560464001729	-70.5469884268691	-6.84857730949359	-140.119139075067	
917300000	-6.99261396052831	171.207539885981	-1.5670921818316	-70.6203979473792	-1.56381726198267	-70.6644201860147	-6.86170731850174	-140.126375273378	
919000000	-6.99055372388904	171.097551692082	-1.57876082902156	-70.6554051158113	-1.55640885882788	-70.7087081376205	-6.85323737119369	-140.15039082852	
920700000	-7.02562759981174	171.105265817208	-1.59063240728108	-70.7389093482877	-1.56553626631115	-70.7878646670601	-6.84345063151783	-140.206103877733	
922400000	-7.0064578566807	170.792754133363	-1.54570566560902	-70.9364537702978	-1.56222312232639	-70.8924175658894	-6.82571680283465	-140.269005270951	
924100000	-7.01056127102663	170.514268439968	-1.55724617499417	-71.1312027216518	-1.5618993227683	-71.0586150384696	-6.85718059124975	-140.407306218179	
925800000	-6.98996756298272	170.253319265996	-1.55370631820979	-71.2592287042868	-1.55825828998233	-71.2055310259361	-6.86588161296122	-140.419650935152	
927500000	-7.02344806400969	170.288606897608	-1.54581725906012	-71.3158693478915	-1.53375155511463	-71.2495173509387	-6.8287919660371	-140.373132829262	
929200000	-7.00260996883925	170.154355164915	-1.55487721055138	-71.3340891060005	-1.55735734870426	-71.4534243135345	-6.8540532863348	-140.484941267384	
930900000	-7.04068929268372	170.051202891855	-1.56799075642596	-71.5822848104447	-1.55757767252856	-71.5198332223058	-6.85763542587324	-140.497729401085	
932600000	-7.03653221765155	169.817930128746	-1.55715794227836	-71.6361323613348	-1.54471008868757	-71.6586098520275	-6.8821178775545	-140.637379727515	
934300000	-7.05201965719815	169.841943519953	-1.57301824755958	-71.7303303165957	-1.56790180482489	-71.6882071344772	-6.87863956807351	-140.784427992717	
936000000	-7.04278434253673	169.515833123711	-1.56600295865406	-71.8899735877165	-1.54654242850127	-71.9519307951988	-6.88649648441092	-140.662883932442	
937700000	-7.02649949085775	169.341195607282	-1.56371291280598	-72.0051986273817	-1.56025275769962	-72.0385451627265	-6.88556821573717	-140.705420397083	
939400000	-7.03657513016459	169.331220005259	-1.57713664300949	-72.1051029950393	-1.54916216718029	-72.1446934262863	-6.88938777484102	-140.857781815616	
941100000	-7.04045705600358	169.103693914294	-1.56522282402271	-72.2066222955364	-1.55663945788252	-72.201562141767	-6.90862313037103	-140.911789517774	
942800000	-7.04659463968061	169.116890494901	-1.57802444471987	-72.4021336570177	-1.56574896150281	-72.2859963718704	-6.87163299395564	-140.762177005154	
944500000	-7.05938821955564	168.814319548176	-1.56887246599291	-72.4482244497315	-1.57448943155565	-72.4167608358847	-6.87985111968079	-140.929891832368	
946200000	-7.0311200555682	168.711552026644	-1.55176903383204	-72.5359953894487	-1.54539852856934	-72.5207269506866	-6.88765893361945	-141.111907685307	
947900000	-7.05707640040254	168.600504983361	-1.56668483137466	-72.6948491138536	-1.57291757485961	-72.6291128192294	-6.8971924604905	-140.85042907434	
949600000	-7.04264453710178	168.412988821392	-1.55089761868471	-72.8110559820083	-1.54350217983667	-72.7488564434516	-6.86604752715622	-141.115993581775	
951300000	-7.08745723075435	168.400249980347	-1.55694649615153	-72.9004451248277	-1.56034564998095	-72.9077417625359	-6.89810968995583	-141.165601735281	
953000000	-7.08304171208651	168.00916620801	-1.55817137666466	-73.1635543949744	-1.57166413085323	-73.0488870875174	-6.89236733858258	-141.148621402689	
954700000	-7.06059850233173	167.779480296289	-1.5639612453636	-73.2211015435672	-1.5572627241384	-73.113399594442	-6.89881041506526	-141.209818246885	
956400000	-7.0723715965677	167.905510994865	-1.57797064570912	-73.286231099179	-1.55649265683881	-73.3052475186825	-6.92919758940108	-141.397211046423	
958100000	-7.07711031638576	167.652165204137	-1.56195184444832	-73.4790656824729	-1.56410108171619	-73.3469988229177	-6.90388777039797	-141.329595136454	
959800000	-7.07717446441962	167.376292288489	-1.54975985279806	-73.5032924862676	-1.5476968440887	-73.5646354683024	-6.92639181106271	-141.421041327995	
961500000	-7.08845186334879	167.388519992183	-1.54955346470838	-73.6877045843527	-1.55576375222414	-73.5854464976457	-6.91123216366012	-141.432307503517	
963200000	-7.08768219553586	167.272428203771	-1.55614180352843	-73.7117182502411	-1.55563030344192	-73.7775739799372	-6.93955880118903	-141.574925305936	
964900000	-7.08549499757411	167.187554296446	-1.55910448777036	-73.788337723866	-1.54888289178104	-73.6635793227733	-6.92536050521696	-141.599060674407	
966600000	-7.06233673871577	167.085912519238	-1.55553956650718	-73.8469022985607	-1.5468989572432	-73.8477824809742	-6.93869758575764	-141.701038658339	
968300000	-7.11396894566657	166.865035717472	-1.58006634496818	-73.9939527808624	-1.53612787620335	-74.0580082921626	-6.94857422693262	-141.657648860214	
970000000	-7.09517197358705	166.46370797147	-1.54482856441907	-74.0303375472842	-1.55292451074244	-74.1033935924339	-6.93258091379501	-141.668570677711	
971700000	-7.10917724633457	166.569231760151	-1.55023362093107	-74.20409410699	-1.55595973983175	-74.3511735512325	-6.95442800200694	-141.784500160559	
973400000	-7.09042830853851	166.302516036749	-1.55276597987558	-74.2895413134524	-1.53438065434499	-74.5551080668424	-6.94878518450877	-141.911647849334	
975100000	-7.10706868246785	166.218365481082	-1.5530567531892	-74.4486418535973	-1.55180448284138	-74.5232298176891	-6.9516653471406	-141.968308377484	
976800000	-7.13577398446179	166.001016231931	-1.57178859206882	-74.6047517225653	-1.54850452778724	-74.6748667807459	-6.95220777488281	-142.025572608875	
978500000	-7.15026657992326	165.898199889598	-1.5571678953698	-74.7424630243006	-1.5518838015796	-74.7007120372063	-6.96380829493998	-141.946779417507	
980200000	-7.1191835490425	165.784521290652	-1.5570830944784	-74.8450049581564	-1.53852573640721	-74.8493329028462	-6.99087229489633	-142.071597465949	
981900000	-7.16247225332716	165.750021618311	-1.56797220944599	-74.8333507044881	-1.54701043580122	-74.9390179380731	-6.96332828492208	-142.128946841283	
983600000	-7.16368509302365	165.42965688534	-1.55393578285728	-75.1947826401253	-1.55122989700087	-75.1152505530764	-6.96951131411052	-142.259326869205	
985300000	-7.14055033897861	165.494030311149	-1.5474823954371	-75.150151526992	-1.54801139477536	-75.2624780294663	-6.98714346655567	-142.333418642535	
987000000	-7.17056300134042	165.277529880535	-1.55984204931125	-75.2481976975646	-1.53300701191412	-75.304051758175	-6.98790085333246	-142.407774892335	
988700000	-7.15388484573175	165.120543015077	-1.55721301915271	-75.4848452139778	-1.5442210430576	-75.4328146485015	-6.98638673917592	-142.297592887383	
990400000	-7.14709940851904	164.871759579893	-1.54546011965742	-75.5496240169038	-1.54081403006314	-75.4367621400395	-6.9836305624387	-142.47555997382	
992100000	-7.16778441906301	164.767812616505	-1.5404606473218	-75.5815954800471	-1.537149177532	-75.5612082744588	-6.98799704385238	-142.498599351115	
993800000	-7.15667636649099	164.686142037149	-1.55870890208747	-75.6314207848453	-1.55142664003579	-75.736996577665	-6.99529640632318	-142.683595755108	
995500000	-7.1834521355329	164.583915809494	-1.56989214841154	-75.7855786208201	-1.5426500002583	-75.7903851211674	-7.01404649735198	-142.527142059584	
997200000	-7.17208752834392	164.368045867457	-1.53221712155836	-75.8072027409644	-1.54651818642323	-76.0161351530782	-7.00940795164205	-142.750259404658	
998900000	-7.19249630795888	164.330174561097	-1.54550199288802	-75.9677153735364	-1.54605953017682	-76.0703169707112	-7.01178517085051	-142.686344572485	
1000600000	-7.19366600954954	164.033506702787	-1.54587557158776	-76.1176947349354	-1.52797410625869	-76.3106205072193	-7.03188391215197	-142.894140021332	
1002300000	-7.19419128598705	163.771433999773	-1.54872124676647	-76.2102753911525	-1.53579398055305	-76.286510735576	-7.0248674419457	-142.928566664657	
1004000000	-7.21518599032455	163.649362783672	-1.54143956367249	-76.4719347056339	-1.53502474625742	-76.4519733396235	-7.04409244457592	-142.986532695502	
1005700000	-7.21757180367787	163.701679035583	-1.56296763634132	-76.4608635947994	-1.54078157042588	-76.4952388296105	-7.03194244272115	-142.967821791782	
1007400000	-7.19703812281517	163.331131688463	-1.55774814766138	-76.6176839031787	-1.55159275919474	-76.6325019274763	-7.03553201150346	-142.973902900174	
1009100000	-7.23175235264424	163.324072087008	-1.55047150946808	-76.7649424061784	-1.52647068300556	-76.6956766775085	-7.02877677392824	-143.131913667542	
1010800000	-7.19938396279412	163.137534513133	-1.52655158001919	-76.8447996905896	-1.54453245787017	-76.8358178529512	-7.0566584247715	-143.068427842375	
1012500000	-7.1961607574996	162.959906127173	-1.53407432666661	-76.9409520431995	-1.54167093130543	-77.0135958510949	-7.04259651211664	-143.3308268699	
1014200000	-7.2275356761849	163.015882011737	-1.54454562810358	-77.1306149421519	-1.53245704617961	-77.1622089613256	-7.07472129171724	-143.319182964674	
