!Keysight Technologies N9950B: A.12.38
!Date: Friday, 14 April 2023 14:12:52
!Timezone: (UTC-06:00) Central Time (US & Canada)
!Model: N9950B
!Serial: MY61131330
!GPS Latitude: 
!GPS Longitude: 
!GPS TimeStamp: 0001-01-01 00:00:00Z
!GPS Seconds Since Last Read: 0
!CHECKSUM:1446307254
!Correction: S11(ON U)S21(ON U)S12(ON U)S22(ON U)
!S2P File: Measurements:S11,S21,S12,S22:
# Hz S DB R 50
2500000000	-9.21963220365691	164.127086038529	-2.06163596664451	122.045616493898	-2.04344144248849	122.048889757867	-9.02007491137616	-97.9435473812178	
2510000000	-9.3531616838407	162.676329445447	-2.03752062252535	121.149006077215	-2.04345994024431	121.177253336463	-9.12021650330557	-98.1504074191106	
2520000000	-9.40764739514695	161.894837562777	-2.06175719820036	120.180076582697	-2.05531497458403	120.287674457516	-9.19799863242326	-98.4402195481302	
2530000000	-9.41233382097743	161.108103329469	-2.04998671442087	119.328350412542	-2.03824857167815	119.52586363977	-9.29571410403534	-99.2046467713163	
2540000000	-9.51894142703173	159.989207847062	-2.05165656422414	118.604513641476	-2.05021865998895	118.461935984182	-9.32160674126006	-99.3737760881644	
2550000000	-9.54888698766762	159.556226286119	-2.05447220653097	117.52460229419	-2.04618557821001	117.512969139585	-9.39592269285757	-99.860871683523	
2560000000	-9.63252241619758	158.922782833681	-2.05410842107074	116.616439714703	-2.04647282593595	116.823236669597	-9.52724113143062	-100.713693262662	
2570000000	-9.74948634603121	158.470094990844	-2.01757581627566	115.844382136007	-1.99500975732397	115.961798043933	-9.70000125357588	-100.920061379647	
2580000000	-9.87998464130607	158.06535157531	-2.00815733055089	114.95927309887	-2.01504378376021	114.954454970416	-9.76100084292794	-101.591893886129	
2590000000	-10.0795347446667	157.259427235746	-1.99322933767428	114.060763269501	-2.00021411725612	113.975500615598	-9.90930655356516	-101.976214607371	
2600000000	-10.2342525833193	156.675921620948	-1.98717652629681	112.99774991015	-1.99052759393324	112.880048159379	-10.04827797987	-102.529455051918	
2610000000	-10.367280712324	155.873254084587	-1.98746488501066	112.159811946461	-1.9680950254989	112.143484947833	-10.2098520221163	-102.581196877718	
2620000000	-10.5808379476553	154.437283182561	-1.97130034544618	111.176120009237	-1.94499628039741	111.031433542893	-10.2942433873584	-102.705630620371	
2630000000	-10.7559786915827	153.345634104581	-1.94868552629043	110.186237896653	-1.93456238099976	110.245457146173	-10.4579708345421	-102.448328579696	
2640000000	-10.8797692878086	152.077076654169	-1.94069527920816	109.161243560919	-1.92319645380615	109.182869255684	-10.6088868466878	-102.708204657979	
2650000000	-10.9583115506726	151.19474516733	-1.94531611384627	108.144832837778	-1.92976558860359	108.109529064958	-10.7308244880171	-102.833499732194	
2660000000	-11.1072506034638	150.379825535906	-1.92026727611393	107.232999741094	-1.91796648862097	107.264201724823	-10.8976384071626	-102.988986911455	
2670000000	-11.2241679549717	149.548046145888	-1.94289244119128	106.399288711011	-1.94460792863459	106.440135366562	-10.9832324179672	-104.018045794323	
2680000000	-11.3244115547651	149.073174113383	-1.92785719499089	105.570198850123	-1.92783106035059	105.542509959791	-11.1248639986691	-104.190624604584	
2690000000	-11.5074916373722	148.828942364451	-1.92782977249798	104.459622451922	-1.90956777648476	104.516174260124	-11.3651075095055	-104.508682919532	
2700000000	-11.6374828432684	149.068227879927	-1.91604345024241	103.652143419428	-1.91671282325419	103.609003184105	-11.54480954488	-105.679835038011	
2710000000	-11.7981376603411	148.477459548121	-1.90817761718587	102.696997584036	-1.88750186467422	102.57310128782	-11.678499763176	-105.861546134002	
2720000000	-12.0765146591823	148.128585522107	-1.91859638951869	101.734451785797	-1.88853003887205	101.722292689054	-11.9760726123572	-105.915908021529	
2730000000	-12.4551403371161	147.687614749101	-1.87921461555895	100.805907606983	-1.87176052539036	100.765124563713	-12.2538243078424	-106.061498307547	
2740000000	-12.7150502113545	146.638636533574	-1.84847271560471	99.6910721127489	-1.86812319228497	99.6190126452044	-12.3865166494073	-105.954919968001	
2750000000	-13.0236662877063	146.85738111336	-1.83998170288234	98.6490860046821	-1.86664292102954	98.8308334430316	-12.6991304781166	-106.160291021772	
2760000000	-13.2603759228388	144.78136381664	-1.85522889490648	97.5788526498092	-1.83010157771251	97.7183146479183	-12.8974699766416	-104.851806817545	
2770000000	-13.5541105392207	144.251188375077	-1.83506158864798	96.7116810216992	-1.84681999898599	96.8262340238589	-13.0447260252672	-105.214768384656	
2780000000	-13.7468156821244	143.194597617831	-1.8279332867967	95.7062063834469	-1.83223728449871	95.7562156937622	-13.2920992570093	-104.867417353386	
2790000000	-13.8899015883384	142.29100394413	-1.8292524466001	94.7036328837878	-1.81847316769405	94.814372696449	-13.4829325136076	-105.266311622554	
2800000000	-14.0309221621393	142.184019084423	-1.83659875995113	93.7789810487439	-1.83308850497789	93.7343358207244	-13.7552632436246	-105.694452541639	
2810000000	-14.1910142365176	142.156581959902	-1.8281283660849	92.7505083219728	-1.82866350712097	92.836053695612	-14.0033783938035	-105.670135360741	
2820000000	-14.5235660895185	142.198070028398	-1.82567883090039	91.6926633118801	-1.8365034719163	91.8558169944985	-14.3881339379583	-106.541536091768	
2830000000	-14.7466203141648	143.463430790338	-1.81744823419626	90.8294533938942	-1.83693310668572	90.7885031531747	-14.62224752449	-106.304311742656	
2840000000	-15.197374356518	143.516320388399	-1.8040960830202	89.8714374827035	-1.79908820019171	89.7013977228862	-15.0042411757536	-105.634601382357	
2850000000	-15.5800537051657	144.011480575454	-1.79254417490436	88.8574945979	-1.78111794968037	88.8606753218607	-15.4364261404676	-104.180011324326	
2860000000	-15.9776102460679	144.032873171832	-1.81442868158198	87.8044493321403	-1.79470356250682	87.8407155064031	-15.7601127368907	-104.145984732115	
2870000000	-16.5276240290504	144.642968590756	-1.78557840337524	86.8290905206364	-1.78786547112254	86.7585652751277	-15.996590419156	-103.615212486837	
2880000000	-17.064210067356	144.118209138701	-1.79453852263205	85.8132145844476	-1.77423952967799	85.7191660246684	-16.2652323402604	-102.415228990745	
2890000000	-17.5321352527019	142.743681245866	-1.797340783229	84.9150230803515	-1.7871270626586	84.9027322942739	-16.7536348214823	-101.252469736382	
2900000000	-17.932645824812	143.732172858406	-1.77321412695907	83.7843636809614	-1.79319431201416	83.7092705383192	-17.1254865952834	-99.9070522533285	
2910000000	-18.4076119852031	143.568792020494	-1.79311310227521	82.7510525218517	-1.78855707893567	82.6641633577606	-17.4298780030165	-96.8983305355773	
2920000000	-18.6371942515507	143.827996987324	-1.78378097619814	81.7798980196174	-1.78833483059144	81.815697466907	-17.5859960405155	-95.0902562971033	
2930000000	-18.895053669823	144.515115292103	-1.79141055442467	80.622905014523	-1.78983439187824	80.8367743621999	-18.1469481523135	-94.8930244455203	
2940000000	-19.2586498859266	145.930213575202	-1.7886194823878	79.7291239289598	-1.77975875747154	79.7480542346324	-18.3274946830955	-93.202268013883	
2950000000	-19.5230972685223	149.195130364474	-1.81072394607632	78.8292495595188	-1.8027657661164	78.7938017292171	-18.9906922761918	-91.2698652736523	
2960000000	-19.7137569054447	152.439495371927	-1.79326310679937	77.6444870598676	-1.79812666199974	77.6531578333354	-19.5014867641334	-89.1986758166585	
2970000000	-20.1824559001575	157.20233661806	-1.77784668180425	76.7001621749125	-1.78261719728834	76.7326752394549	-19.8834277879993	-86.9818168050722	
2980000000	-20.8525963304439	159.983028595524	-1.80406065989149	75.7949706300476	-1.80255585865354	75.5872792060465	-20.4721968384036	-86.1791830419365	
2990000000	-21.0497263989754	163.159695891237	-1.79973603055985	74.6400755573406	-1.79587118478397	74.5253583324439	-20.6828182842317	-80.2627649487428	
3000000000	-21.7307275442249	168.972948304965	-1.78684950158918	73.6032048165896	-1.79178915547787	73.7045309424696	-21.1311696742254	-75.8327190590859	
3010000000	-22.3130545999853	171.606387681977	-1.8004883501565	72.667309682108	-1.78881980150989	72.6822700550699	-21.2204335847743	-71.3673296656639	
3020000000	-22.8024820326292	176.553090170357	-1.80288004813646	71.6623970226245	-1.80516106900827	71.6605953155853	-21.1688204095846	-66.8155632075163	
3030000000	-23.1056061749329	-179.474200981193	-1.81314265251417	70.6156177373036	-1.8105729921311	70.6758533044114	-21.3047587226914	-62.8544779567957	
3040000000	-23.2602016934139	-176.454003851651	-1.80149232244794	69.5875561068989	-1.79861484593306	69.5259327725187	-21.003814535998	-59.3421986268016	
3050000000	-23.4066494299718	-172.532884608692	-1.81741914798271	68.7412252939433	-1.81145274372813	68.5064543095103	-21.2637977908902	-55.6538149448173	
3060000000	-23.0544010944256	-169.964706734744	-1.83028962266774	67.5109310003826	-1.83112498073532	67.4992887441816	-21.1368528301783	-50.5862808405459	
3070000000	-22.7535608900166	-167.452636475768	-1.84503185408378	66.5021394131049	-1.81368500184643	66.7041511271503	-21.1165639182637	-46.7840456690363	
3080000000	-21.9857937232518	-161.363919965614	-1.83629302677245	65.4460828631133	-1.85054050869577	65.5977547613856	-21.1649579482729	-40.8535496268669	
3090000000	-21.8401830463227	-157.556130911803	-1.85364776557128	64.5577906080295	-1.84016148493572	64.5320500141679	-21.039864079767	-37.5279995914879	
3100000000	-21.1873585847448	-153.97675030145	-1.87184443407702	63.7324574335678	-1.85894666396402	63.6332142952987	-20.8492232026084	-32.7422571513326	
3110000000	-20.6195447178649	-148.837217840393	-1.87662816783903	62.6591827509328	-1.86030153555487	62.6455110138087	-20.2764420647994	-29.0067156819784	
3120000000	-20.3689826078343	-145.154128715131	-1.89393418367275	61.5500958432781	-1.88950906920314	61.4483214368744	-19.8774102729954	-25.4367681051108	
3130000000	-19.8307933117495	-142.629352732778	-1.89844691695286	60.6512120766395	-1.86987831685406	60.5284192914709	-19.6564390945722	-24.2238158005421	
3140000000	-19.5428200288132	-137.282932638284	-1.90792343792591	59.6367824696779	-1.89933352366791	59.4956541238377	-19.1457857459485	-21.1466605632023	
3150000000	-19.2169950019336	-136.827033608204	-1.91456414977876	58.5379582192116	-1.90700642888421	58.516276732622	-18.7153903788966	-19.3437298539324	
3160000000	-18.9159110764207	-135.667805355433	-1.92586534838227	57.6277766989195	-1.91758536954828	57.5696729085144	-18.3254344459551	-18.4555669844041	
3170000000	-18.8201612582591	-133.988137351861	-1.9416925056778	56.5428536881758	-1.93360585616363	56.4866519889718	-18.1338187844937	-17.3926473907803	
3180000000	-18.6048519075628	-133.56739894716	-1.95454082362679	55.6166947475978	-1.93971206009818	55.7446660023836	-17.5597354743864	-16.5050915466306	
3190000000	-17.9975663166464	-134.490450101736	-1.94135635927833	54.4987237518938	-1.95822108880378	54.5063221642344	-17.351395713149	-14.5117661322738	
3200000000	-17.7026738410738	-134.271200312	-1.97256800625126	53.5953776352167	-1.95153651295112	53.5253167265195	-17.0473844795015	-13.6861856742865	
3210000000	-17.3255941066056	-134.832696598802	-1.98483107408986	52.5935865918354	-1.95917508919475	52.5294739512411	-16.7735015947667	-11.7546588746429	
3220000000	-16.6451754411092	-135.343341832074	-2.00413772199742	51.625586918284	-1.97942644720259	51.602050199195	-16.3688324499858	-11.0468178631353	
3230000000	-16.2047917021584	-134.978212090196	-2.0218252894044	50.6307877927698	-2.00009720262201	50.5297894428845	-16.1719252290344	-9.19980719241154	
3240000000	-15.7071554769508	-134.152324451427	-2.03183914471898	49.8230985223793	-2.01992269241472	49.5101220642887	-15.7602927107847	-8.23760628065906	
3250000000	-15.4858621200244	-133.493528267562	-2.05865848172743	48.6090564735971	-2.04889223950992	48.7040558936765	-15.3809965372828	-7.82512964553339	
3260000000	-15.0592325111811	-133.135157453273	-2.06389034876611	47.6747368709174	-2.04956021246026	47.7544347728544	-15.1245130929104	-8.09625527604029	
3270000000	-14.8497123294111	-132.770027174076	-2.07619134792067	46.8625408356492	-2.06557570983115	46.7595598991484	-14.8131790688839	-7.71337348183304	
3280000000	-14.6561783906791	-132.224084411067	-2.07492306858928	45.8346703590628	-2.07837492925399	45.8210385867051	-14.4646717561736	-7.77610931261263	
3290000000	-14.4068845416359	-131.724059489913	-2.09092636759953	44.7103395694638	-2.11645698245991	44.6340662247244	-14.3269577432126	-7.46987568188012	
3300000000	-14.3895456108956	-132.469243993816	-2.12703837521523	43.7924663958995	-2.09499460767451	43.7986320810126	-14.1501991878303	-8.77001388607508	
3310000000	-14.2826452759097	-132.776675216331	-2.1179091175754	42.958957444373	-2.10320087401285	42.9909141792982	-13.7606526283139	-8.65719772980169	
3320000000	-14.0953667445118	-134.623962364559	-2.13240328636902	41.7950981860044	-2.09906551818486	41.89097216918	-13.6433393947078	-8.3554021481822	
3330000000	-13.8599590877708	-135.381158644812	-2.15831419278966	40.9824167459785	-2.12129828920357	40.9495660020686	-13.4900929941638	-7.89450926142011	
3340000000	-13.5395375170499	-136.875855928494	-2.15980225314986	40.1060109073359	-2.1384873231297	40.046787539222	-13.2699962771656	-8.00909294902087	
3350000000	-13.1976863478497	-138.30183104706	-2.19112515560916	39.0342190019152	-2.1923423234701	39.0937342294483	-13.0116713151522	-7.26921671442128	
3360000000	-12.9806424687983	-138.210268674281	-2.20686007160932	38.1640750621458	-2.20932571716413	38.0854844127947	-12.7919713659133	-7.17929792979205	
3370000000	-12.6236800329758	-138.599027444131	-2.23062650107469	37.2380088570352	-2.20921765993538	37.1547526800503	-12.5903052456174	-6.5355380743581	
3380000000	-12.3585039056474	-138.659353176161	-2.23242083161282	36.3660404505685	-2.23641387845142	36.1827827528083	-12.3463320149051	-6.88671587796386	
3390000000	-12.2431270324121	-138.938767617605	-2.25513193421045	35.3136806479853	-2.24079903949811	35.4515366625042	-12.1512435674188	-7.72561741305869	
3400000000	-11.9508150888864	-138.381340298345	-2.27345820215994	34.6036590392489	-2.25877124330786	34.3423410480277	-12.0555278629512	-7.60917989915743	
3410000000	-11.9143211879929	-138.789507719696	-2.28127743553575	33.5573359751049	-2.27467031830498	33.5646572005452	-11.8470843473816	-8.53298795797085	
3420000000	-11.8153059831254	-139.261542879869	-2.27214280660374	32.5470447917134	-2.27523413725362	32.661881188674	-11.6795922049704	-9.43552670064625	
3430000000	-11.7469556738196	-139.623470951626	-2.29511984050635	31.7448254870287	-2.30414767400704	31.6741886561668	-11.5765247760085	-9.05880312057467	
3440000000	-11.7046875151059	-140.881573364629	-2.30491585365309	30.7788435123381	-2.30890594908099	30.7573961124051	-11.5459882644214	-9.39184667581256	
3450000000	-11.618124862035	-142.027578048316	-2.32469230866852	29.8389571289756	-2.31288430878324	29.9689041292307	-11.3593285052817	-9.75864667450784	
3460000000	-11.5574297405898	-143.212339250188	-2.32507648270905	28.8845974630617	-2.3171065942052	28.8268866636579	-11.3759175044623	-9.6351447426657	
3470000000	-11.3715573882831	-144.632933741281	-2.34816305737786	27.9593168936706	-2.33015511565952	28.0386976490044	-11.0740915791615	-9.62633548890251	
3480000000	-11.1688843761804	-146.333055619466	-2.36927324383972	27.1400335251506	-2.37012852155724	27.067891087167	-10.9790321757393	-9.61357645767706	
3490000000	-10.9379620769046	-147.030565903498	-2.39033189859107	26.0534284186375	-2.38800457703567	26.1439687923049	-10.8359071092444	-10.0116415901507	
3500000000	-10.8294797069971	-147.357912955372	-2.40808403222275	25.2607866308363	-2.4092486420987	25.1586366292788	-10.7196554808347	-9.70256202334401	
3510000000	-10.5405119245522	-147.540514548607	-2.41019646315662	24.4054603064329	-2.40047524633921	24.3127258715639	-10.6252011126858	-10.5709294264461	
3520000000	-10.5174939398073	-148.047365660235	-2.40408392555779	23.6505843552852	-2.41896028619657	23.5505647483097	-10.4451837804762	-10.6808404135398	
3530000000	-10.4082080085099	-148.195598019266	-2.44371653193009	22.5614256183982	-2.42779882871011	22.6334154518501	-10.3713621625795	-11.2522446504229	
3540000000	-10.349779508131	-148.079153803575	-2.46721382247738	21.8090534691789	-2.46036904939063	21.6290899630099	-10.2973588829291	-11.7364939677404	
3550000000	-10.2836736063541	-149.034951556026	-2.44720539395551	20.9628137749643	-2.45716429161286	20.8184436702574	-10.2511956959646	-12.353338252929	
3560000000	-10.2985879057248	-149.828395376032	-2.46734019121478	20.0898187066346	-2.47430696283406	20.0769579906202	-10.1614249532934	-12.8133321646881	
3570000000	-10.2773711446704	-150.731365920874	-2.47575118378196	18.9954442810796	-2.47655265715266	18.9311964862892	-10.14807894879	-13.5313956802859	
3580000000	-10.2250072422502	-152.093420639466	-2.49102185114312	18.2058568648397	-2.48586073696415	18.2252999268101	-10.0804939826604	-13.5060711178914	
3590000000	-10.1640359979685	-153.043908429415	-2.4925042931472	17.2040594548862	-2.47836295679191	17.0613876780722	-10.075806960382	-13.7633663100349	
3600000000	-10.1145105413593	-154.731300981625	-2.49548755046864	16.4752251158829	-2.49261235835962	16.4174746202543	-9.96570071948146	-13.5962390049182	
3610000000	-9.9564749892464	-155.685887354487	-2.53592823129772	15.4287596759106	-2.53062270554873	15.3825251889932	-9.82929720199517	-13.5116943162242	
3620000000	-9.87115162622626	-156.688378311389	-2.53898175003062	14.5025267718663	-2.53397038138296	14.4707618121176	-9.7652803718843	-13.8908562686273	
3630000000	-9.72675950280165	-157.126930866064	-2.55337688926979	13.7350860960229	-2.54191957534894	13.7350086179013	-9.66108429291679	-14.3390654424213	
3640000000	-9.64693207977984	-157.973019608227	-2.54414643533453	12.9347418213121	-2.56089347589052	12.8859809349904	-9.61513893526847	-14.997740199157	
3650000000	-9.54996617373518	-158.100006222135	-2.56525670814984	12.0303929285314	-2.53111800602803	12.1166964583653	-9.57991086505224	-15.7739560417473	
3660000000	-9.54490385911685	-158.123825089434	-2.60197948184866	11.0987415350985	-2.55396341976317	11.0194436776846	-9.52027877988517	-16.202315803786	
3670000000	-9.5066381463995	-158.872261243595	-2.5701152203179	10.4479494498418	-2.59387144586834	10.2919081804066	-9.45486746586091	-16.2212454910037	
3680000000	-9.50388180556493	-159.331709021856	-2.58546670750001	9.3304695727922	-2.59107036930822	9.41095604634886	-9.48176826433918	-17.2620841041719	
3690000000	-9.55718453469058	-160.274215170055	-2.58614404827116	8.59579804586503	-2.60768884275612	8.54881912180264	-9.41764720441492	-17.635371860693	
3700000000	-9.57498026347141	-161.190874225703	-2.61038708263805	7.73796493614856	-2.5897504060941	7.59643987463197	-9.4663308316463	-17.8302971847932	
3710000000	-9.573876912547	-162.613166367294	-2.60147482512914	6.77025542425419	-2.61693836975488	6.8024772671708	-9.39599532748622	-18.1660872722966	
3720000000	-9.55685088831905	-163.751052301543	-2.59874171776649	5.94147486297337	-2.60731237406773	5.76528179365187	-9.39267211026054	-18.2403662797991	
3730000000	-9.51263500599677	-165.208370253782	-2.61705211002915	5.0535298795429	-2.6129324858582	5.04189522510946	-9.32816870214227	-18.3273566020519	
3740000000	-9.41151520080055	-166.145601515471	-2.64837082821576	4.06949718737296	-2.62216197023546	4.0572526231721	-9.28275209511128	-18.6579169661578	
3750000000	-9.30890134064772	-167.186023858363	-2.61627664849135	3.29357071654304	-2.63053309156907	3.11134902920793	-9.25160034879829	-18.5102278452666	
3760000000	-9.25274149078201	-168.122586952653	-2.65458809662611	2.44879006875999	-2.65389267345933	2.384986789277	-9.20485910645176	-19.2344499842164	
3770000000	-9.24894509102073	-168.04882846664	-2.66703505973206	1.61821065972244	-2.63835451472956	1.5627833437403	-9.21376926973237	-19.8968704590194	
