!Keysight Technologies N9950B: A.12.38
!Date: Friday, 14 April 2023 14:11:13
!Timezone: (UTC-06:00) Central Time (US & Canada)
!Model: N9950B
!Serial: MY61131330
!GPS Latitude: 
!GPS Longitude: 
!GPS TimeStamp: 0001-01-01 00:00:00Z
!GPS Seconds Since Last Read: 0
!CHECKSUM:0648611289
!Correction: S11(ON U)S21(ON U)S12(ON U)S22(ON U)
!S2P File: Measurements:S11,S21,S12,S22:
# Hz S DB R 50
2500000000	-8.92862926977775	175.62351893863	-0.729123224614285	142.919887214695	-0.711753765962213	143.076812441471	-8.76900263283236	-69.5807796761167	
2510000000	-8.94890810812043	173.867255041919	-0.700228078077593	142.27133430916	-0.721449291658062	142.270355453076	-8.78146021354225	-70.0407252520822	
2520000000	-8.97016541308993	172.973121379367	-0.733404378542095	141.418096654764	-0.731046802594331	141.437773876336	-8.80015534488764	-70.351723432177	
2530000000	-8.93079755316937	172.135393325095	-0.745667778333748	140.596898610535	-0.724396127925762	140.795928389088	-8.80387373308023	-71.2686504026999	
2540000000	-8.91250021506538	170.569470775717	-0.73595881679832	139.962918370781	-0.733771334511087	139.96493234443	-8.74338762914465	-71.2180173351139	
2550000000	-8.87293026224171	169.81857617788	-0.749494467764647	138.964674068028	-0.745152209983421	139.013955706859	-8.74558425133879	-71.9252964404851	
2560000000	-8.88144494265806	169.076579088258	-0.759670066953151	138.29163190073	-0.755424152486774	138.400891075041	-8.77124214100392	-72.8106045616041	
2570000000	-8.88344317117394	168.167876373289	-0.723692264049062	137.490733803306	-0.725131813157885	137.716426474476	-8.90009084899783	-73.4023555017913	
2580000000	-8.9408421467746	167.578517906059	-0.734638663734055	136.849063651169	-0.736264578672937	136.801239529212	-8.84153838611557	-74.066014158042	
2590000000	-9.01422138327023	166.378138002407	-0.724819823923323	136.055872528242	-0.727333035299908	135.885918499535	-8.90369034069207	-74.5062424741495	
2600000000	-9.09705914772043	165.844969260553	-0.712309745935894	135.160607385343	-0.705951570295128	135.090905793438	-8.90509926285333	-75.3009520385913	
2610000000	-9.14047409518281	164.88503547702	-0.720627385337158	134.360786177331	-0.689085904002815	134.357328039763	-9.01085416065048	-75.6924767321193	
2620000000	-9.22938490446945	163.16181691144	-0.707913464195524	133.541383642259	-0.692266099852654	133.405792276004	-9.03175580663186	-75.8683728986138	
2630000000	-9.29807867062466	161.722629711663	-0.685154257175086	132.694817940993	-0.680202325116365	132.849382143176	-9.11211976140234	-75.6786627372334	
2640000000	-9.32943779982101	160.542160840881	-0.670131699989421	131.842022958814	-0.664141583383382	131.913517462199	-9.17451195991016	-76.1465153057072	
2650000000	-9.35687630118744	159.511630429572	-0.683059015977976	130.989791592888	-0.65894305571476	130.902362961768	-9.20491184726406	-76.3682628823232	
2660000000	-9.40598320408838	157.88483044718	-0.667260070238907	130.134803850747	-0.668148565654917	130.207082841176	-9.27149584973195	-76.6694652576308	
2670000000	-9.39395008209944	156.740278213965	-0.675029705740038	129.470328571076	-0.688916235850821	129.427232860769	-9.18994159640939	-77.8993774503267	
2680000000	-9.39289519351702	155.881715915813	-0.673719340309188	128.692083562601	-0.684267729812304	128.782721117199	-9.22142822850276	-78.2470316003881	
2690000000	-9.44398533988274	154.951959797259	-0.676089024256134	127.712959557722	-0.66577889690275	127.822455505274	-9.36465550065839	-78.824805501969	
2700000000	-9.52078706929115	154.701722579654	-0.654171051442431	127.093865526724	-0.670619293504617	127.16140257291	-9.35340802458159	-80.153338399995	
2710000000	-9.52703908024339	154.157574860136	-0.664344937832429	126.197548563037	-0.644162602393448	126.227834299289	-9.38602913948484	-80.5806214423583	
2720000000	-9.61909008957137	153.257924097533	-0.669876620132023	125.538065504953	-0.656165840237775	125.524773087971	-9.56328891694232	-81.2136786990704	
2730000000	-9.81533523483317	151.911715121179	-0.627887918818191	124.687427486542	-0.615662851404933	124.71282320399	-9.71596195223188	-81.9885770859518	
2740000000	-9.9354627454466	150.632566297149	-0.602240329813082	123.821191839529	-0.61882589612541	123.685028891172	-9.72237860269163	-82.2827125095357	
2750000000	-10.1639976527458	149.93985123421	-0.576835758353221	122.923923484679	-0.60137046127929	123.053994002495	-9.86898095735314	-82.8602414889565	
2760000000	-10.1564525369935	147.982591968412	-0.581111218221057	121.990371931933	-0.561870266450059	122.057834387771	-10.0042212107117	-82.2432233303644	
2770000000	-10.3309289418982	146.537434346981	-0.56999977359113	121.206894781448	-0.588275015729241	121.357535682158	-9.97541774364042	-82.7787366341095	
2780000000	-10.3769742151629	145.024132298	-0.565170639766328	120.339870378875	-0.570181147949793	120.410736412363	-10.0770813152965	-83.0596649563555	
2790000000	-10.3771967937046	143.919279745251	-0.558546635013547	119.521333534256	-0.5599809763176	119.62115261827	-10.0971842203809	-83.6595725536847	
2800000000	-10.4270656721171	143.080953979798	-0.561086257524451	118.708229003534	-0.56348293869516	118.734879455638	-10.1725995079003	-84.6065630117591	
2810000000	-10.4605293450774	142.223254501407	-0.564788089983253	117.822571061673	-0.563070004071323	117.934263152694	-10.2615594096557	-85.0537704617672	
2820000000	-10.5421877671246	141.011651820693	-0.546645888797922	117.013320437832	-0.566022590522089	117.09903846107	-10.3858759967448	-86.5832091601029	
2830000000	-10.7235511460531	141.169317775593	-0.538417908118279	116.244798711165	-0.562265947172007	116.23749936959	-10.4641933845405	-86.8835259812019	
2840000000	-10.8121836621375	139.608755484303	-0.519577553133812	115.475958564412	-0.513191410628028	115.363100996192	-10.6294097534681	-87.4305658815777	
2850000000	-10.9633761680193	138.963288008284	-0.491352976321535	114.60604068127	-0.495326345799685	114.59994112399	-10.9340457334232	-87.7655753203484	
2860000000	-11.1087245161475	138.262412129473	-0.517516005954925	113.737195580997	-0.502628008824554	113.740037871255	-11.0430737864774	-88.5608968719556	
2870000000	-11.4003981760073	136.718701948118	-0.486629151048241	112.86497498656	-0.493054114518283	112.754618733513	-11.0825852193093	-88.9490298247452	
2880000000	-11.5471652317895	135.063448503136	-0.45582659599464	111.988363780912	-0.458078932999395	111.940906371084	-11.1833733684728	-88.9318201272309	
2890000000	-11.6441288615707	133.282840464972	-0.475752140346059	111.319021731442	-0.453297582135615	111.178319079099	-11.3711082860963	-89.7947676521604	
2900000000	-11.9273962441639	132.049238395532	-0.440552725231167	110.25971920423	-0.451729863726744	110.128279676037	-11.5462952811703	-90.1376205082215	
2910000000	-12.0863909061737	130.127737824915	-0.450031955874759	109.338772859746	-0.433036077008135	109.2828036467	-11.7999974153003	-89.4788551908617	
2920000000	-12.1559673061996	129.048716887334	-0.431224574761271	108.458483860352	-0.43185472127767	108.497115657399	-11.8531897786981	-89.2186218315658	
2930000000	-12.2361206306026	127.869338758163	-0.436660130091932	107.569881452317	-0.429784093817024	107.611810120811	-11.9836382985859	-90.7038854625619	
2940000000	-12.3241671994185	126.74988403893	-0.423912660583273	106.860969894352	-0.401059033161229	106.738157195248	-12.0561456674872	-90.2031879610629	
2950000000	-12.5134151912349	126.290567310617	-0.417520772658525	106.003933494029	-0.40937841808566	105.936124318534	-12.3081065629411	-91.836361403772	
2960000000	-12.7298665358706	126.326938050053	-0.400473371563005	104.89157675816	-0.387419033828325	104.948595652192	-12.5188221554293	-92.5199420719144	
2970000000	-13.0678522851163	125.527427979149	-0.380141744708552	104.151384288554	-0.379279083892211	104.194065338104	-12.6886895917975	-93.2339198432356	
2980000000	-13.2339144385465	124.208923131352	-0.388329830432909	103.394958286082	-0.380331248792774	103.287648131438	-12.7815949289127	-95.018829638811	
2990000000	-13.4583409349556	124.136181742705	-0.348122030461612	102.274450315912	-0.35653527974438	102.286432922592	-13.2119481404656	-94.3916272099474	
3000000000	-13.9227792718013	122.194740615392	-0.325657852322482	101.381180758598	-0.340174823018785	101.500782490957	-13.5223948089903	-95.3906104025613	
3010000000	-14.0345327591366	120.596146506654	-0.338125679081475	100.559474426304	-0.319369078590485	100.601922892186	-13.7419230239445	-95.0736144129974	
3020000000	-14.4168925425991	118.338094680771	-0.324363654347615	99.6413502680931	-0.31384469519516	99.706585170925	-13.9306487755129	-94.7271312261336	
3030000000	-14.6818315494147	117.07040450711	-0.312306725616977	98.6735246150326	-0.313959455865594	98.8483083707156	-14.1654790435986	-95.0412266444191	
3040000000	-14.8734643564686	115.090967490631	-0.29571135260398	97.7391217430256	-0.292040142892011	97.8026674629175	-14.3152884668208	-94.211862987032	
3050000000	-15.0124830222995	113.15923511634	-0.280953204389391	97.070323988445	-0.289412166087501	96.9226538995932	-14.4602027181763	-95.3113956689971	
3060000000	-15.2045220192667	112.658176613381	-0.293183187159139	96.0405478503291	-0.294650858881118	95.9428581438833	-14.7836602251193	-95.1927263986525	
3070000000	-15.3332223365846	112.001914461468	-0.303986017136844	95.090009208764	-0.288478577277362	95.32408516319	-15.030622815164	-95.590583832597	
3080000000	-15.9154858768907	111.208050623049	-0.279645392762107	94.2230677908256	-0.281552232505647	94.3792504844426	-15.4289053779113	-96.9736804004554	
3090000000	-15.9597221930306	110.049032692226	-0.265596131011279	93.4476921937805	-0.261493086743921	93.4090859615466	-15.6618930261527	-98.246150632854	
3100000000	-16.4278752949324	110.276942732299	-0.263122657708928	92.6072873873913	-0.261868602844037	92.4515290477218	-16.0118220821847	-98.8425267064917	
3110000000	-16.9344407553424	109.448729889901	-0.243784151799777	91.5990313286027	-0.237027817332104	91.6693334981217	-16.619943299168	-97.8709476045119	
3120000000	-17.3221951874003	107.70305529793	-0.256417841958221	90.678191373038	-0.254331800234213	90.5636535819236	-17.0981329689891	-99.269054745172	
3130000000	-17.9401730529695	108.251114232824	-0.247162904553821	89.7654103799238	-0.221825836539308	89.6874523584814	-17.2135636562978	-98.8419970527625	
3140000000	-18.5244381261414	102.754411640638	-0.217062374214028	88.9001630811217	-0.220804717474921	88.6621426417098	-17.8407479276838	-98.9057875987296	
3150000000	-19.0914524181651	102.883743685062	-0.220300225811984	87.8504855765879	-0.219551594271081	87.6719001391522	-18.2157878250366	-99.2663221367221	
3160000000	-19.6491256441558	100.410380026009	-0.226982872480609	86.9280364129575	-0.227571993553816	86.8860511570417	-18.6094584772253	-97.6980603173188	
3170000000	-19.7576027638627	97.0313616263079	-0.216970636932801	85.9927803370642	-0.2137757848761	86.0067428507654	-18.7659482718054	-97.9731866651831	
3180000000	-19.9908616335048	94.9347996479983	-0.235678556420699	85.1548187791355	-0.194610904463218	85.1261247788848	-19.3996153500319	-95.9739836008844	
3190000000	-20.9683955049532	94.1974848944933	-0.208129439391867	84.056453201025	-0.211986041013663	84.0877697320683	-19.8543521837074	-97.197802426159	
3200000000	-21.1045185782354	92.6332415913513	-0.206034391839005	83.2606692622734	-0.185927199915732	83.1748764717497	-20.2928229474517	-96.2853998937334	
3210000000	-21.5386639378739	93.372457859294	-0.197119015301816	82.3243390697176	-0.195624498215714	82.3180430940815	-20.9154579371459	-98.3112124622064	
3220000000	-22.8856205695422	94.1887454083534	-0.193640969845529	81.3968621765529	-0.191431075637431	81.3499345191755	-21.5738903062304	-95.7456266304897	
3230000000	-23.852513291807	94.1783971580969	-0.189170336724887	80.3606459292916	-0.18285462207286	80.3499103942742	-22.2647392834205	-98.8615253295395	
3240000000	-25.438115224203	92.0263308970939	-0.196475223235924	79.6109541676679	-0.172914794813702	79.4621706767511	-23.5592569095473	-97.4247242107081	
3250000000	-26.2651762778377	92.4379623270568	-0.1978896930431	78.5645567469536	-0.182645785489255	78.6451456955863	-24.7285995291606	-93.7898607841524	
3260000000	-28.9041229342744	89.7474758200672	-0.191208685571789	77.6182001824577	-0.181878641479048	77.5371518368787	-25.3926979022534	-89.44220426108	
3270000000	-30.9866354406025	87.1381550846005	-0.188445323368256	76.6940682564741	-0.183458210315911	76.7027291213888	-26.7845341125626	-87.9281225201411	
3280000000	-32.6320456157284	77.3234841134505	-0.184940423469617	75.6047017765798	-0.166382407488157	75.6815850351578	-28.2049993817608	-79.0769036839465	
3290000000	-35.062753365419	50.3295770246522	-0.170421198579983	74.722041759207	-0.187623817388334	74.7200504448109	-28.8927301499878	-78.0441593699059	
3300000000	-36.1223724122347	47.0467276085173	-0.200194958530458	73.796376672106	-0.180910774955559	73.8214226134349	-28.020396473787	-69.1701439737689	
3310000000	-36.4532739535538	31.3191884253915	-0.190171110767975	72.8832848207952	-0.17154699237595	72.9039228346275	-29.0784202282874	-50.9723317935918	
3320000000	-42.3283114945763	23.0946300726527	-0.204310698268145	71.7860641788227	-0.155182702096897	71.95298892951	-29.7259057281658	-49.8654068212426	
3330000000	-41.3154253546694	-5.28459452093455	-0.198108674699335	71.0229473467354	-0.152033144124802	71.0382197687679	-30.7691706697789	-41.7651744720032	
3340000000	-39.5288079274653	-75.3167112351927	-0.174579962389553	70.1933247573706	-0.171599523908254	70.1953313439297	-30.3254079349346	-31.0731068088403	
3350000000	-34.1378029025503	-99.2051232121163	-0.181932720599037	69.1576602563352	-0.188888305148068	69.1866903062526	-30.835097613135	-8.4104748174083	
3360000000	-32.51314714961	-98.4614499694124	-0.208056008648086	68.2160336432143	-0.189496012223197	68.2225273572937	-29.6727006281559	4.2630040475387	
3370000000	-28.8488272181687	-99.5520825627926	-0.197618972683063	67.403852875596	-0.16938047631817	67.1990828633436	-29.1653243431848	17.6999583534982	
3380000000	-26.6657155166324	-102.333245641805	-0.187961104770724	66.4156730670937	-0.183462750188107	66.3082753254417	-27.1109983366283	24.6709499672286	
3390000000	-25.6001538627584	-104.910614394166	-0.208043092752542	65.35405578866	-0.185398181266559	65.3766945680507	-25.2540985939126	23.3941511490415	
3400000000	-23.6704832907327	-97.6947899469786	-0.191030813508623	64.5682032402718	-0.19146181693324	64.4340698833425	-25.1563926708333	26.3860007665232	
3410000000	-23.0910994571248	-99.5769727842894	-0.210747424726402	63.5430356717257	-0.190279490906579	63.5805712506015	-23.5953959665818	26.1741803704461	
3420000000	-22.3458665522647	-99.9787391249965	-0.204157422601977	62.4757502169536	-0.203035421990412	62.6100833061212	-22.5888577025724	24.3920431217168	
3430000000	-21.8742838523819	-98.5868665863534	-0.216898567815498	61.7418029704851	-0.211722569138792	61.746849939537	-22.3753636979822	28.8384843459669	
3440000000	-21.5569762511166	-101.226713934648	-0.22275680009308	60.8799286917792	-0.199453435575058	60.7670889130565	-22.1059549430516	27.2623338502062	
3450000000	-21.0914244236306	-102.78681740456	-0.210966544979374	59.9524270407168	-0.209671042708756	59.921057972405	-21.2303506127245	27.7402851951322	
3460000000	-20.9514390427153	-105.648390314457	-0.211392181474506	59.0265996821503	-0.199072070634895	59.0080487108997	-21.4519772246699	29.0209702947111	
3470000000	-20.3061527307116	-109.144771033218	-0.221996011232491	57.9903335395329	-0.211532217998052	58.0183728589999	-20.1532688580601	32.3160516784802	
3480000000	-19.5444060915873	-114.233132224131	-0.261207012931845	57.0267000329959	-0.228254812098471	57.1674372725725	-19.6579383960063	34.1210963682766	
3490000000	-18.7432465612747	-115.309676628729	-0.246530115256979	56.0641171304184	-0.241415060125321	56.0707795634067	-19.0028646937159	33.4478467227948	
3500000000	-18.4109980211567	-116.844927873179	-0.261531431146714	55.2317383207001	-0.253299435854751	55.1469505120486	-18.6118283887027	35.4958969173492	
3510000000	-17.4893744089879	-115.841010631261	-0.25283209639258	54.3388043902337	-0.243122425011973	54.3093305998795	-18.173141147455	33.8557678697076	
3520000000	-17.1881908178519	-119.036959321989	-0.257216092654452	53.4053095703923	-0.276421918492784	53.4589821971804	-17.5070892652407	34.6276773679412	
3530000000	-16.744471035878	-118.242199883305	-0.280735057279806	52.4594931373565	-0.272498771091346	52.4852999797308	-17.1261874246317	34.0740003879032	
3540000000	-16.4166421163424	-117.350951365953	-0.293514144377918	51.6312441566387	-0.282160887922078	51.4668058783646	-16.8155210905538	33.1809397049098	
3550000000	-15.9558112128755	-118.820670709927	-0.275568468552759	50.7056466411052	-0.285997594705922	50.5852033758087	-16.5774996994799	32.2498836173038	
3560000000	-15.7976575100976	-119.908291055574	-0.301307872720087	49.8397690957762	-0.28876184008689	49.8876803741875	-16.1332687140455	31.8594430991946	
3570000000	-15.6301012971797	-120.298353109978	-0.306994925534575	48.7876383593175	-0.302628133540596	48.7774865142839	-16.0521151766247	30.2550633747533	
3580000000	-15.3651412720184	-122.144366030914	-0.322641140253685	47.8915216045033	-0.314420064321555	47.985036380875	-15.8083385572445	30.582278318044	
3590000000	-15.2431739137922	-123.376059350779	-0.316387012924567	47.0049249711956	-0.305858021303901	46.9601456779432	-15.7238691370472	30.5239227030712	
3600000000	-15.0158554026557	-127.129679170759	-0.325914710371728	46.2114438041039	-0.316013870807919	46.160770696615	-15.4046922450617	31.2247344160443	
3610000000	-14.7303770035988	-128.043529059878	-0.332646353634087	45.2440919335815	-0.331925349910849	45.1716301205001	-14.9599137625041	32.1854168013009	
3620000000	-14.4016761905536	-130.466522866787	-0.345637252886229	44.2599977217777	-0.327620676493869	44.2598603246546	-14.6292899981912	32.0975470260998	
3630000000	-14.0677283018012	-131.225225628263	-0.371378706137531	43.4262936414205	-0.356729547991152	43.3477285080499	-14.2929975381589	31.6733870661535	
3640000000	-13.7067242463007	-133.177642833102	-0.368378674302123	42.5455323637336	-0.366769925254512	42.4780422863638	-14.0081139008916	30.5333741217819	
3650000000	-13.3913879438509	-133.185572731718	-0.387225804617567	41.7460926639523	-0.362909989008744	41.6928854234179	-13.7799867490485	28.9162239623541	
3660000000	-13.2472548244024	-133.319902681468	-0.414221607955255	40.7460393163727	-0.38208597490882	40.738869350356	-13.5500332470425	28.9517950826902	
3670000000	-12.9671594954902	-134.368328335018	-0.398087410981027	39.9777158236005	-0.411244632884209	39.8968580136916	-13.2936647365049	29.4664865520881	
3680000000	-12.8177892799479	-134.317095005958	-0.417525821643094	38.9421110909281	-0.419319249098745	38.9961754670753	-13.2088382523626	27.3950421633946	
3690000000	-12.7081015474173	-135.599501357996	-0.411739742379054	38.1686417043379	-0.419660651936369	38.2167160845923	-12.9774738016352	26.9738598041779	
3700000000	-12.6800714839529	-136.726163547411	-0.453094656363987	37.386612722314	-0.426259931676251	37.2533030585968	-13.0143176877397	26.6861343032797	
3710000000	-12.5390960686478	-138.43537442475	-0.436627230762532	36.3719148803072	-0.438355791825535	36.3916571009297	-12.7169001875532	26.3815250196516	
3720000000	-12.5120345353021	-140.038422110784	-0.447217124721712	35.5012725780975	-0.436067410666507	35.4395671230018	-12.6935525422501	26.377462802353	
3730000000	-12.2724270610273	-142.170967649477	-0.448657709762113	34.5826537560952	-0.452488971586503	34.6536007989406	-12.4474035280732	26.315413474697	
3740000000	-12.0832254098084	-143.233420717982	-0.465134097025051	33.7087620217206	-0.453029738463653	33.7616771652368	-12.3014876522165	26.1644401875644	
3750000000	-11.8211663929058	-144.873374616709	-0.464122361962368	32.9248594367517	-0.467998254770431	32.7001662007977	-12.1217295962696	26.6410745564678	
3760000000	-11.6099677100909	-146.759146434175	-0.505575391922188	32.0009285983258	-0.489788350314031	31.8960530226478	-11.8325740871484	25.6213023623433	
