!Keysight Technologies N9950B: A.12.38
!Date: Friday, 14 April 2023 14:28:22
!Timezone: (UTC-06:00) Central Time (US & Canada)
!Model: N9950B
!Serial: MY61131330
!GPS Latitude: 
!GPS Longitude: 
!GPS TimeStamp: 0001-01-01 00:00:00Z
!GPS Seconds Since Last Read: 0
!CHECKSUM:1507444050
!Correction: S11(ON U)S21(ON U)S12(ON U)S22(ON U)
!S2P File: Measurements:S11,S21,S12,S22:
# Hz S DB R 50
800000000	-0.135605835432586	103.129655475722	-47.1729408062141	60.8038923393197	-47.5189026566757	55.6527988461689	0.0563866824026851	-142.787817127799	
801700000	-0.146518800525305	102.891484156553	-46.9460399711197	53.7597034267332	-48.1028197127896	58.5436361533589	0.0515406995805194	-142.797310456042	
803400000	-0.131674621784376	102.727012990985	-46.6738805655467	55.7205927499798	-46.7945621421807	57.2130693026	0.0509973817479479	-142.591108164955	
805100000	-0.124185576453213	102.575792294627	-47.5017611003119	56.1248801323076	-47.6071599821516	58.3834926776027	0.0560939823392496	-142.689542501245	
806800000	-0.137525576234678	102.553992132941	-47.3047040962622	57.1321010282619	-47.7386269795999	61.2624851019886	0.0655778405860792	-142.611943046766	
808500000	-0.120262378561641	102.308173065956	-47.151765197846	53.9820692677729	-47.2518406183227	57.2760126264742	0.0601318285446585	-142.531997872558	
810200000	-0.114244997108321	102.285603982438	-45.9942957747133	58.2156074366295	-46.7106184857654	55.8563863266588	0.0649933996441874	-142.431647513006	
811900000	-0.141606364146158	102.158570331793	-46.8989082220907	60.9591428009327	-46.9146766382327	57.8841382026302	0.0692289156933335	-142.16933445768	
813600000	-0.13162518472927	101.912157106594	-46.5519850312981	57.5670818433263	-47.4853747057089	57.7252047837538	0.0583199888750509	-142.244690855753	
815300000	-0.146826564460596	101.782728249383	-46.6083467614824	60.2863731023672	-47.1600152039356	61.7431604919641	0.0500491259103341	-141.987884651649	
817000000	-0.163664423836338	101.542351492829	-47.8910272234411	57.3570899675104	-47.1075971533062	60.1534500614885	0.052880443176438	-142.071527750448	
818700000	-0.129521888524154	101.264172621967	-47.1455705281141	56.5154918256786	-47.3674712437501	60.7937086401296	0.0620975003228376	-141.905321465197	
820400000	-0.125215636387323	101.381486518811	-47.0084320713632	56.1388877758519	-47.3814872080539	57.7921529712228	0.0630767115235842	-141.908101088317	
822100000	-0.130761844727295	101.15366649276	-46.9641195590474	58.7115755930998	-47.2396625811546	54.0124419766783	0.0467474132109593	-141.743840290063	
823800000	-0.126498816143594	100.937378015492	-47.5209849701565	60.7997856048761	-47.4726047644775	59.3789427669903	0.0539423039291564	-141.70682017127	
825500000	-0.124576838790566	100.806248896935	-46.7986833089109	60.6404198041419	-46.1850325444923	57.9878226974375	0.0681869222126727	-141.575690407885	
827200000	-0.113979204477173	100.484693506125	-46.9652612316199	54.4129711529929	-46.6453021397579	55.159791195639	0.051092593026832	-141.519312744639	
828900000	-0.136701178985202	100.544269336567	-47.1494671560388	60.7855033495723	-46.5897816992894	55.2866175932722	0.0623200835964383	-141.620701813749	
830600000	-0.128900745791879	100.433843167384	-46.5867135917278	58.9868233569942	-47.2569574013506	56.7686198423741	0.0426974137738596	-141.388450013959	
832300000	-0.135154290672744	100.079761169628	-46.6981400107233	54.5229923495441	-46.3508968428071	57.4949992886857	0.0441692356199353	-141.203183838392	
834000000	-0.137020759933018	100.018503940325	-46.9462225568432	58.2867213563237	-47.2736037389963	59.9401404425535	0.0757036331561103	-141.277765084278	
835700000	-0.152253242608101	99.754891504965	-46.7105385788128	56.7159427267229	-46.7450266257924	54.743856616037	0.0533462340203819	-141.176521151772	
837400000	-0.134332896830572	99.6784284312624	-47.3788016986142	57.4002147268977	-46.8941404196398	55.4002605139916	0.0528441507889489	-141.042362172001	
839100000	-0.118962648775149	99.4766048925973	-46.9286196176916	55.4694265548457	-46.692636097779	59.3913272330252	0.0595872282619375	-141.23409893216	
840800000	-0.140218100577545	99.3393256977921	-46.9034729102657	60.8588303384015	-47.3866367890769	61.2532273159738	0.0672854320466538	-140.973250883393	
842500000	-0.138875211725648	99.249958041497	-47.7319690980886	58.145389847046	-46.9593211173704	56.9565155214338	0.0400607980654024	-140.823056847928	
844200000	-0.135996449223889	99.0107778056688	-46.6308553978977	58.4631285789486	-46.3611668148524	54.4353184816511	0.0525345429608037	-140.761908228602	
845900000	-0.129298806524981	98.8509705081603	-46.7605986464	59.0652923192032	-46.5617610216395	58.08861770163	0.0460967991127234	-140.746510083128	
847600000	-0.146165352535301	98.6552217153002	-46.2615025461823	59.0711291013454	-45.9479069645056	58.3623605657506	0.0621836190038883	-140.521783758319	
849300000	-0.129507564811539	98.4496303803133	-46.7142872299328	55.6302249023027	-46.3156036773804	60.4508416739675	0.0597029628015288	-140.53187767407	
851000000	-0.123463338111682	98.3744608556538	-46.7405625795303	55.7834894353983	-46.6471769168413	56.9292050999428	0.0531767262453851	-140.422568870491	
852700000	-0.134311853775041	98.1472531807032	-46.9475821206195	53.2365448702809	-46.8356269622236	55.9353475946484	0.060077891488037	-140.370077496071	
854400000	-0.140556964327826	97.9468700354911	-46.2522750994878	52.2284001853106	-46.536139184995	57.547656095323	0.0573550671757697	-140.277309589431	
856100000	-0.124491566445416	97.824845921791	-46.5007749463871	54.7218093014403	-46.3921897620532	53.234684603068	0.0547262157876593	-140.227941673992	
857800000	-0.130582954782697	97.6249578330844	-46.6220211369392	57.9855824091285	-46.7603190399907	56.3067037962458	0.0561163690591047	-140.143388093955	
859500000	-0.139220850620023	97.3435388423916	-47.0179443033528	57.5134651839301	-46.9388413476113	58.7375453467511	0.0540293847485328	-140.101434276226	
861200000	-0.144229962109961	97.1888396157896	-46.8884958904418	58.9817703739018	-46.5713632227636	53.7156737027695	0.071277240563093	-140.085307548506	
862900000	-0.133397839748337	97.1140074239835	-46.6705948232963	57.8456146554526	-46.7294221001814	54.4916829644634	0.0611529089360817	-140.073420026591	
864600000	-0.13761333650049	96.8036140337667	-46.6848955551468	55.672258775658	-46.4999920843917	54.6089072648672	0.0460856556651101	-139.861736693997	
866300000	-0.122457265398078	96.7116172536065	-46.3067743217787	55.469758649883	-46.8811142746471	60.5953367212788	0.058197410693136	-139.749595049988	
868000000	-0.139815741157043	96.5455386234241	-46.4717249985142	54.1173098353972	-46.2182669822645	56.6616518008347	0.0554749003047836	-139.653081774083	
869700000	-0.137286070775885	96.2446232326412	-45.8937673913468	56.5105446714697	-45.9864475394675	56.9795351495858	0.0616546737148635	-139.568699883356	
871400000	-0.134539108308408	96.0919047165794	-46.5532332232279	57.6093617944815	-46.4157238131661	60.2027479236615	0.0560956189212943	-139.575841805037	
873100000	-0.138055433672952	95.9229181013368	-46.6304147845667	53.5697379411963	-46.0726129578497	55.6941785886472	0.0651159953511101	-139.446588792876	
874800000	-0.138147595639675	95.7661169564412	-46.1327351526788	55.3385474060088	-46.6137140736567	56.7664326366089	0.0535267242215631	-139.231286714412	
876500000	-0.157638421729638	95.5870015902758	-46.6129230757094	58.9752550718904	-46.426810417676	55.7370683828979	0.0502066750480944	-139.346326201452	
878200000	-0.140217971666382	95.4777305774201	-46.2094194165489	54.3408105422919	-46.5492143748907	56.0039536881357	0.0628026579685711	-139.108586806931	
879900000	-0.144380432341097	95.2196645064467	-45.962124556874	53.6548966557764	-46.6865693402364	57.0339822762256	0.0525551489853161	-139.12377908572	
881600000	-0.132812317601325	94.9793958655619	-46.7306703624292	54.9859213673538	-46.8119790656626	51.588219394526	0.0523278977882052	-139.025137754669	
883300000	-0.140219711729962	94.9013177865162	-46.239714932489	57.0428510647028	-46.1655287445978	55.8928550365077	0.0443505988549052	-138.928416923047	
885000000	-0.130783713124862	94.5950267278922	-46.7279236118868	53.1715890027672	-46.0532082213885	51.9844311141244	0.0565621581786986	-138.844302282987	
886700000	-0.134423072653884	94.5155386635707	-46.8211516217459	62.6268758931684	-46.5061816885636	54.186727474039	0.0458802640685388	-138.844681613694	
888400000	-0.152291631463284	94.3097993869689	-46.419916500916	53.6556408375097	-46.0746549073321	55.8394480127151	0.0541818134594345	-138.88257222829	
890100000	-0.145958868445574	94.044527900225	-45.6164955218622	58.4731921154005	-46.3091060549861	56.7787935685192	0.0469290969045569	-138.684061923194	
891800000	-0.122968382291776	93.9585793570383	-45.7511625466696	55.9776002108595	-46.01905628929	56.7955353856036	0.0476738323977905	-138.562627060276	
893500000	-0.128927794163285	93.7023890353901	-46.3719193491038	54.3662978870038	-45.9345802298086	57.0365465390305	0.0663184325383599	-138.475382001366	
895200000	-0.147032797307731	93.6285855240162	-46.1098313260883	60.3856948893614	-46.2930637859739	56.1567607259992	0.060863241336306	-138.376422674903	
896900000	-0.148225727294302	93.4149921368028	-46.3279241879096	55.6593396663687	-45.906682824964	55.3666869331948	0.0625500416974208	-138.320571509858	
898600000	-0.135568316090797	93.2170381210425	-46.092684799557	55.3396076016352	-46.2577685911489	57.5562703774971	0.0495914706143941	-138.282460610091	
900300000	-0.152509767017626	93.1044515455127	-46.6748502071371	57.3820540442397	-46.4033619609041	57.6072170566306	0.0433551390464876	-138.177976716573	
902000000	-0.139371980326046	92.8483688987166	-46.8022795671115	53.7546308015789	-46.3836559761706	55.5771550381569	0.0507906919806383	-138.084860260209	
903700000	-0.148927801174193	92.7402234792064	-45.8596779273814	56.1560487613079	-45.961030716656	57.9827976795708	0.0406735585373152	-138.022043849208	
905400000	-0.131180731340888	92.5556416119508	-45.848893160131	50.8589094144446	-46.113479840342	53.6948713828968	0.0735216872886809	-137.922129939929	
907100000	-0.135255268743891	92.4923584899045	-45.4241493151005	55.4565470576183	-46.4303338540963	58.8831209147709	0.0495743459607917	-137.829820711932	
908800000	-0.155275596447721	92.2444089235882	-46.5508143098797	50.9793724836226	-46.0127903007762	57.3713804145879	0.0713132592710003	-137.910158298066	
910500000	-0.15585549208222	92.0518337137309	-46.1247485475904	58.3675852397774	-46.3016038612367	56.4597733696998	0.0563524673976119	-137.619229214638	
912200000	-0.156316922242617	91.9845633794055	-46.2028863812553	54.7807380042623	-46.4734230650688	52.3617580781683	0.0490700492575474	-137.576333343168	
913900000	-0.149002571741238	91.7961069344664	-46.0281251401115	52.9854982960219	-46.7453027610084	52.5293605546006	0.0474868302615426	-137.664927877585	
915600000	-0.147880545275604	91.6248488463221	-46.9498014000738	57.0636759571156	-46.1537412182986	53.0776402898118	0.0530825914734741	-137.533779317559	
917300000	-0.145011727034263	91.4375415211421	-45.6697391136	57.1455412492762	-46.4122105564996	55.224344275461	0.0459374960746418	-137.365319137336	
919000000	-0.13461461403619	91.1892835871395	-46.2550235032813	55.3506162886472	-45.8346219810686	55.0210727443218	0.0473363280166806	-137.396793151502	
920700000	-0.146592397004474	91.1159890100978	-45.805687878132	51.4399269986854	-46.0001146553153	54.668621434698	0.0449322587603115	-137.334826237696	
922400000	-0.143496768225686	90.9951493623564	-46.4686691261978	56.5967903026631	-45.8509612003556	54.5102893049956	0.059446525410182	-137.139147409721	
924100000	-0.142592856319709	90.8087321410116	-45.6998417019366	56.5319263141795	-45.3987618341235	55.8881699583999	0.072746521495573	-137.129920401449	
925800000	-0.134404039753042	90.6953997026683	-46.1268928437833	54.3334239814931	-46.3904986629725	54.8412723584603	0.0673007814628632	-136.983679811266	
927500000	-0.128772722187315	90.4543525382708	-45.5189687853515	53.332072637988	-46.0845146034902	54.6463096242257	0.0560842693704763	-136.963375450936	
929200000	-0.146614227437498	90.2127050930568	-45.6908870034096	55.8556920369412	-45.7236191825171	55.7079322722539	0.0457556326339299	-136.918971494362	
930900000	-0.138558946393083	90.1378916435782	-45.859946505425	53.7869873890599	-46.2127056370263	57.4053235443247	0.0578425631493427	-136.801229794435	
932600000	-0.147700109872078	90.1078182633395	-45.7640078955401	55.2782842411104	-46.7210005534569	53.0119712103186	0.0463861580177458	-136.750619376446	
934300000	-0.155210815586914	89.8554252745284	-46.1085935482274	55.6013808683153	-45.3454436443852	54.5555250749625	0.0397838113525575	-136.70864133746	
936000000	-0.124400651312385	89.6935039388128	-45.7766425509344	51.6089774457497	-45.9911357554925	57.6829732902653	0.0516990450196683	-136.561141010745	
937700000	-0.141906581750361	89.6160766710189	-45.709582479973	55.7166566611956	-46.0401891680578	53.4562792620816	0.0516817915549761	-136.373112283687	
939400000	-0.120617565706937	89.3309091367934	-46.2234895880537	55.5875536878592	-46.0345209306618	54.646361564343	0.0577081702452249	-136.427409027158	
941100000	-0.158764861867914	89.3613341965181	-45.8670368677584	54.8396500817232	-45.7956030148716	55.1824857111491	0.0520663267706614	-136.31719289269	
942800000	-0.14367768282885	89.0085500459252	-45.3451203258717	57.3629213176589	-45.546042319443	56.9115819987291	0.0506640614708408	-136.248692251615	
944500000	-0.145213394572789	88.918624947653	-45.8289327160488	56.6019956418507	-45.6364506008049	57.3304056236635	0.0772461418970309	-136.136813874706	
946200000	-0.160211873060618	88.6218552556585	-45.22330637005	50.8965977491623	-46.3354461005274	53.5610947888561	0.0602080726727146	-136.162282115225	
947900000	-0.140208265262663	88.5386188435206	-46.0262174737301	54.2649219307375	-45.9786380918232	57.9571551908707	0.0587783451802627	-135.97120052221	
949600000	-0.147729826688276	88.4402118868976	-45.7636207628072	50.9038056417153	-45.6950691509556	54.5063312039386	0.0519323462347283	-136.053941892485	
951300000	-0.135201664394698	88.2428386872431	-45.6835866570733	55.1690206193771	-45.857362329202	51.6860338385245	0.0635115522723797	-135.958407633767	
953000000	-0.124170108780206	88.1456583387078	-45.1445074348571	61.0484654665059	-46.2198862201183	57.0955215570809	0.0569003024129301	-135.785665352776	
954700000	-0.13068434531967	87.9862430993216	-45.9042721498	51.0248321436307	-45.5520455596281	55.5670732461865	0.0564379325403254	-135.721456695493	
956400000	-0.129562530954845	87.8702384785412	-45.6140312352814	55.4026269119589	-45.7400090214176	54.4888479125249	0.0523895177504411	-135.626571811689	
958100000	-0.138997625144196	87.5779979689107	-45.6151549691261	53.5237008397101	-45.8588614036387	56.5056820053413	0.0655061359662999	-135.56459175379	
959800000	-0.132622815137387	87.4283971139801	-45.4423649486884	54.4445213228143	-45.6722705584351	54.17194025232	0.0522466324858845	-135.500255975748	
961500000	-0.143130401302921	87.3203067212529	-45.3629796329597	51.2108794204445	-45.7093196361438	51.3619714355465	0.0478882741546356	-135.362924057759	
963200000	-0.13162084029417	87.2375768977108	-45.6859401652531	54.2592902380278	-45.8402917053093	51.975926083612	0.0607298911274793	-135.305450622012	
964900000	-0.132507253333065	87.0080129944709	-45.0823608136443	55.0368114175072	-45.2990967913913	54.195500089877	0.0573453927035246	-135.289838258123	
966600000	-0.155684725115272	86.6749621117473	-45.2029907499183	52.66265925827	-45.8165346437293	56.1766129800207	0.0434005586234183	-135.176993043967	
968300000	-0.120812726935427	86.6039990555137	-45.465322344655	53.7796818055399	-45.3447419874169	51.4444666739208	0.06229501524248	-135.03978520793	
970000000	-0.135093302954463	86.4356685139561	-44.891517637749	54.8820838863569	-45.6496591316562	52.0507498537561	0.0546522542755444	-134.870559839963	
971700000	-0.135608375573289	86.3991224417652	-45.5613767765711	52.3980666155788	-45.477073307391	55.0055985868823	0.0490386568750154	-134.863364722711	
973400000	-0.149726961755474	86.0476348361178	-45.1854908497178	54.4710485015315	-45.8191777204739	51.355562426226	0.0522857315077792	-134.766193342374	
975100000	-0.15014859431471	85.9781339604566	-45.2394473684467	54.3036863778825	-46.1545425205263	54.24331637009	0.0490616321830007	-134.749758843473	
976800000	-0.139784440291624	85.674108097977	-45.9076329898635	52.6821865115794	-44.8898127835222	52.7041258684779	0.0625934273785441	-134.664553083614	
978500000	-0.14264062164536	85.6496416359756	-45.4251465337564	51.6183008554591	-45.5447246591663	54.0703353437948	0.0586247399229445	-134.740615338446	
980200000	-0.148052451233508	85.3622037315798	-45.0533010415669	52.6001782796037	-44.8288744461693	57.7156153889584	0.0617742761188111	-134.49735046901	
981900000	-0.144964071559993	85.1334725779116	-45.6676637355959	52.4198235256008	-45.3771247227812	54.2716830006739	0.0652932707517568	-134.476876327521	
983600000	-0.133253150117263	85.0025435889482	-45.7484478456433	52.9036247567292	-45.2775382427106	54.1330213751199	0.04932195468229	-134.345210223763	
985300000	-0.151095517864893	84.878548487272	-45.229047599782	56.6281123149594	-45.6945175862713	58.6580153081051	0.0539386202766128	-134.352701205325	
987000000	-0.14142092795689	84.6038965799437	-45.8135047445302	50.61658258025	-45.0116953660075	57.1660228657803	0.0627385704152695	-134.274153080507	
988700000	-0.147385980472787	84.4488483254743	-45.0969429385259	55.3918506195821	-45.3813810317993	57.5605431715816	0.0527388006944078	-134.088489434458	
990400000	-0.146923631299315	84.3132379680753	-45.3036894595511	54.218837837746	-45.4005993418879	55.1868460549866	0.0646337381245601	-134.019405924734	
992100000	-0.148566439679549	84.270050727673	-46.0129453149709	55.8011139309674	-45.9325833218173	52.6368517196688	0.0624614115127491	-133.960652099083	
993800000	-0.152035264878446	83.9845728677831	-44.6823784695824	55.2790782190573	-45.1654972993111	55.4055366449402	0.0711790567372481	-133.782599945009	
995500000	-0.165682943128513	83.7098824347907	-45.2858709635475	52.9675442031765	-45.2835516058072	56.1595541219869	0.0509956867517916	-133.819051023399	
997200000	-0.141882927362952	83.6783111467058	-45.1451197061745	55.3167480751993	-45.5867812988843	58.7022025319483	0.0518686448581787	-133.737323550759	
998900000	-0.157903780834913	83.3946359015711	-45.6417557150275	52.5472031453562	-45.4526493090726	50.9979952778375	0.0607759561267623	-133.63383990877	
1000600000	-0.140896845748395	83.1686497152803	-45.0755225803735	51.3881122993966	-45.5348134311434	53.6670704561245	0.0438251319826942	-133.56942471378	
1002300000	-0.157322254524597	83.0057025087976	-44.8289891367281	54.6465771542405	-45.34929341234	56.4130509249821	0.0682976583198645	-133.46342150727	
1004000000	-0.151450973012988	82.8392730655555	-45.84812399894	48.1602064502025	-45.103821348747	55.5282631237851	0.0743169673571647	-133.392861719649	
1005700000	-0.143883352035152	82.5503758549803	-45.2975397664002	56.9474628934286	-45.3513312626923	52.1772250917174	0.055349214395995	-133.317960072222	
1007400000	-0.138826897696044	82.4595480737839	-44.8930493354008	53.7594808003327	-45.1234009687225	53.1102211783732	0.0508200672121354	-133.217705394089	
1009100000	-0.157598001743049	82.2947786183634	-44.749317308617	53.5040725147499	-45.2152329774815	50.5133924301733	0.0551363163431267	-133.183415906055	
1010800000	-0.136396751488154	82.0708876191421	-45.2729175556007	51.489723507922	-45.335500326756	55.5112578715445	0.0481778934393579	-133.091584204093	
1012500000	-0.137104053813686	81.8434202687454	-45.0822149503292	57.0747264347399	-45.5552896607614	51.6175107090913	0.0505782936274816	-133.024997219227	
1014200000	-0.17286600988393	81.6280477184334	-45.4864597293461	51.6142899770837	-45.1601710858736	53.3868686690858	0.0540110485411455	-132.960480099959	
1015900000	-0.151005504007804	81.5730468796286	-45.0296833542988	54.5067000820832	-45.5067571084833	55.4743940562494	0.057025874048888	-132.823266266842	
