!Keysight Technologies N9950B: A.12.38
!Date: Monday, 17 April 2023 19:04:11
!Timezone: (UTC-06:00) Central Time (US & Canada)
!Model: N9950B
!Serial: MY61131330
!GPS Latitude: 
!GPS Longitude: 
!GPS TimeStamp: 0001-01-01 00:00:00Z
!GPS Seconds Since Last Read: 0
!CHECKSUM:1852696319
!Correction: S11(ON U)S21(ON U)S12(ON U)S22(ON U)
!S2P File: Measurements:S11,S21,S12,S22:
# Hz S DB R 50
2500000000	-8.26518284845609	-33.6595203237938	-0.827540338050612	154.543449227479	-0.841356166009356	154.446000812006	-8.55086376153841	162.567387351657	
2510000000	-8.34191793699026	-34.1925912473113	-0.862487527706583	153.862394628412	-0.854393254525234	153.776218092743	-8.54915135017798	161.813323514054	
2520000000	-8.31231172083472	-34.2344208998992	-0.855720505565988	153.058520508173	-0.870881866659805	153.076229254784	-8.53106724364217	160.658563536676	
2530000000	-8.32363904535362	-34.7080474915602	-0.850414407374986	152.325094361375	-0.835391448265772	152.399442901031	-8.61082294564029	158.978757280653	
2540000000	-8.33761160574767	-34.7938552779538	-0.847948543650115	151.485820268412	-0.845537997556755	151.56734666457	-8.58691802078984	158.096264700852	
2550000000	-8.40992483787753	-35.5860565482668	-0.837186878008522	151.003734622121	-0.830338116309934	150.845885807822	-8.53745818942425	157.356681818823	
2560000000	-8.39097328361864	-36.1717830242604	-0.842405317860101	150.149090099108	-0.836160651156308	150.102370624731	-8.5470049821084	156.604448442234	
2570000000	-8.37865957409153	-36.1084615070173	-0.827308332952228	149.362596857821	-0.818502973170765	149.425299605455	-8.55611708945796	155.074038431493	
2580000000	-8.4457547836675	-36.4282408040798	-0.805046876793182	148.624166958658	-0.832475144661759	148.634014496597	-8.53453760601291	154.371020346905	
2590000000	-8.44032565222563	-37.4444245255678	-0.825272954689218	148.024090301502	-0.817513234920977	148.053860312351	-8.61039118061571	153.156654575715	
2600000000	-8.54078585426399	-37.3956035044184	-0.813036267468896	146.999553353863	-0.784823383512773	147.09581147257	-8.76131475010953	152.918500753369	
2610000000	-8.58922754838098	-37.8341827400555	-0.811683241304854	146.398089690613	-0.791569774402495	146.315738110963	-8.830141471107	151.239676510662	
2620000000	-8.63142037895863	-38.5324649951146	-0.817496038499788	145.797506946319	-0.782193909193876	145.664593426842	-8.85298853950546	150.527867002203	
2630000000	-8.63546586648095	-38.4539809629404	-0.787555262715528	144.817982505103	-0.779851018063008	144.947616736671	-8.87566248513826	148.872791755294	
2640000000	-8.65841759625251	-38.8679551796789	-0.791246346479808	144.09375289758	-0.788354811135126	144.125578396374	-8.91418664638198	147.668905781239	
2650000000	-8.72968974924762	-39.5189042135896	-0.7876145903165	143.508519913619	-0.766206898015385	143.404397356621	-8.97554572315015	146.442169359525	
2660000000	-8.72272884376894	-40.1379274686851	-0.790110480542961	142.583835868497	-0.776226697703428	142.545408283032	-9.05110947955739	145.7621930547	
2670000000	-8.76235918853833	-40.105738061269	-0.770125969983885	141.786296977893	-0.779452466522478	141.820916593775	-8.9961665047346	144.415956999184	
2680000000	-8.88026732424578	-40.6815927827856	-0.752962179228338	141.221779074282	-0.74994468518234	141.243764195148	-9.07801077118667	143.542141751808	
2690000000	-8.94397145574606	-41.1096437876654	-0.760014169592549	140.431760800493	-0.745328690839218	140.342344799839	-9.12120655977414	142.827013323966	
2700000000	-9.00754344125795	-41.644710041868	-0.729883677419321	139.720041456024	-0.746519904895505	139.667459188562	-9.18664744860573	141.412021164566	
2710000000	-9.07250034530085	-41.5679520717783	-0.731920031675823	138.892996741117	-0.73405105327009	138.900758397973	-9.31208837936137	140.639855914458	
2720000000	-9.12550088759431	-41.7594082036176	-0.715004471105922	138.131482272977	-0.711980997612101	138.142653690636	-9.38639463314276	139.277870572571	
2730000000	-9.26312912600736	-42.7904047588261	-0.739071691920897	137.296008906839	-0.720259467813567	137.187148625859	-9.51324036099484	138.564667058208	
2740000000	-9.27153031386129	-43.0460317227178	-0.716145230171978	136.569565722966	-0.679264889283353	136.496672055719	-9.62997624133244	137.217731537064	
2750000000	-9.32455821308978	-43.1141465217809	-0.684349166477524	135.649773312832	-0.698669542097	135.779571536049	-9.63504794326015	135.730816539713	
2760000000	-9.40918171969026	-44.0114075238159	-0.693351654497357	134.994363103769	-0.675888293370359	135.085331366302	-9.79546367894724	134.501459266781	
2770000000	-9.57420458450405	-44.3483552462085	-0.667123283104693	134.186765972457	-0.679415522996303	134.17766746692	-9.81969555979143	133.56896514655	
2780000000	-9.68497136026766	-44.5744841979938	-0.655132541952908	133.423981381438	-0.673446381544502	133.479418135204	-9.85727857510494	132.628331180822	
2790000000	-9.68324885556784	-44.9739200955829	-0.649433067129917	132.616630214177	-0.641119232496228	132.827780156848	-10.0317157181013	131.179539298955	
2800000000	-9.86481599110556	-45.4614104797132	-0.632452286044375	132.04848678935	-0.626553961070595	131.798429379171	-10.1286632466944	130.716053367054	
2810000000	-10.0239281216867	-45.8847973401233	-0.61515240859333	131.094086897375	-0.6071753190806	131.002980464875	-10.2189529538388	129.849615211444	
2820000000	-10.10697422622	-46.6002204748601	-0.616324364664881	130.341164996259	-0.613721324969371	130.218024588586	-10.3295020113278	128.651817194099	
2830000000	-10.2415478184105	-46.1741376276444	-0.591124484567603	129.332270887944	-0.601707324852955	129.445878645414	-10.4264524638735	127.745813054243	
2840000000	-10.3773828287506	-47.2734421064472	-0.576975436903727	128.63543639894	-0.588714367080191	128.674209195595	-10.6034850742219	126.709191100048	
2850000000	-10.4307040059166	-47.8189343705879	-0.584057968313882	127.906869175638	-0.594827829112902	127.872550381817	-10.7159129838444	124.871424424492	
2860000000	-10.5055976001093	-47.7072546987795	-0.564241290043173	126.964271594631	-0.537879499031792	127.039214125617	-10.9957853501316	123.713511421382	
2870000000	-10.7594898125071	-48.1543163860644	-0.560821879478333	126.351244819599	-0.54801012115226	126.216065594494	-11.1396607334103	123.067204405264	
2880000000	-10.8760336933768	-48.4538873202294	-0.52489480217085	125.37179870303	-0.527214168226141	125.450338744201	-11.155719243745	120.920602846428	
2890000000	-11.0252897295239	-49.3264840087033	-0.544752472867369	124.748036797001	-0.520055503999148	124.647699303358	-11.3064594511707	119.71285427321	
2900000000	-11.2730351848665	-49.3431649013986	-0.514643658202656	123.882051281919	-0.508249990741525	123.668135340139	-11.4651350481316	119.230644713759	
2910000000	-11.2916514033242	-50.1718117994418	-0.510085294788619	123.01631597143	-0.537250168536588	123.063197722886	-11.4790714483058	118.001712885391	
2920000000	-11.514211803012	-50.2685317491528	-0.4888884267859	122.284964484851	-0.483719056144997	122.20128051794	-11.8291785109464	117.357181209842	
2930000000	-11.6671782720982	-50.6075620865022	-0.498297172405467	121.397672212553	-0.484724997675066	121.320059480861	-11.9461555801433	116.336633134216	
2940000000	-11.9174288776595	-51.2107208990379	-0.479055808051797	120.541769014646	-0.478986995220792	120.616585183022	-12.174454880875	115.355613200585	
2950000000	-12.0885145253998	-51.5850193923645	-0.470025189940959	119.610833000957	-0.452621508604581	119.719959635869	-12.3698014248138	113.719363316027	
2960000000	-12.3755794496705	-52.6554113165851	-0.447484299443812	118.992733852706	-0.42458012130716	119.032190311437	-12.6661047802635	111.971513103369	
2970000000	-12.5482071595344	-52.1416506799332	-0.413715131460662	117.997549571756	-0.416822636820026	117.926857536417	-12.9556629790544	110.991330878726	
2980000000	-12.5962926516165	-52.8725852601121	-0.435405990325036	117.102192808217	-0.424468575543837	117.124662252817	-13.1172019050048	110.483424185672	
2990000000	-13.0287175203243	-52.9141580719937	-0.419573955093548	116.383684907878	-0.389767619615727	116.350408387183	-13.3822580413997	108.08440987884	
3000000000	-13.0887963394452	-53.0273602719147	-0.377939336850602	115.385219785973	-0.391413966048642	115.513215597004	-13.5958310538795	107.951141729356	
3010000000	-13.4908823453231	-54.6624950059996	-0.377574495417664	114.657165874508	-0.373778617888927	114.651280942681	-13.7726715583532	105.857212120991	
3020000000	-13.6943772401422	-54.5653370600509	-0.382419672827706	113.733265160625	-0.380174808692761	113.6995498213	-14.1338426422876	105.153407524719	
3030000000	-14.0669975396251	-55.4485418263788	-0.36356581266079	112.931985437759	-0.376605920739443	112.906456342673	-14.2781068218761	104.264118627939	
3040000000	-14.104500446047	-55.0114648009352	-0.340318494464173	112.031774682205	-0.354874852204361	112.092589694187	-14.6562144920545	102.543400067438	
3050000000	-14.4937359855644	-55.3224234837727	-0.371701904082711	111.116560367513	-0.357100910465893	111.033211689048	-14.8731528983577	102.426488006143	
3060000000	-14.7845950609669	-55.2344709081949	-0.340337402803501	110.221182358068	-0.327586989515787	110.241797070349	-15.4676733998125	101.244540439864	
3070000000	-15.1716884312943	-55.1950989096547	-0.307605884272383	109.460289534508	-0.30725649954836	109.412244115326	-15.8055811514236	99.710717867448	
3080000000	-15.5602469397592	-56.4031690487603	-0.335620956394561	108.652630679721	-0.307755922139432	108.523238345521	-16.2309336103239	97.8787402383149	
3090000000	-15.8410364371907	-56.3634082105327	-0.324125924766837	107.686039894416	-0.332851931536766	107.661713991373	-16.5162559562164	96.6499626284429	
3100000000	-16.2806776375801	-55.5549943420047	-0.27827233611316	106.765678165439	-0.296603423802779	106.751318988767	-16.8839228144465	96.6371667244549	
3110000000	-16.5861811547306	-56.7946752582396	-0.287759218297448	105.921565068452	-0.295376603265271	105.835252360356	-17.2301108855206	94.5284457987535	
3120000000	-17.1963311427218	-58.9800817892826	-0.291716473826293	105.101970910977	-0.261675796705042	105.020113871881	-17.6402834502808	92.3611712529867	
3130000000	-17.5205628180693	-57.3430994325157	-0.27436514559928	104.07342613045	-0.250631222648827	104.126155483131	-18.1757740771517	91.797826540702	
3140000000	-17.8656399422904	-57.6662056974571	-0.273300156089928	103.148209154573	-0.278366169602255	103.247328476534	-18.6024134915581	90.1252733936584	
3150000000	-18.55661495577	-57.0505389658039	-0.244238118898299	102.248967869455	-0.255774654413971	102.30371204266	-19.3461103193463	89.8291138677535	
3160000000	-18.9777571244513	-58.9925139161345	-0.267592960485711	101.400689423829	-0.25196575364447	101.366466047254	-19.7826613529997	89.9467604991994	
3170000000	-19.6655492548701	-58.7371726288679	-0.244398972560309	100.581103468372	-0.233954594185332	100.54830848934	-20.5027056099898	87.9823714098271	
3180000000	-20.5458784998685	-58.1934880119762	-0.246493869785938	99.5858102461113	-0.238983631370538	99.7183057972116	-21.2782335982632	85.1380705142207	
3190000000	-21.0590049111332	-56.713455687632	-0.226011110790308	98.7411404314122	-0.22794298019174	98.7952310153536	-22.6025903739967	87.2244960333665	
3200000000	-21.9642304736768	-56.2004457305002	-0.218228447097418	97.9560587757008	-0.207267143592109	97.7089335591767	-23.2058947935743	84.3185853130393	
3210000000	-22.4123235248836	-56.1905111948357	-0.216005013857336	96.8568075491074	-0.217475823530328	97.0637319296826	-24.1220296814619	82.8796256358887	
3220000000	-23.798869671454	-54.204094783462	-0.230248399551796	96.0125543144574	-0.207861770761962	96.0180839263248	-25.6715482721721	80.4324371260548	
3230000000	-24.7215915482794	-55.4545277727071	-0.227550962656348	95.1427350513865	-0.203026257532559	95.2729601892869	-26.2884316881101	78.7842370769453	
3240000000	-25.8348399631149	-53.8619866707671	-0.214219745585585	94.2505119521538	-0.22081371341818	94.1860366617847	-28.7955686988663	80.1828126416066	
3250000000	-27.7037642695234	-50.9253126284494	-0.212376658962163	93.3092223635265	-0.199359440651765	93.3710546471626	-29.4633262357447	69.7656543781719	
3260000000	-28.9926552177526	-48.9075233364673	-0.212381822200129	92.3754687844438	-0.224426358779344	92.4272325201327	-31.2581761513508	80.3967959351119	
3270000000	-31.8463632429625	-38.2264338140057	-0.223096817097966	91.4638013111436	-0.207987119828701	91.5300855546016	-33.5342500757239	78.2012426206065	
3280000000	-32.619056431775	-36.6193199808218	-0.229925441359038	90.6435598179059	-0.21440908196581	90.5933156744345	-40.4874068955654	91.4817993174548	
3290000000	-35.6648345229834	-13.8714653362987	-0.223018153016229	89.5324170766093	-0.226152403756217	89.7034391652074	-46.8941358334524	149.899373339914	
3300000000	-35.8984143971921	13.072259483261	-0.20366820976516	88.7412540900634	-0.201954422796097	88.7743792931225	-42.7562662344628	-121.113430808668	
3310000000	-34.9017628129447	35.5755069471308	-0.210089054383122	87.7361072380884	-0.212732652488413	87.8591311418747	-38.1406947366162	-113.848371648185	
3320000000	-33.8896202940854	57.229194178151	-0.210123230984562	86.9165450974175	-0.209078403786912	86.9041888479493	-32.3868752809069	-120.767377607325	
3330000000	-32.3594488906918	67.6165180411222	-0.204607580159991	85.9800197640582	-0.220619462370618	85.9530858729006	-30.4749567022347	-118.518449661248	
3340000000	-29.4383713004143	76.12011252971	-0.213019243271313	85.1555994784076	-0.221800162926421	85.0505759377958	-28.3954963041101	-111.905104811265	
3350000000	-27.7749579198772	81.1060132856829	-0.234524435440549	84.3129694954947	-0.236872133155625	84.184959995712	-27.5924865972122	-118.204223134884	
3360000000	-26.0563875792059	82.5616271477138	-0.231760762876076	83.4177800677728	-0.222335812070043	83.2675201220619	-24.9664790704058	-118.266416083248	
3370000000	-24.8776365128928	85.001304360046	-0.229308555712954	82.3758445757396	-0.235143427360482	82.3506953678565	-24.269249699413	-118.108711397107	
3380000000	-23.9895202114314	87.1073561576433	-0.231668280522097	81.4384152477256	-0.241197811560675	81.4657574030985	-23.4577389773343	-118.242050971292	
3390000000	-23.0133107891963	87.6452770603075	-0.24204751984116	80.615067981135	-0.241324305047261	80.5185274362424	-22.707094435955	-121.94874783862	
3400000000	-21.8231793384654	89.2670526620266	-0.245422103163351	79.7370379801263	-0.237561394181677	79.7006761372517	-21.5772864284376	-123.094877492502	
3410000000	-21.1220105253382	88.2785447560939	-0.278197815284251	78.7582842655737	-0.242935363040708	78.7114451793106	-21.2774077196369	-123.381582750797	
3420000000	-20.5558320404329	88.3321663775113	-0.262634818287776	77.9219649051441	-0.248226445028812	77.8273927438645	-20.0617899810703	-125.487286494733	
3430000000	-20.1824077087804	89.5229956669745	-0.265631447061626	76.9955152104799	-0.273981974682389	77.1401150816853	-19.4917283387806	-127.251042155035	
3440000000	-19.3100912621792	90.6778786762625	-0.295048041107091	76.1330019114944	-0.29698744285411	76.2123662838416	-18.831571222298	-127.095722436665	
3450000000	-18.9661268493797	90.9242818712065	-0.27301930459711	75.121292254731	-0.2764494517493	75.3055107403195	-18.4236535563801	-127.570831027708	
3460000000	-18.2706637220773	89.4075485674936	-0.32006970996472	74.2860487035977	-0.293773788530517	74.2088232102734	-17.7114320743581	-127.771965289547	
3470000000	-17.7753846442019	90.6683302396505	-0.308019709441273	73.3168908005666	-0.316854388202697	73.3560116457438	-17.5031190877023	-129.85873619228	
3480000000	-17.386752320703	89.1677589466557	-0.312036800431457	72.5833620849581	-0.303546601331448	72.7506920793041	-17.1876790457028	-131.318036123198	
3490000000	-16.8686064805744	90.6398572499542	-0.329126335843569	71.6192754046278	-0.334357496481833	71.750209749252	-16.6941209138071	-131.818885189089	
3500000000	-16.4457540536048	89.9116281780881	-0.343431598931373	70.7700791336762	-0.328545591406641	70.7032081470031	-16.2593165482356	-133.856275263983	
3510000000	-16.0434402324122	89.2832691382385	-0.349272234545264	70.0095360691343	-0.333813009204052	70.0407383133342	-15.9342690109022	-135.025628418591	
3520000000	-15.6973195341075	88.5428466327774	-0.356733854550092	68.9759888876573	-0.343691796608122	68.9869406672265	-15.5243740738934	-136.124595803748	
3530000000	-15.2217667761345	87.7132194206183	-0.367318025417802	68.1542457393356	-0.361420694509961	68.2239150833157	-15.1283339579297	-138.172435534191	
3540000000	-15.1012695781658	87.2437070085158	-0.38222299082981	67.3089433421317	-0.390575930387941	67.3890105725726	-14.651504957453	-139.453456687492	
3550000000	-14.5056657593117	87.28201845607	-0.399516006195331	66.4610957897616	-0.385486360802068	66.3543729685824	-14.4438004841679	-140.021568267434	
3560000000	-14.2707910279439	87.5712574108577	-0.414811708773747	65.5314966577446	-0.398902064449904	65.6132610618507	-14.0944546420694	-141.64123933248	
3570000000	-14.1166602103697	86.3314220955761	-0.413945022581798	64.6853474913797	-0.418356368621261	64.5575715440156	-13.7377233045684	-141.747928884781	
3580000000	-13.7195789814671	85.5318007594357	-0.433918692925874	63.9827470485446	-0.424738311173413	63.7650194930501	-13.5767662858798	-142.997449250677	
3590000000	-13.5298853564028	86.267348404101	-0.445281146783553	62.8500836753476	-0.408056406114534	63.0051761397808	-13.4975894284156	-142.773549645956	
3600000000	-13.4565650318175	86.1104355493724	-0.451832801606852	62.0323991709745	-0.447466796641651	62.0672327830313	-13.2951687241355	-144.955292847669	
3610000000	-13.0597103034283	85.8795981308065	-0.475361515730888	61.1690483375228	-0.464583093784561	61.3050276921117	-13.0070291232004	-147.130170672681	
3620000000	-12.8261661927789	85.0481491195608	-0.485041894483504	60.4277649003026	-0.478728708148539	60.4850866555219	-12.7402077288459	-149.390564389749	
3630000000	-12.6240115766468	84.5628793749144	-0.498593893361907	59.5179574798585	-0.494820242056125	59.5184254236289	-12.5737383745721	-149.042178393919	
3640000000	-12.4624018120502	83.8751938682938	-0.505599976217901	58.7282135326441	-0.515790720677434	58.7732415983096	-12.3041037573739	-151.133633687618	
3650000000	-12.2478249073288	83.8571851514935	-0.528227044117275	57.8805539842419	-0.519796936906028	57.9247177136773	-12.0950628974907	-151.137480703033	
3660000000	-12.0384663155612	82.7817287717105	-0.538989152840449	56.9187010299097	-0.521644054215944	56.9882105313332	-11.8221236861766	-152.855717180877	
3670000000	-11.8624551349352	82.6423161453828	-0.536748182713767	56.1934525061638	-0.540481039127544	56.2000916642417	-11.6412769551486	-153.951646599332	
3680000000	-11.7239466602342	82.1399012847928	-0.563331423746973	55.4195426065945	-0.550386973055757	55.4557207627235	-11.4634677978452	-154.591011468715	
3690000000	-11.5009532166222	82.136615103616	-0.571638631211655	54.510956902754	-0.552032045095548	54.5695748408575	-11.4453252697899	-155.114403845504	
3700000000	-11.3936405131593	81.9625289664806	-0.565353365974838	53.8026665696859	-0.566586378893775	53.7175513186261	-11.2043886920329	-156.688656254511	
3710000000	-11.1571840865711	81.5166461395512	-0.60031039795507	52.9124616859609	-0.590435952090916	52.7866029318834	-11.0120602873838	-157.674305526572	
3720000000	-11.0510137423463	81.4245369153917	-0.604380024354748	52.093266718365	-0.612622681238922	52.0697850921331	-10.9446658459627	-159.305686474923	
3730000000	-10.8852182737367	80.4259833041914	-0.621063668809206	51.4643532587337	-0.640687932197515	51.3629588477924	-10.8657991337704	-160.772941872354	
3740000000	-10.7576095537095	80.8233247727404	-0.642463306261727	50.4074575034269	-0.633085930863171	50.5114934046771	-10.7706189329285	-161.894145200409	
3750000000	-10.695238459133	79.4820984964285	-0.652778047836605	49.6086833715692	-0.636770553254965	49.6357387367862	-10.6724476271262	-162.692449087456	
3760000000	-10.4885760027333	78.7038636814766	-0.664676005925255	48.8694430458388	-0.653122171648532	48.870382398556	-10.4137487835717	-164.086018576621	
