!Keysight Technologies N9950B: A.12.38
!Date: Monday, 17 April 2023 21:07:45
!Timezone: (UTC-06:00) Central Time (US & Canada)
!Model: N9950B
!Serial: MY61131330
!GPS Latitude: 
!GPS Longitude: 
!GPS TimeStamp: 0001-01-01 00:00:00Z
!GPS Seconds Since Last Read: 0
!CHECKSUM:0510839033
!Correction: S11(ON U)S21(ON U)S12(ON U)S22(ON U)
!S2P File: Measurements:S11,S21,S12,S22:
# Hz S DB R 50
2500000000	-8.02192995747912	-57.2764122030131	-2.11153285470153	144.984639114975	-2.13453930440527	145.115162509847	-7.90286535166737	157.529673988015	
2510000000	-7.97538354953306	-57.829597417631	-2.10510312214442	144.222076566853	-2.10931520920611	144.364859464899	-7.88202940344473	156.854664376196	
2520000000	-7.96023735509321	-57.9165922800037	-2.11532990834235	143.558995530634	-2.13662565189213	143.381615194691	-7.88031707879043	156.288292265152	
2530000000	-7.99395062869822	-58.227953102997	-2.11727435062825	142.695364160379	-2.11319880085476	142.67431127719	-7.90961973386835	155.085004511264	
2540000000	-7.96698401922188	-58.9003818487995	-2.12224307005401	142.007028840797	-2.13447251002815	142.047404553518	-7.86682827740662	154.271719543095	
2550000000	-7.97608076361233	-58.8261245323993	-2.12610283218268	141.289257152305	-2.14263529133285	141.27293098352	-7.85617930690831	153.512425805765	
2560000000	-7.99078053311706	-59.6964738487121	-2.13342376436873	140.604385240033	-2.1064405789764	140.605729879432	-7.89523294053303	152.339396627253	
2570000000	-7.96642984711852	-60.0235713513978	-2.12587879712534	139.818010708667	-2.14820458939988	139.613946718356	-7.85407534627208	152.086840662447	
2580000000	-7.94478524312975	-60.056599102811	-2.14157244091028	139.172852082516	-2.1419161335697	139.160371556	-7.87992310758725	150.922971429708	
2590000000	-7.96351490849379	-60.1855097817709	-2.13766833783833	138.36768763017	-2.13193565851763	138.13622232823	-7.86074842692924	150.156135062869	
2600000000	-8.00604996501206	-60.516330142861	-2.14929807023808	137.435988673463	-2.15974249639245	137.467132285683	-7.86014922648245	149.113038644023	
2610000000	-7.98696095237132	-61.2889470638452	-2.14991759828999	136.698271892613	-2.12053297186893	136.589734887572	-7.88522438059649	148.260489833019	
2620000000	-8.02342763143166	-61.5344118150379	-2.13485509774191	135.954899349924	-2.12528986612922	135.931498873685	-7.86327361708518	147.301323622634	
2630000000	-7.95225353275691	-61.6602034124008	-2.15264403264106	135.261622708433	-2.14024975832745	135.1158590576	-7.87534440816105	146.72321651712	
2640000000	-7.98969262364395	-62.3287948581104	-2.13521048383933	134.634510617064	-2.15389924860453	134.512036707215	-7.8857421885427	145.337781228352	
2650000000	-8.07040095639947	-62.5574357413556	-2.11841699257275	133.848065022452	-2.13872851329527	133.588252302126	-7.94692651282154	144.779452036672	
2660000000	-8.07649010088633	-62.747422619858	-2.14485042175006	132.987955194141	-2.14097891899279	133.057313411646	-7.97982903917685	143.678205304329	
2670000000	-8.06085392856762	-63.0686450191127	-2.14831496502758	132.282193420298	-2.14040181545668	132.225480857845	-7.96586346367975	143.24125891501	
2680000000	-8.09997434616549	-63.2314460407568	-2.12591895428864	131.306556226428	-2.12582665425008	131.267044354359	-8.01560079088715	142.198481444345	
2690000000	-8.12398898488906	-63.7292872654651	-2.14099863512621	130.626545110768	-2.13494211550893	130.71478608615	-8.04922814714418	141.356968949773	
2700000000	-8.17264575162324	-64.2887840023695	-2.13155409799471	129.877293630264	-2.14241732977533	129.712163013908	-8.06987632874584	140.672541835463	
2710000000	-8.22102367964365	-64.3829312924846	-2.12572013860845	129.248930600755	-2.13740899489747	129.181118229916	-8.06362496683245	139.61488368816	
2720000000	-8.21999972541848	-64.9847616668164	-2.13744697092725	128.409928572183	-2.10949030563016	128.222674014719	-8.14347541878929	139.172410872766	
2730000000	-8.30452536252466	-64.8035700234312	-2.11025752832265	127.588805082127	-2.13333348962987	127.502042165703	-8.1319094412151	138.276447864022	
2740000000	-8.38317145952563	-65.6325206556512	-2.11526461310645	126.815254352358	-2.13589104192345	126.822367598422	-8.20480024056359	137.125212149758	
2750000000	-8.35385910048765	-65.818001984935	-2.09939113990241	126.170193409239	-2.12358595137809	126.050805760879	-8.205741135998	136.404160755939	
2760000000	-8.39872794758708	-66.2466812338097	-2.11659511630187	125.131385835867	-2.12484929974402	125.290302710366	-8.24155294275976	135.235506330486	
2770000000	-8.48210685013911	-66.5846324171314	-2.11576072900903	124.610389629665	-2.09747486594106	124.436581402452	-8.32609162379529	134.73370854467	
2780000000	-8.52614342191692	-66.9468368768168	-2.1067054447854	123.894258183339	-2.08134000927527	123.734848378321	-8.40458790923226	133.816458464211	
2790000000	-8.54515287007145	-67.0487701087524	-2.0820460531541	123.028094343328	-2.07725390487479	122.904587409945	-8.44292687450305	133.072788332333	
2800000000	-8.54429138489918	-67.3727414503481	-2.08617254471131	122.277614462587	-2.10032115057901	122.264037593725	-8.469908222584	132.15456335636	
2810000000	-8.68131665948472	-68.0145299344006	-2.065474053529	121.478027276981	-2.06624069367013	121.210382069607	-8.53971947020718	131.234514360569	
2820000000	-8.71821179016812	-68.5346648366895	-2.09630516924596	120.559342645834	-2.06670085302102	120.505093771144	-8.60458016527979	130.434714670477	
2830000000	-8.76964459776137	-68.5801846583984	-2.05778386125013	119.890013657905	-2.07629325928016	119.804060422632	-8.64300901042217	129.610520597833	
2840000000	-8.83031572880062	-68.8895145388895	-2.05944826004848	119.138021253366	-2.06010012684391	118.956217031769	-8.76289800623851	128.662789888823	
2850000000	-8.94303515263469	-69.3773651982884	-2.06188547294424	118.187802681482	-2.05383952072859	118.294920267408	-8.82573640417738	127.829275715533	
2860000000	-9.02443622523262	-69.511460723672	-2.04548259112379	117.432802058148	-2.03158531744304	117.455551013287	-8.88437153928274	126.820727600188	
2870000000	-9.06664755157963	-69.9180384236188	-2.04946116870651	116.799022821839	-2.05653828600444	116.663218383704	-8.92140640238321	126.45470782409	
2880000000	-9.17156894186883	-70.4288669054951	-2.0171222433184	115.653872894519	-1.99529020348107	115.82368484025	-9.03938173105874	125.391122458147	
2890000000	-9.31650850270576	-70.5394247920171	-2.02842057718105	115.056494975851	-2.02380401473577	114.980254375485	-9.07446052814906	124.788623390693	
2900000000	-9.29396151465654	-70.8028305993314	-2.02437308122287	114.380014025852	-1.99418291142939	114.316769263773	-9.17925418122742	123.729526023352	
2910000000	-9.38773039093258	-71.2383984655843	-2.01120442068369	113.461227408688	-2.00910241788918	113.407840547077	-9.27632011469699	123.038278605358	
2920000000	-9.52040146690605	-71.6859501000435	-2.01223533407837	112.86199164887	-1.986971220736	112.8020754051	-9.33020689216464	121.868975779105	
2930000000	-9.63996800913088	-72.1756768322601	-1.99241602060354	111.856328844824	-1.97873267294209	111.704190877048	-9.42467786339509	121.803062847709	
2940000000	-9.7277464168386	-71.8211388366276	-1.97657397436655	110.880032011584	-1.95390121367376	110.889706658277	-9.57312111143542	120.722893069069	
2950000000	-9.77551777217207	-72.7946549491798	-1.98568736935205	110.14569837545	-1.98505260297319	110.005891667464	-9.60970529492055	120.042264768251	
2960000000	-9.95339447579056	-72.664982013542	-1.96511204771975	109.389302951669	-1.9650137825146	109.307298324128	-9.74965918313175	119.317228777544	
2970000000	-10.0768654572548	-72.9186152900526	-1.95811829390362	108.491966757729	-1.94886277571905	108.606593636852	-9.8908013904345	118.383845114495	
2980000000	-10.1877196446974	-73.4924482631167	-1.95759893523563	107.762650685532	-1.93585419629878	107.721163837852	-10.0449757596706	117.904137934609	
2990000000	-10.272704232342	-74.0255470333981	-1.93077017249497	106.891177475133	-1.94752266358394	106.83150917556	-10.0654830580107	117.234756862752	
3000000000	-10.4196772872265	-74.3501647196067	-1.95367854711277	105.929510620654	-1.90335169501337	105.99098614604	-10.278956764124	116.396790630137	
3010000000	-10.5379595339338	-74.3103466451148	-1.92714689994628	105.249534349397	-1.91741349545266	105.261572574114	-10.3937142695585	115.118047071009	
3020000000	-10.6741389835482	-74.5352249357416	-1.88954347422985	104.435453767011	-1.89956437203876	104.378912654312	-10.5044380490343	115.075464050551	
3030000000	-10.8100899332589	-74.9957856976964	-1.89483412294337	103.430948097613	-1.90452091690443	103.377074663316	-10.5378506267301	114.654547243478	
3040000000	-10.953239570965	-75.1747013228539	-1.90116520930873	102.564578972925	-1.89749697017217	102.60161422645	-10.6946086942236	113.715255002473	
3050000000	-11.0966759886246	-75.5354130489357	-1.8781082028467	101.911729400833	-1.88830355771201	101.897401133957	-10.9003647062198	112.837295745856	
3060000000	-11.2570251891537	-75.7129001356203	-1.87567783643851	100.923006234017	-1.87133292793761	101.018645725225	-11.0321465610455	112.160929107384	
3070000000	-11.4906530778337	-75.9124337940873	-1.85277066771269	100.367391793106	-1.8543443604051	100.04460447791	-11.1874017807131	111.757921380728	
3080000000	-11.6277573076718	-75.7981051738691	-1.85444590045927	99.3206023607768	-1.85688065624542	99.2435512314338	-11.3547466837923	110.693599343206	
3090000000	-11.798435687617	-76.4691442111735	-1.85213949137445	98.4610109312919	-1.83722812373748	98.4592634058562	-11.5409597579449	110.623322353747	
3100000000	-11.9297291718603	-76.8319226892479	-1.8531165050255	97.4042946397743	-1.81766286497332	97.3481082058692	-11.684739936071	109.607682751335	
3110000000	-12.18256847315	-77.2771973363687	-1.81616600929455	96.6817276044271	-1.8409035261032	96.6363265672321	-11.8115331115999	108.999438462368	
3120000000	-12.3485259088538	-77.1025227925111	-1.819248669308	95.8096215744737	-1.81772428275967	95.7926627851583	-12.0205812891179	108.885417301361	
3130000000	-12.4722862438363	-77.8634853639575	-1.80026292188567	94.9172489094314	-1.82182245231885	94.9048144176263	-12.1690234283705	108.488131764429	
3140000000	-12.7570600120531	-77.78780954396	-1.79464490142777	94.0793473082505	-1.80412250727829	94.0183121500999	-12.3454728497329	107.899874325061	
3150000000	-12.9072710809298	-77.6270027227713	-1.81563116831466	93.0762407521056	-1.77884557723707	93.0834355865592	-12.6099977527377	107.142055453113	
3160000000	-13.184370850793	-78.1235375259182	-1.79924177178039	92.2974669629571	-1.76557573416576	92.1861688757304	-12.8274094794937	106.718005557352	
3170000000	-13.438920522287	-78.1767911688613	-1.78873770978341	91.4633691785692	-1.79997102111603	91.3715786531902	-12.9339454253339	106.383868051028	
3180000000	-13.6691701736897	-77.9573929189728	-1.77305924902552	90.4001087447009	-1.76572357022083	90.4401741799436	-13.2287438497325	106.802392705828	
3190000000	-13.9066122098867	-77.7679854229952	-1.77317282212264	89.6034306467078	-1.7584804711436	89.6228106423907	-13.4996257850935	105.558400775269	
3200000000	-14.0929432581342	-78.295372875389	-1.75865495578802	88.8286702530664	-1.76535478199327	88.7695448621211	-13.7551330583148	105.426347456551	
3210000000	-14.5169477687782	-78.0940231261005	-1.7465512511879	87.9801463733433	-1.74798750374193	87.8554600813504	-13.939953179367	105.533767159045	
3220000000	-14.8535254779334	-77.6805733298557	-1.75169955453325	87.0774345886951	-1.75392581764855	86.9603369354701	-14.2190194454009	105.199376653319	
3230000000	-14.9590399637067	-77.8089726886123	-1.7522111094969	86.0831552067868	-1.75851132365509	86.1238053170401	-14.4513317687964	104.795990821231	
3240000000	-15.409970147714	-78.0945534320204	-1.75674366452826	85.2012081224525	-1.74898907750922	85.219056750487	-14.6970263087412	104.692983065301	
3250000000	-15.7441615217541	-77.9771480770221	-1.74059972768951	84.321964992899	-1.73704968517944	84.2137430294388	-14.9561537018898	105.164567556051	
3260000000	-16.1037045103951	-78.2814411381825	-1.75109408451888	83.4326936533436	-1.72093411139226	83.3929495727598	-15.1517202488754	105.635439211758	
3270000000	-16.4452439397392	-77.6245809175908	-1.74425524759403	82.3635161632607	-1.72581466095024	82.4730801758134	-15.5361336812172	105.336946715106	
3280000000	-16.6728156723321	-76.9801982930096	-1.73327267463441	81.5408364496657	-1.74070556192244	81.6430747754779	-15.6757929180706	105.984912236255	
3290000000	-17.1203638696107	-75.2865772866872	-1.7315181289562	80.6406743399554	-1.73284219168968	80.6313719082523	-16.0470719836073	105.667568583401	
3300000000	-17.4785135545037	-75.503045670985	-1.71923289291091	79.8456214776204	-1.71100170284806	79.8637233860333	-16.4160214418902	107.000514588211	
3310000000	-17.8195371648992	-75.7303320344905	-1.72827370147583	78.863630617695	-1.7292251820446	78.8545203349618	-16.5855485629397	106.86938273998	
3320000000	-18.4261430530001	-73.1419212699918	-1.71702707318735	77.9526512470069	-1.71040722319199	77.9143603487227	-16.9598927330964	108.457350011244	
3330000000	-18.9197402747002	-73.3145153814282	-1.71255067845569	77.0870897413815	-1.71065887097792	76.9370152037218	-17.318871122455	109.909479476746	
3340000000	-19.2060407318618	-72.1014053944562	-1.71234217542955	76.1291146160014	-1.69598106301428	76.1181537217186	-17.740910938127	111.388215816297	
3350000000	-19.8551536119919	-70.6230604309242	-1.73999935194833	75.309325734767	-1.72975617415365	75.1753632010639	-17.9630214747798	111.577237081928	
3360000000	-20.532240368261	-68.643416541239	-1.72346199076341	74.3548405075502	-1.72131605341703	74.3324547675838	-18.1659886174394	113.458940651561	
3370000000	-21.0255617454223	-67.5995151201087	-1.74875021418588	73.4098586166109	-1.7122349662283	73.2860817881104	-18.6762402497601	115.634768481511	
3380000000	-21.4616323539119	-64.9179882038993	-1.73626703055358	72.5168467226651	-1.7172312678858	72.4109593684895	-18.7004765601498	117.570077699836	
3390000000	-22.2221592562059	-61.7888078465095	-1.72871350661369	71.5394188189538	-1.70418237797798	71.549752489713	-19.1216060835608	119.776643236683	
3400000000	-22.4251291730679	-58.3036213940215	-1.72539262488951	70.6238495233136	-1.73650613191179	70.5799040646132	-19.3714860239874	121.367204787099	
3410000000	-23.1266333231336	-54.2911179523587	-1.70538470937984	69.7428052948621	-1.72510289598854	69.7588814249926	-19.5366300885133	123.282094708748	
3420000000	-23.7095689040006	-53.1177338701017	-1.72635310566386	68.8383786251263	-1.74179155974787	68.8332844981181	-19.7670871508234	126.401156804345	
3430000000	-24.3175854615817	-44.2027348413702	-1.73552666965568	68.0326032885543	-1.73875491185748	67.8879819397965	-19.9760217346091	129.127579895305	
3440000000	-24.4454486896498	-39.2262137343861	-1.7176201322044	67.0155898854455	-1.74575854214332	66.9620826845479	-19.9880230182966	132.944232228958	
3450000000	-25.044155452422	-31.9042874328683	-1.76088320681819	66.2022963677029	-1.75809790130805	66.0969499403914	-19.962204974561	136.242087690579	
3460000000	-25.2758980276651	-24.3233043143597	-1.76969692461804	65.2492724647028	-1.76795688569783	65.2048505972408	-20.0158379223633	139.029808738188	
3470000000	-25.3151724217324	-17.3828254714353	-1.75664331218715	64.3251294439601	-1.74544888584213	64.2033179213876	-20.1825513356399	142.401307908397	
3480000000	-25.4816133554317	-13.6819236625558	-1.76898345192076	63.3235676858921	-1.77684336299184	63.4165129870739	-19.8479061555575	145.270797653276	
3490000000	-25.0820313573234	-5.51285085058508	-1.76371663535301	62.3785784695969	-1.76112081093634	62.2847927850858	-20.0523344773096	147.018689254594	
3500000000	-24.8228330625335	0.864926147381031	-1.75723745022101	61.4761983719778	-1.76748249585333	61.4203857813989	-19.8712939489615	150.795868779188	
3510000000	-24.4531598560646	6.25125236461012	-1.78277002974217	60.6110835663545	-1.76297103809461	60.6628599024105	-19.8174015759156	153.100263236223	
3520000000	-24.2682606423699	11.8141142384898	-1.79524624086409	59.672510140768	-1.77581816021379	59.509239199816	-19.1923657765913	156.459843936961	
3530000000	-23.6006935301827	18.6103222223738	-1.79784152263825	58.8746777687572	-1.78152065611538	58.829419925501	-19.1434988091413	158.374220692808	
3540000000	-22.9672841604158	19.8786073976497	-1.80177281478074	57.8916454583155	-1.78942325392472	57.9247041700992	-18.8404747917326	160.784814525449	
3550000000	-22.1151934453446	24.2890039453255	-1.81690340110977	57.1839298998339	-1.80863272347994	57.058799493667	-18.4516451908506	162.865895818228	
3560000000	-21.5786815685458	26.3641764855445	-1.82304771443383	56.0631119611281	-1.82126450464628	56.0971286863997	-18.4800410542742	163.666352562303	
3570000000	-21.1446132681459	27.7857451272887	-1.80784676000784	55.1559418462313	-1.81189665665942	55.1023776493008	-18.0496447186312	167.452362589589	
3580000000	-20.6938305492389	31.563309025615	-1.82463827707813	54.252191177411	-1.82192813575432	54.2865764565716	-17.9115800866917	166.926310801075	
3590000000	-20.2635947190835	31.9877701118916	-1.83213862933809	53.4128097294193	-1.83337656199116	53.4192584723452	-17.3686279766459	168.668100550605	
3600000000	-19.6849295350687	33.9846852147065	-1.86308540747776	52.5122046556709	-1.8565469023723	52.5304429609683	-17.1865731800447	169.338212689691	
3610000000	-19.2235452110836	37.033359380055	-1.88799616549125	51.7251931056653	-1.87641745331794	51.6475946666098	-17.0519649902596	171.385262729801	
3620000000	-18.8467943476217	36.2961177146372	-1.88533353172564	50.6026559710334	-1.86384622197374	50.6429974448156	-16.5128184121125	170.64854878825	
3630000000	-18.4233559047333	37.620670323891	-1.87016987576645	49.8278821148678	-1.91047954057066	49.705855813194	-16.3601958042633	170.897304390122	
3640000000	-17.9004773846248	38.8920883117628	-1.90540756097049	48.8525529686767	-1.88844530546801	48.8556139019069	-16.1017767497734	171.891972091007	
3650000000	-17.6275796816131	38.5742981561599	-1.9127736364538	48.1003450988241	-1.90284131422474	48.0238741094527	-15.7362966070919	172.318032899842	
3660000000	-17.1827623906319	40.7813688961602	-1.94204626038273	47.1574026144374	-1.9348555727694	47.2329654689805	-15.4544881228263	173.137170104683	
3670000000	-16.7403483573865	40.4606713123699	-1.92159729136728	46.2996605275537	-1.91864100397996	46.2533398176046	-15.2213587177903	173.117294938449	
3680000000	-16.3755372652819	40.802429016482	-1.9550482296466	45.3552833635588	-1.93286542736477	45.4580852851463	-15.1249338118876	173.947693622504	
3690000000	-16.1473857021877	39.9330592731952	-1.95356478524919	44.6134990445945	-1.94873401265255	44.6305368930121	-14.7654934715703	173.175835223346	
3700000000	-15.8031069274778	41.5517169496433	-1.98325746535091	43.6169661227478	-1.96081122727393	43.5323079477008	-14.5750291453869	173.123901029604	
3710000000	-15.6414702994851	41.3573556036623	-1.9997891984157	42.6176931651849	-1.98049016058868	42.7883597025273	-14.2189074691917	173.027707840118	
3720000000	-15.2891525697608	41.5670487088218	-1.99043033353658	41.8096567398962	-2.01560619022102	41.9153906334009	-13.9794371173506	172.693617425812	
3730000000	-14.9788550858769	40.9462926848748	-2.02133092000222	40.9777711616417	-2.0004193621682	40.926612447356	-13.813508330886	172.805874917548	
3740000000	-14.7704905700878	42.2640362150992	-2.02807879932802	40.060897369391	-2.00528562617963	40.0968008117609	-13.6210412310502	173.05162043468	
3750000000	-14.5982145784298	41.55897669053	-2.00771626343918	39.2692263378577	-2.02349582362158	39.348974269009	-13.4367446428703	171.910501724776	
3760000000	-14.2676879659957	41.4970143519994	-2.0512849860347	38.4419498000695	-2.06499486235181	38.3454207314306	-13.1184806222161	171.807443464405	
3770000000	-14.0080233376684	41.5335316908499	-2.06262211390796	37.6172397234567	-2.05921557715293	37.6067032443651	-12.9831268151976	171.490423834321	
3780000000	-13.7415274523388	41.8463311765463	-2.07414451860735	36.7458523369761	-2.06991235870532	36.7188347814181	-12.7354161070699	171.083554638437	
