!Keysight Technologies N9950B: A.12.38
!Date: Monday, 17 April 2023 21:16:36
!Timezone: (UTC-06:00) Central Time (US & Canada)
!Model: N9950B
!Serial: MY61131330
!GPS Latitude: 
!GPS Longitude: 
!GPS TimeStamp: 0001-01-01 00:00:00Z
!GPS Seconds Since Last Read: 0
!CHECKSUM:1500068730
!Correction: S11(ON U)S21(ON U)S12(ON U)S22(ON U)
!S2P File: Measurements:S11,S21,S12,S22:
# Hz S DB R 50
12500000000	-12.2342848256317	98.4190688688753	-4.62260722127291	178.458734737443	-4.58320298816721	178.25813028233	-11.777194792966	104.4007709497	
12512500000	-12.4817104599071	99.0455823632246	-4.62631759928563	177.263117214614	-4.60889653895201	177.661396456609	-11.9433739752837	103.858372465314	
12525000000	-12.4670711328484	98.8409625012328	-4.60290865030627	176.607282484323	-4.58224714262214	176.464356580423	-12.0079419277126	103.633960468265	
12537500000	-12.5773005623538	98.5846959803223	-4.63211072227794	175.531556259924	-4.59709063220763	175.561041912527	-12.1323509951248	102.756581017394	
12550000000	-12.7254580934611	99.4723831521544	-4.62330807288389	174.836039566213	-4.58258208460329	174.651822112731	-12.2467298251995	102.704854277125	
12562500000	-12.9321606252823	99.0379730937897	-4.60646487679972	174.165225000384	-4.59401451529399	173.981668305342	-12.303269868251	102.252891953494	
12575000000	-12.9589540575023	99.5697287271942	-4.58560109730291	173.094860003416	-4.54796792065356	173.037534135092	-12.4609277722077	101.914201440027	
12587500000	-13.1263153028063	100.266926275135	-4.57842670306511	172.198544294181	-4.54766479919165	171.912982922437	-12.5432280925675	102.212866133376	
12600000000	-13.3089478456966	101.165802052908	-4.55799032586848	171.108454094994	-4.51848671996244	171.359085695474	-12.7056534982022	100.93533626298	
12612500000	-13.3765917458933	101.144083846525	-4.57115125360264	170.374770930631	-4.55613514389825	170.395456580271	-12.806215245445	100.767214269484	
12625000000	-13.5645532421648	101.700062906843	-4.53420143441528	169.446275163337	-4.55884007190802	169.657656790864	-12.8661242787855	100.16019929445	
12637500000	-13.7141042155537	102.511410073237	-4.53360080561206	168.55516751926	-4.52695341108212	168.497946822952	-13.0975561059673	100.055207433013	
12650000000	-13.7969851419952	102.197252763175	-4.52076937212572	167.634879309542	-4.53633896035665	167.491129804112	-13.1599776771678	100.606471627843	
12662500000	-13.8101531561986	102.455380936873	-4.56227900258629	166.773996082379	-4.5296058468784	166.475213638974	-13.3269209684414	99.2002888779416	
12675000000	-14.04060987843	103.205337667812	-4.53942106986128	165.893214809645	-4.518609119094	165.636240546642	-13.4841829741984	99.7319994605657	
12687500000	-14.3036632329675	103.829232971621	-4.52504330835789	164.772433330279	-4.50660885675329	164.907353624426	-13.575454396164	99.5128858307494	
12700000000	-14.3580382861447	104.819818534557	-4.52675953802067	164.063177815175	-4.49777785334482	164.00763415563	-13.7906591653126	99.4675438414632	
12712500000	-14.6757967255882	105.49115844646	-4.5550518282574	163.243073767416	-4.4999073696878	162.997413167557	-13.9436645712205	99.5149660451871	
12725000000	-14.8468394403271	106.643203391431	-4.50517206962768	162.10064792551	-4.50559503495127	162.029311747535	-14.0477703038998	99.6246101839062	
12737500000	-14.8751807358069	107.896554432484	-4.51074351328287	161.059466780241	-4.48525588500965	161.156736184795	-14.1673140025277	99.206416490797	
12750000000	-15.0323020640554	108.005602980545	-4.52387537719699	160.405659228197	-4.47954525954284	160.254499835491	-14.3480840824554	99.5150634061234	
12762500000	-15.2652071646061	108.878272749414	-4.48474593603181	159.408913995812	-4.47859359885526	159.347306795244	-14.4609913228657	99.1581977203185	
12775000000	-15.4043191745029	109.362238663879	-4.45066094430855	158.668112008913	-4.49286039904101	158.298093352481	-14.7406710749069	99.9458063667371	
12787500000	-15.7259649613779	109.62395372762	-4.52095740313235	157.387653918642	-4.49056512787791	157.60413225307	-14.8025854757703	99.3161549716884	
12800000000	-15.9628690824987	110.770631239871	-4.51012097904639	156.724337398072	-4.46766179731839	156.600477793622	-14.9950936066151	100.417527667345	
12812500000	-16.1155676972557	112.112378900824	-4.47808118442902	155.832861001875	-4.46347743234091	155.73105627932	-15.3464326117978	100.585744017591	
12825000000	-16.2333369457418	113.949278953853	-4.4729259991259	154.850094563909	-4.47525649478994	154.783500054848	-15.2952081984896	101.136229304892	
12837500000	-16.409746124147	115.668238002559	-4.4857561040153	153.98244246115	-4.47199153856958	153.84051253596	-15.4927525376156	102.260352293346	
12850000000	-16.5498801335292	117.470839847433	-4.45853066957809	152.948149958534	-4.44500649511433	152.893443000699	-15.6647126110626	102.238441254588	
12862500000	-16.7111298671399	118.855212350675	-4.45604588828082	152.010268582603	-4.46329152463779	151.823305977663	-15.6594237455812	102.356217190461	
12875000000	-16.8465198510641	120.6860910361	-4.44429214452965	150.915814745432	-4.4484568671509	150.854972379002	-15.9373966879016	103.174483834893	
12887500000	-17.1278292172413	121.502713776916	-4.46653914910116	150.148809533374	-4.44204038047108	150.100133172154	-16.0289688112761	104.22249567276	
12900000000	-17.2618877524319	123.0600615803	-4.45432561366521	149.161664472282	-4.43590551471936	149.146699269913	-16.2806666402988	105.276517845947	
12912500000	-17.4196346637454	123.900502563746	-4.47357439821494	148.168709624661	-4.47687666953389	148.048006997262	-16.3723157478708	105.109987575621	
12925000000	-17.7209337227867	126.563065242464	-4.46706129970292	147.27331651495	-4.45801977174146	147.157059769181	-16.5595787882928	107.314106071724	
12937500000	-17.6342860843882	127.977492996208	-4.46066621352564	146.292236445066	-4.44856698873985	146.048050232354	-16.6530349160938	108.468911011581	
12950000000	-17.8446848600512	131.304465894872	-4.48095347592098	145.399779033897	-4.46417156148804	145.258518951269	-16.730334810236	110.360261553448	
12962500000	-18.0815742038226	133.18621556195	-4.46169471009226	144.545217319263	-4.43019957096912	144.48968183958	-16.9370426113022	111.340481004874	
12975000000	-17.9205527515457	134.544894123205	-4.47694706282227	143.729635270555	-4.45494873372568	143.574761556029	-16.9342399801983	112.837666401716	
12987500000	-18.1564156758535	137.614623831297	-4.47604337307057	142.730141927826	-4.45352917203101	142.460335789698	-17.0557079017287	113.536096153387	
13000000000	-18.144556673842	139.234046321357	-4.45109784115215	141.680836977882	-4.43119560931583	141.580057703819	-17.0276516818744	114.704808803433	
13012500000	-18.1819737895328	140.947913815637	-4.45324059151143	140.695449011193	-4.42258460446905	140.65838389522	-17.2952336633702	115.186970597584	
13025000000	-18.3493657337149	143.349512921283	-4.48090435869906	139.783641615253	-4.47458771175495	139.611995935013	-17.348539854353	118.32380406754	
13037500000	-18.2811445625507	146.539560063069	-4.47712586726107	138.814270629869	-4.48236315655649	138.83548081966	-17.285770499421	119.194567568168	
13050000000	-18.2456569197049	148.581177167117	-4.45065492312921	137.886266293554	-4.44159760596878	137.802610939735	-17.2312032020577	121.770983845124	
13062500000	-18.2375610478734	151.040265927974	-4.47446959491455	136.82838328521	-4.48382599092082	136.763680097595	-17.2133826695756	122.521403884038	
13075000000	-18.0976001975886	153.356030566345	-4.48942390664495	136.066570047975	-4.46420365996874	136.051929708331	-17.3182753575118	124.596410939137	
13087500000	-18.1965517387447	156.257497892229	-4.48972486817086	135.203855854745	-4.46554477517901	135.085229721723	-17.2142772938338	125.78539916141	
13100000000	-17.9485041900187	157.795744968919	-4.4769578130097	134.267057390116	-4.46609477672625	134.094002205046	-17.0808646631552	126.573926970871	
13112500000	-17.9246660878235	160.419870917799	-4.46720445806962	133.195499314579	-4.4739995593518	133.185893922433	-16.9535439985651	127.513641741367	
13125000000	-17.7975996026276	161.744719001088	-4.50520954355307	132.254411797908	-4.49399519960266	132.251426633357	-17.1145086402794	129.256511066755	
13137500000	-17.6953220451661	162.86718089965	-4.50044102024771	131.257490868491	-4.48549925451882	131.278757228856	-16.9754380158452	130.898013722813	
13150000000	-17.7626295998872	165.838309466099	-4.53879892621776	130.502107749677	-4.53955206074733	130.420861706357	-16.8054567910374	131.525198124113	
13162500000	-17.6156710163266	168.355872922366	-4.52235208807843	129.435766732599	-4.49610499726385	129.479532083385	-16.6873793762978	133.568110859066	
13175000000	-17.5366510393063	170.101756217015	-4.51760985480601	128.64901683398	-4.49878065803567	128.369231912561	-16.3764849298632	134.97507918488	
13187500000	-17.2749315458075	171.158020590367	-4.52077137809222	127.590908802957	-4.49644717979178	127.548885121766	-16.2895209827837	136.380120810175	
13200000000	-17.0983292608946	172.814884949378	-4.53005408266156	126.708668305599	-4.51838938147102	126.637817459387	-16.2471969630066	136.336034235179	
13212500000	-17.0070627731509	174.668510669025	-4.49568731472089	125.766656093825	-4.50852110147536	125.736176511891	-16.0683842095804	138.044148021355	
13225000000	-16.7061140054352	177.044373182856	-4.56848614469213	124.717948539578	-4.53946868597156	124.68162720368	-15.9016961147415	137.61371746568	
13237500000	-16.5921301922951	177.690799940223	-4.53078601813401	123.894245640233	-4.54115184347106	123.851796326571	-15.6807510581248	139.021402479308	
13250000000	-16.464496391758	179.179241025746	-4.5601172825304	123.115504839714	-4.55695554709857	123.01776778942	-15.6154378882558	139.030831510519	
13262500000	-16.2879649690378	179.901925403106	-4.59119518159079	122.338176806636	-4.58061243975954	122.080182930638	-15.3811852593059	141.560285309537	
13275000000	-16.0789436127431	-178.763862830166	-4.58622191981036	121.22981657705	-4.56030543230835	121.036778626319	-15.3090616763327	140.554141642734	
13287500000	-15.912695786472	-178.03360787966	-4.59292372387817	120.31117473324	-4.56530122649006	120.284004556257	-15.0741083038722	140.516661102315	
13300000000	-15.7861529412893	-176.756113344556	-4.59999357552307	119.368359312574	-4.58372165742642	119.280549992351	-15.0094483277518	141.680060820161	
13312500000	-15.5760482453065	-175.592391862096	-4.5671616206521	118.556672606791	-4.58854765958094	118.442212162341	-14.7205193524082	142.598402282439	
13325000000	-15.4493444075623	-174.494263810234	-4.56959554307642	117.571739253571	-4.57694832769388	117.358374502025	-14.5646413389352	142.676369998391	
13337500000	-15.2341324829866	-173.978131355028	-4.58879887703046	116.654986321666	-4.60806777297163	116.542244807182	-14.3384945379269	142.578957851684	
13350000000	-15.0664406219106	-173.362321662951	-4.61802860140563	115.830675689736	-4.62036724595833	115.463401211985	-14.2339704375045	142.272291244697	
13362500000	-14.8375351250913	-171.901828262001	-4.61630075651128	114.854099898676	-4.61119445227276	114.638107384735	-14.1301386353843	142.352632094092	
13375000000	-14.7864862773129	-171.463573677263	-4.63826834826501	113.813599124463	-4.64156334594697	113.887694944469	-13.9974772791554	142.063445561108	
13387500000	-14.544757002341	-170.73605585368	-4.64932260641811	113.059965389081	-4.62800767170829	112.827558790178	-13.8228917502389	142.603454132286	
13400000000	-14.4845584609092	-170.036061121825	-4.63785947511564	112.010348967344	-4.64983298224561	111.832640248109	-13.7467913693802	142.38389985254	
13412500000	-14.2932803217645	-169.607266684727	-4.66784926591805	111.121050071679	-4.692705297639	110.938143330891	-13.4704547166447	142.678183032134	
13425000000	-14.1523449515648	-168.631412402021	-4.67119239955274	110.349994021377	-4.67623568416447	110.204119644795	-13.2533723366621	142.727130137797	
13437500000	-14.0549549965247	-168.132702473891	-4.67722164269637	109.258493109081	-4.66321099082494	109.317802974629	-13.0809864227266	142.640577688194	
13450000000	-13.7923530976195	-167.830093148702	-4.71956716549311	108.503749516337	-4.69368150161534	108.397632519593	-13.0164606371395	142.064131007477	
13462500000	-13.6110390510346	-167.310095086253	-4.71015403644213	107.489626175335	-4.6853243902015	107.468812019375	-12.9153979347952	141.830189853522	
13475000000	-13.5705748966214	-167.357542123306	-4.71455362554594	106.646079785647	-4.69656850840548	106.736831423319	-12.7224971111088	141.528262935653	
13487500000	-13.5062160721042	-166.687948898303	-4.70879205797106	105.766433224119	-4.72938796244166	105.760467444439	-12.6154112322841	141.743634769293	
13500000000	-13.3442954897074	-166.29633874775	-4.71976651739506	105.021184054619	-4.71710021426466	104.746286880961	-12.5341037032373	141.582798227092	
13512500000	-13.1847357492755	-165.836149050534	-4.73731708846593	103.918479727074	-4.73396868762209	103.932862528352	-12.398138591407	141.285600369218	
13525000000	-13.1019831606858	-166.045692062191	-4.73759283776001	103.155485425614	-4.75997114516565	103.111846984247	-12.2104315075747	140.307701255491	
13537500000	-12.9924587240158	-165.488356845957	-4.7547918267292	102.34647579237	-4.77054894722238	102.092191026531	-12.1117704687214	140.154215512654	
13550000000	-12.8517861850299	-164.83735604371	-4.78566076286527	101.458152325489	-4.76651244523698	101.265959515907	-12.0036479046604	139.845469344193	
13562500000	-12.762795355397	-165.037115976513	-4.77051654320925	100.443583511938	-4.80331601996188	100.424730356814	-11.8942150143797	139.344714199964	
13575000000	-12.6809479282802	-164.800688108433	-4.78977968565248	99.6019459974455	-4.76450097823174	99.4513115843163	-11.854117585022	138.861183453876	
13587500000	-12.6281678381277	-164.698181872356	-4.80862714915748	98.6705315390305	-4.78998361237502	98.6070860619245	-11.6914920196051	138.608942840243	
13600000000	-12.4357099301637	-164.56113456832	-4.81667557121238	97.8604056098451	-4.78961537635746	97.7806559790977	-11.6238340241946	137.591380028605	
13612500000	-12.361571736012	-163.909221751994	-4.82281532745181	97.069050730664	-4.82164195590204	97.0720424772944	-11.5182209507152	137.312564955425	
13625000000	-12.2871974206712	-163.608440667333	-4.87406155843851	96.1626377361697	-4.83560901857163	95.8736645729552	-11.4098259277364	137.235201478005	
13637500000	-12.1930501374783	-163.536550969583	-4.83677646826291	95.2365750671863	-4.82510218586178	95.1431155683857	-11.3405703319296	136.769381377853	
13650000000	-12.0673098860422	-163.78220744725	-4.84356831590711	94.4077470350366	-4.85372864848018	94.2066336630485	-11.2272837862172	136.208554200612	
13662500000	-11.9813098040274	-163.726698859854	-4.86637555240589	93.5592110739875	-4.84335263079966	93.5054956518545	-11.182671084647	135.35301075626	
13675000000	-11.9503668121847	-163.553267205407	-4.84334870360744	92.7526775469176	-4.854049668189	92.5931384665516	-11.0310503089493	134.889992964783	
13687500000	-11.9330840525816	-163.827712805025	-4.86866847601864	91.8307529732201	-4.88522892225754	91.603411738865	-10.9884733847738	134.270985250307	
13700000000	-11.8597492985725	-163.244468410823	-4.86647886001231	90.9563075523905	-4.86447896694219	90.9351130483772	-11.0044234997901	133.526736448053	
13712500000	-11.8125974401047	-163.125155048441	-4.8829324756729	89.9863025977975	-4.87553055017866	89.8501964801146	-10.8545498191193	133.138601739579	
13725000000	-11.7351586665009	-163.34824575062	-4.86382265467639	89.0691536912977	-4.87439120566185	89.0704741015527	-10.8019874702841	133.099944793988	
13737500000	-11.687054253247	-163.038688488607	-4.89989316379618	88.3170040664249	-4.89786614928757	88.104643288775	-10.7807616224315	132.37592700406	
13750000000	-11.6271995110659	-162.562615588212	-4.91147717974404	87.4821853761364	-4.90683670015408	87.4219360360265	-10.6695282991426	131.446999114089	
13762500000	-11.5263909136785	-162.388998964749	-4.93325012920966	86.5743091614547	-4.93005677183969	86.5031589002705	-10.5504761464254	131.237501631565	
13775000000	-11.514362282291	-162.758994940075	-4.90528855997852	85.7377437568305	-4.90445737286872	85.5500208628501	-10.440002290275	130.78894884551	
13787500000	-11.4416655669878	-163.15979507622	-4.93806732116452	84.8810542301525	-4.92813015118366	84.8403261456016	-10.4771129049575	130.154300639428	
13800000000	-11.4202552176706	-162.990802891187	-4.93920669587478	83.9117318731862	-4.92841480926307	83.9736590671588	-10.4336768723387	129.21817339031	
13812500000	-11.3618485371399	-163.007131654327	-4.93180975054603	83.2897186104783	-4.94156388579547	83.0211312561181	-10.3990693174742	128.938129806725	
13825000000	-11.3294654278068	-163.128877004961	-4.92898732057115	82.2946876708772	-4.9352506026843	82.2024863071218	-10.3931268535027	127.929781381641	
13837500000	-11.318623047152	-162.707439772349	-4.95801533663214	81.3197959421008	-4.94873560390652	81.259865437521	-10.40394754042	127.815480384139	
13850000000	-11.3071644126395	-162.593564985214	-4.92439796744022	80.5048924546841	-4.9519339434486	80.3358603762917	-10.3388517471606	126.872607388007	
13862500000	-11.1972291922064	-162.444391801351	-4.97737896547673	79.7222688361428	-4.95364313243629	79.6626739358672	-10.3022241526662	126.308152984484	
13875000000	-11.2327459821451	-161.999188380179	-4.97219233169848	78.8008886220498	-4.97225988730166	78.7895341484706	-10.297809052901	125.99007925034	
13887500000	-11.1916035805693	-162.732607816765	-4.97477287687874	78.1587787901233	-4.97459428595603	77.967985909316	-10.1707265820303	125.079136188998	
13900000000	-11.1480940912293	-162.526481543445	-4.96149051891099	77.1083668961935	-4.96584466725161	76.9444458643575	-10.1864397991015	124.693727721682	
13912500000	-11.1690343543251	-163.173624888521	-4.98933393781103	76.4551526958071	-4.95778800938581	76.2616391760092	-10.1793530850024	124.063879094309	
13925000000	-11.1056636716773	-163.153346887509	-4.98839406363081	75.5575642324486	-5.00069212443054	75.428961440041	-10.1161020767127	123.230654375126	
13937500000	-11.0796101309387	-162.819613577883	-4.98117341262281	74.7278315622992	-4.97022024423664	74.7388432918456	-10.1991845583929	122.503247358767	
13950000000	-11.1939639764737	-163.328774280306	-4.96471838956936	73.6819714578524	-4.97109760072148	73.5855109287373	-10.1583350813018	121.673546144127	
13962500000	-11.1638685781499	-162.244389341476	-5.0054848426117	72.8033372208862	-4.96030511945308	72.6643819266884	-10.1887703602563	121.519719751307	
13975000000	-11.0640604755913	-162.522843596956	-4.9871627991287	72.0504400689185	-4.9720213028831	71.9766329493032	-10.0811471098765	120.757499642073	
13987500000	-11.1007365005391	-162.621663829811	-5.03189647002844	71.2761313532639	-4.98938888855981	70.8640133520069	-10.0789414580144	120.206236154351	
14000000000	-11.1096332779389	-162.334084688134	-4.99134286696341	70.307253105964	-5.00890884164653	70.0816118213357	-10.0535106790759	119.855350718308	
14012500000	-11.0554265881543	-162.617132821544	-4.99448337949625	69.4834147145231	-4.99775093471189	69.3878634570587	-10.1312674889953	119.275379672194	
14025000000	-11.0690974107676	-162.65691234224	-4.99909460124564	68.6816025076195	-5.00195624122666	68.7361173809991	-10.0871816268479	118.590821822505	
14037500000	-11.1184944990436	-163.037562440691	-4.97336554952006	67.8196334457691	-4.99985459458126	67.588735004476	-10.0764703491577	118.302715167785	
14050000000	-11.1221277935392	-163.414103404086	-5.01209556543847	67.0896460286917	-5.00425459781364	66.9465795543485	-10.1063948489731	117.222615585797	
14062500000	-11.2027087720623	-163.475188648201	-4.99047913430914	66.2442319836566	-4.99296252481894	66.0279864899246	-10.1547550346733	116.58681986126	
14075000000	-11.174871487987	-163.049918238737	-5.01828021754455	65.4136629143489	-4.97750226178828	65.1382002093366	-10.2430011785687	116.117163360167	
14087500000	-11.2471468108502	-162.901634153442	-4.98357190520084	64.1705639259219	-4.9784616900698	64.1864706070984	-10.2456929688917	115.432015229312	
