!Keysight Technologies N9950B: A.12.38
!Date: Monday, 17 April 2023 21:05:19
!Timezone: (UTC-06:00) Central Time (US & Canada)
!Model: N9950B
!Serial: MY61131330
!GPS Latitude: 
!GPS Longitude: 
!GPS TimeStamp: 0001-01-01 00:00:00Z
!GPS Seconds Since Last Read: 0
!CHECKSUM:1502505044
!Correction: S11(ON U)S21(ON U)S12(ON U)S22(ON U)
!S2P File: Measurements:S11,S21,S12,S22:
# Hz S DB R 50
2500000000	-9.97449888386663	-23.7993176203449	-0.566571146484117	167.913978821556	-0.568238065294518	167.946974655414	-9.97072775349492	178.070533756772	
2510000000	-9.79440741978671	-24.468781594336	-0.564105440058103	167.102204320271	-0.555591467274102	167.098933410084	-9.87270644274966	177.109684742644	
2520000000	-9.69907025755545	-24.5689348049896	-0.585953985153308	166.369959211877	-0.595580227709327	166.290870754765	-9.8425676573908	176.711863415749	
2530000000	-9.66904140175049	-24.9056739668499	-0.588637892529817	165.655482779022	-0.584145251807768	165.623984477422	-9.76808596186765	174.89061795524	
2540000000	-9.50911134154019	-25.8956657353953	-0.607593466928321	164.937743614412	-0.619717534087671	165.091743029788	-9.5884421996505	174.490104067821	
2550000000	-9.47815928001009	-25.7101509791581	-0.623235302332732	164.218567584083	-0.625746606399191	164.171122705126	-9.49866713832452	173.367752410752	
2560000000	-9.371774514252	-26.897356469156	-0.636964096484559	163.565125836405	-0.608900033655294	163.586783912934	-9.46168996923931	171.591292070989	
2570000000	-9.26818482136549	-27.0782712466353	-0.643654458281975	162.935645443121	-0.635450990968922	162.588097018299	-9.37684996378638	171.72353962879	
2580000000	-9.15747192925815	-27.41708921574	-0.662047249499615	162.135574635673	-0.647375419751579	162.168015994393	-9.28808558460023	170.163835461326	
2590000000	-9.10704414706318	-27.3252525739349	-0.66804118390239	161.437319632604	-0.660904245187305	161.200394141547	-9.20108969519453	169.358014194324	
2600000000	-9.08322338526812	-27.8415943413138	-0.682090242696164	160.524119286031	-0.688161331430282	160.587101390574	-9.09159087623259	168.356168329682	
2610000000	-8.93534982822602	-28.78767488815	-0.687351645287128	159.852823241907	-0.673584731158957	159.847433812022	-9.09389331836122	167.189967383192	
2620000000	-8.89730123475022	-28.9632338324204	-0.691384072109585	159.189010688862	-0.687383412497169	159.130991165977	-8.92377969850989	166.179188988194	
2630000000	-8.74722669620749	-29.0125043782465	-0.720459071271545	158.390417681498	-0.710407670275466	158.31043983722	-8.89299260419956	165.552100301391	
2640000000	-8.69926686632329	-29.8108085843578	-0.729802332163442	157.849750803225	-0.728881214713201	157.818868908107	-8.76409789655798	163.966423400229	
2650000000	-8.71483535396221	-30.3350045331727	-0.719474509790628	157.144062777303	-0.720119483796207	156.938311632446	-8.79406897976116	163.105437957131	
2660000000	-8.63322123121376	-30.3344737183082	-0.749312714888504	156.378570812281	-0.741713931171682	156.374239293923	-8.69543729087655	161.676848617976	
2670000000	-8.51059735715528	-30.674241541545	-0.750167945030782	155.723829562851	-0.763309034051085	155.656841263117	-8.64114375174457	161.43307901193	
2680000000	-8.50019647950687	-30.9839626115055	-0.75444233915794	154.706415253107	-0.7564182197612	154.850113713607	-8.6455096952207	160.212987829125	
2690000000	-8.40364478909891	-31.3785877687221	-0.772842695613219	154.164729752942	-0.75981766486058	154.267385564136	-8.55340435768675	159.158843317177	
2700000000	-8.38739781595269	-31.9896345790713	-0.784948803752535	153.554861579532	-0.765549747847852	153.441893006519	-8.51920749130599	158.554385982516	
2710000000	-8.34997319082763	-32.1648274543933	-0.781792522308373	152.920881430722	-0.790680539481671	152.850683215884	-8.39004225901012	157.298599194145	
2720000000	-8.24915510757537	-32.8810313729189	-0.801386335611969	152.10759505007	-0.772793901443171	152.026106933099	-8.42587290638059	156.507267486933	
2730000000	-8.31014778982813	-32.5357414253947	-0.792073012332484	151.500312849253	-0.798051612340068	151.295342799519	-8.31241096488276	155.661197464758	
2740000000	-8.27944792696575	-33.6307730351587	-0.809751061716346	150.836113984957	-0.82784029520484	150.71653711522	-8.32047012266727	154.076494645337	
2750000000	-8.15299832659447	-33.8119779528831	-0.80726854038079	150.098924258121	-0.824038331248415	150.081633959003	-8.22537848016457	153.577793521647	
2760000000	-8.11730047169651	-34.0861899122009	-0.848163826309458	149.265961977768	-0.840588546008686	149.337433032178	-8.13926086934266	152.16643998537	
2770000000	-8.11787525180379	-34.7295540348416	-0.858400763933062	148.767792029326	-0.837421563512719	148.619687774085	-8.19326012706124	151.525533767542	
2780000000	-8.08007342731257	-35.0771428235218	-0.856388205366325	148.108973914337	-0.830770977578507	148.016174742777	-8.18154739130024	150.21803929434	
2790000000	-7.99455690525466	-35.0561006799762	-0.84019954983041	147.398796676766	-0.843499618869866	147.24262947668	-8.15855775494817	149.53356602059	
2800000000	-7.91500541068725	-35.2312391706811	-0.864797928403917	146.657167140331	-0.855237868116587	146.622539028583	-8.03545489366944	148.532727519483	
2810000000	-7.94215354819031	-36.3048165234336	-0.847020285704477	145.969392935846	-0.853727488176308	145.798600718266	-8.05805406532432	147.55026150912	
2820000000	-7.8827193368401	-36.7449831548755	-0.90415919740685	145.200963372002	-0.868516724611695	145.111735935628	-8.03954481548834	146.402800165615	
2830000000	-7.84450397549718	-36.7478162166176	-0.861520784330415	144.600381135927	-0.877230597841676	144.556143226669	-7.96407462650953	145.587452584748	
2840000000	-7.83093111921364	-37.0496032926154	-0.894434651401686	143.917633994563	-0.874686164604173	143.868919192013	-7.99052102574909	144.303856548081	
2850000000	-7.85888942058767	-37.6116403861268	-0.888162317561739	143.222603411421	-0.877967498724348	143.30551118501	-7.96657116168855	143.323048521881	
2860000000	-7.85400347080307	-37.8554847600831	-0.891043388857022	142.539347223283	-0.879369334898599	142.58242994092	-7.93667925359772	142.247527420904	
2870000000	-7.79721098338732	-38.0751582436853	-0.911911327187388	141.969959162465	-0.902913750578308	141.86325170689	-7.90521764837981	141.817664805352	
2880000000	-7.78029788200598	-38.6489591959549	-0.887611560062676	140.999139359198	-0.875038266978078	141.146555789971	-7.92585851694824	140.505411298322	
2890000000	-7.82094093024619	-39.0148577823065	-0.875008460330515	140.431067142122	-0.891573090858979	140.376948255857	-7.86955782216941	139.666344301384	
2900000000	-7.73425743614676	-39.0603359744487	-0.91943736049131	139.92669608397	-0.890480319482442	139.886780582406	-7.85362617628628	138.483988602625	
2910000000	-7.71416960056274	-39.597226764161	-0.916058522463611	139.107375929532	-0.895000753415573	139.109992845352	-7.85355580657145	137.655045906137	
2920000000	-7.72174142578972	-40.2182725972744	-0.926163333845314	138.642164149074	-0.898007947539126	138.70167496834	-7.77879521684753	136.476111309861	
2930000000	-7.74289424003843	-40.6610927775977	-0.918915760072845	137.849986909884	-0.889036001245209	137.688274401194	-7.83746017506385	136.051851272788	
2940000000	-7.73565616341604	-40.1911810744089	-0.898572650546488	137.10605410237	-0.890411574600437	137.038675489738	-7.85702341817669	134.678585079078	
2950000000	-7.6272872810979	-41.2138160780247	-0.926116404447413	136.360959571411	-0.916644487338261	136.192011712132	-7.76689717063872	134.072193670636	
2960000000	-7.72255618721972	-41.3476840141881	-0.916452716665447	135.767390501183	-0.916955046590079	135.722518649528	-7.81486363730903	133.062609403224	
2970000000	-7.72417899099289	-41.5465430734716	-0.913148206856416	135.095144660674	-0.918133287576195	135.090088987029	-7.8115598426083	131.687986987558	
2980000000	-7.71802703987585	-42.1958352426105	-0.922388660489294	134.517296372103	-0.888792105745143	134.480948372122	-7.87327265585848	130.927312544823	
2990000000	-7.69644679082516	-42.6517869863965	-0.921648076081897	133.733009865124	-0.909783310694297	133.728397199535	-7.81896581680275	130.318096467251	
3000000000	-7.68771123424758	-43.0669100943628	-0.931389080568942	133.025540153004	-0.888993459652559	133.039501510718	-7.88437870219034	128.855827496118	
3010000000	-7.69036023970522	-43.0940192493374	-0.913002354839831	132.427714832763	-0.920367730386591	132.464389286125	-7.85045255003255	127.633480225979	
3020000000	-7.71209274170244	-43.5249299016724	-0.895413167114326	131.653279182682	-0.889495550087488	131.630958817337	-7.89706976753546	127.059329003559	
3030000000	-7.70716564814475	-43.8481139699614	-0.913254982601427	130.989721059908	-0.906502247440078	130.834264281202	-7.84565147832526	126.83417892402	
3040000000	-7.71899264733082	-44.1617640524581	-0.918564961257071	130.274790347204	-0.914639278037189	130.290492041591	-7.85044126797501	125.542867178144	
3050000000	-7.7199344851053	-44.4995625363533	-0.906049878176668	129.815679108498	-0.89103992073817	129.798049074533	-7.88491362833201	124.33047676151	
3060000000	-7.74701534891652	-44.9286907990429	-0.91123906573831	129.01367138525	-0.915172032988544	129.046208211948	-7.88881779479677	123.227761189414	
3070000000	-7.81724099226729	-45.4267971254688	-0.90700917035847	128.415101484181	-0.880873881876336	128.23505457502	-7.91934269773249	122.406866967816	
3080000000	-7.80538012335971	-45.4201437147776	-0.895407659920989	127.630931770341	-0.898808344530523	127.650087090939	-7.89571411379054	121.189794542729	
3090000000	-7.79871104448379	-45.9585086553613	-0.882083042933999	127.084813006481	-0.883860306111843	127.041332658792	-7.96801077057984	120.463420990749	
3100000000	-7.77181862934514	-46.5433112096854	-0.888259988395767	126.113529228541	-0.865964610401317	126.206155403668	-7.95203475405143	119.308264462465	
3110000000	-7.84139849391864	-47.0571823436571	-0.879547802717378	125.626512120619	-0.904817926310382	125.536790761915	-7.96091891325375	118.58397791146	
3120000000	-7.8564754746308	-47.1466213866777	-0.883660915858675	124.951655228058	-0.862069345128388	124.889447094035	-8.03303127573215	117.740751378788	
3130000000	-7.79952051521167	-47.6060622310331	-0.861904948082806	124.325345884936	-0.895183080385591	124.174327717829	-8.0627484316116	116.807600450615	
3140000000	-7.90101334123633	-47.8684405636176	-0.875868638752757	123.553049794407	-0.869192286864779	123.461825913997	-8.04715754067298	115.925495339945	
3150000000	-7.89914369834186	-48.0353781765198	-0.891328770109081	122.78077019428	-0.85127269553442	122.862445375681	-8.09166150877526	114.683119550312	
3160000000	-7.93912322105739	-48.7096160578696	-0.869370746002263	122.170910883829	-0.833740022764507	122.139888585925	-8.12871827263688	113.467310541038	
3170000000	-7.97565541384976	-49.1132537311741	-0.85755973981047	121.545265420341	-0.861692831970938	121.42653316369	-8.12005763126039	112.980258915683	
3180000000	-8.01007593274639	-49.2488775556634	-0.848638754800596	120.718482538005	-0.835832831469009	120.723339904379	-8.28074252923219	111.954802729222	
3190000000	-8.07012034938257	-49.5599046890981	-0.853786488581955	119.981395227292	-0.835415977941422	120.074671254075	-8.23118051486323	110.43164706764	
3200000000	-8.03098381470867	-50.0480248651585	-0.84624883980063	119.432913769103	-0.843350876235906	119.43568931279	-8.27054267664972	109.385348367191	
3210000000	-8.13898403238771	-50.5375054515244	-0.82690886346844	118.785842374069	-0.811482243062031	118.787696179778	-8.33471894617718	108.973442669188	
3220000000	-8.22233036605999	-50.6383659929613	-0.821951790012547	118.183253710063	-0.809276677393112	117.993510389518	-8.37134745281075	107.815820305353	
3230000000	-8.16983930386687	-50.892472203568	-0.825945024472078	117.370349547113	-0.823815723859823	117.421376293766	-8.38844366232109	106.634847644361	
3240000000	-8.26362528400901	-51.761077469627	-0.824102893925075	116.749108573144	-0.82059898972075	116.763520970986	-8.41508575209107	105.834544999149	
3250000000	-8.28557225455921	-52.1244793683061	-0.78277054754776	116.081140493053	-0.791796822799	115.907115799915	-8.50264531673774	104.877940138712	
3260000000	-8.34372255651961	-52.7939652326174	-0.799558941563237	115.360113937909	-0.78008059460671	115.187743123627	-8.55437546423061	104.188672359417	
3270000000	-8.40666783173399	-52.7672237050813	-0.795521038140639	114.573735254539	-0.774575981144922	114.527220917366	-8.56656644831763	102.801517233598	
3280000000	-8.43859676656548	-53.1744789564903	-0.785886489613098	113.821856955262	-0.772479397457987	113.873351931724	-8.62246966670654	102.513210715265	
3290000000	-8.57294779165465	-53.0194222953789	-0.770067214024565	113.136727256301	-0.772639430534179	113.119795016132	-8.66409491512877	100.996226445986	
3300000000	-8.5469978126526	-53.6778886369175	-0.744347762398094	112.550782483726	-0.7400263628016	112.508029184045	-8.78553302813317	100.030841889613	
3310000000	-8.57593409780218	-54.1983802516835	-0.775025585089687	111.755822995802	-0.767598444720546	111.778800503821	-8.79574400120121	99.2280607820544	
3320000000	-8.76033323103207	-54.500889024679	-0.741538612722394	110.961224144643	-0.734656721830717	110.974993100565	-8.89903483992912	98.2047968383603	
3330000000	-8.77902716085945	-55.2470038657253	-0.734858241122519	110.409259931957	-0.713295247477269	110.129175739582	-9.00756811856554	97.1217082289704	
3340000000	-8.80102928722813	-55.4084559206559	-0.727824580459822	109.595633244999	-0.697060118537713	109.513968634661	-9.11929524937392	95.8453321949108	
3350000000	-8.87589311468873	-55.9503647074453	-0.727399322274749	108.895238056091	-0.72082780296084	108.893162469674	-9.13249068589908	95.1942608667414	
3360000000	-9.03306860753977	-56.4214630444931	-0.710540383790368	108.236777887869	-0.696052632652263	108.1341960527	-9.21599026777865	94.387724309308	
3370000000	-9.06582989540646	-57.0545686074986	-0.693321124572485	107.350558162312	-0.671347020170254	107.432269968525	-9.3198098960856	92.8899277713179	
3380000000	-9.11051911965567	-57.0901388930975	-0.694869247404094	106.805977249644	-0.674670290254248	106.605538902857	-9.39775256836103	92.6332590056517	
3390000000	-9.21221039532201	-57.698425197118	-0.652476139578177	106.095810348692	-0.636210417507894	106.005047836617	-9.50147632882351	91.2057903452267	
3400000000	-9.26595467925008	-57.5822816570255	-0.673577231366583	105.17659738099	-0.666858722233069	105.291529998868	-9.51856361354805	90.2150951094878	
3410000000	-9.41834312226609	-57.9702832791003	-0.639243725721943	104.485187551089	-0.631696210319493	104.554854463949	-9.59654269896622	89.2595540550214	
3420000000	-9.36362398115614	-58.88072691949	-0.645544890041309	103.775396099885	-0.632557533409978	103.887765412846	-9.71325935078396	88.2198420728557	
3430000000	-9.63832312454485	-58.8896776909887	-0.616937120151357	103.213214228033	-0.629219606525592	103.173605354843	-9.80794047622387	87.2179382610371	
3440000000	-9.68534224676983	-58.9374204330146	-0.590491549006812	102.28069519642	-0.616343749202805	102.292577105416	-9.98180244103532	86.3496926811851	
3450000000	-9.82730248457101	-59.8823845875035	-0.625337100368068	101.721399837472	-0.606549499512018	101.588606160507	-10.1158832748921	85.4703450045878	
3460000000	-9.95351977225703	-60.3258311657037	-0.593709616066975	100.983329065968	-0.592573881088614	100.932536285494	-10.1676676350104	84.470149530248	
3470000000	-10.0969142911506	-60.7141527281033	-0.587459687272495	100.093517095019	-0.565371211265539	100.072266415554	-10.2452187477192	83.0917481068814	
3480000000	-10.0350704911944	-61.0370751011654	-0.583204578419715	99.4039004225521	-0.568544131280919	99.3294091940244	-10.4087941837606	82.7340071913212	
3490000000	-10.2547150611444	-61.3821592303262	-0.553807600964769	98.580537028809	-0.557745413292756	98.5357324390872	-10.4366262885445	81.6040783645443	
3500000000	-10.3510975845221	-62.0717731717996	-0.535405619766483	97.7494055060029	-0.546095832724214	97.9123814080285	-10.6199243133279	80.3082203507189	
3510000000	-10.4640159839087	-62.2044961961297	-0.547744170963252	97.0317822371757	-0.521834813570213	97.2076872893221	-10.6627807661087	79.4166750756866	
3520000000	-10.5084154466882	-62.9934986840089	-0.533693188014173	96.3667547857407	-0.513484273046069	96.1495875573716	-10.9972794747128	78.5897158445447	
3530000000	-10.7180307352398	-64.2436846387026	-0.52223009816637	95.65894017009	-0.501598329308238	95.6265050983751	-11.0758094129186	77.2730604195981	
3540000000	-10.8178419339752	-63.5847380727098	-0.498668936169318	94.7995874974024	-0.477322386439054	94.8543963260301	-11.1755268304539	76.4000166404192	
3550000000	-11.0817847813863	-64.2689754699436	-0.49121381678056	94.1848907212513	-0.479304840688458	94.1633899075283	-11.4081468703715	75.2505601727669	
3560000000	-11.2148087395315	-64.1786898238661	-0.474197007692451	93.3053436062741	-0.483377826217203	93.2228383182624	-11.3940357958432	74.5348353287523	
3570000000	-11.2787108848588	-64.4838946019786	-0.459193312427883	92.4964326391889	-0.440131586068797	92.5099964873149	-11.661706126501	72.3312712080989	
3580000000	-11.4578043382404	-65.7746599861011	-0.470300376760753	91.7281475466712	-0.450699514239991	91.8188762768547	-11.6513624885326	72.2994959627758	
3590000000	-11.5463664807081	-65.5107051716829	-0.457716595208515	91.0319623809203	-0.431422078143602	91.0245434987734	-12.0006637642711	71.3565685188133	
3600000000	-11.7516472443436	-66.4208992452723	-0.446532711315487	90.2225489394429	-0.425251311548488	90.3908368683821	-12.1154555054683	70.6157722421064	
3610000000	-11.9234950848433	-67.9092523478107	-0.447358628579148	89.5712574752432	-0.432790839229594	89.5207276483339	-12.1843742581089	68.4839509498849	
3620000000	-12.0665470921863	-67.3550698625796	-0.412680460155698	88.6132319917122	-0.397724716944177	88.6381689124126	-12.5468495099184	69.0671249641969	
3630000000	-12.2475735408938	-67.8001262473666	-0.397380167296161	87.802781680019	-0.405495870670645	87.8052046691651	-12.6421428161823	68.0566853702324	
3640000000	-12.4598479229317	-68.7464867550688	-0.371362185130128	87.1382136772484	-0.376359089086712	87.0811819059025	-12.7894952328622	66.7687118313718	
3650000000	-12.5802848596172	-68.3488225467595	-0.374666825239486	86.3925366626677	-0.361456728098006	86.4234364644299	-13.1074221012883	65.494796920058	
3660000000	-12.8580501989046	-70.5137388645101	-0.376083747819748	85.6107421838756	-0.364283695300115	85.7052515266382	-13.3521974451566	64.203687706607	
3670000000	-13.1140875903168	-70.0688117946551	-0.351488426203551	84.7829634421743	-0.337311198755727	84.7539067649882	-13.5152930819143	63.6548772138603	
3680000000	-13.3903851726562	-70.8163484045874	-0.343798346172205	84.0480684588453	-0.338838803628927	84.1047857206276	-13.5068501015685	61.8027632357485	
3690000000	-13.5648373601683	-69.8502536611473	-0.330526018446721	83.2089423926399	-0.331352007937665	83.238406833872	-13.932578657031	61.638747515784	
3700000000	-13.8276240382127	-71.8987797949356	-0.332992295455798	82.3690396503029	-0.312328833063359	82.3780068038663	-14.0306132448259	60.5311128194197	
3710000000	-13.8504944355203	-71.7035030619999	-0.328809715150684	81.524693356197	-0.312735064993932	81.6103398691405	-14.503811219903	60.0547832183719	
3720000000	-14.1495440337126	-72.4532512333289	-0.300815421937803	80.7175643790913	-0.32016231675424	80.8073705646534	-14.8091972606643	58.9621907402287	
3730000000	-14.5086688312944	-72.0466682380165	-0.31438833912659	79.9288521009352	-0.298644836864415	79.9574105216237	-14.9427549325895	57.8867769661439	
3740000000	-14.6820787328022	-74.3017224648932	-0.301106415951633	79.237683482451	-0.269531242806153	79.2602889295925	-15.108513345018	55.894594885705	
3750000000	-14.8266841930608	-73.2386983941484	-0.261431038478642	78.3429058135224	-0.260187805295399	78.4255487650735	-15.4516586611078	56.7499745637616	
3760000000	-15.2720096421837	-73.9174579149792	-0.269572521805363	77.6614531926842	-0.266770439376336	77.4869158732757	-15.9981093608521	55.0394324524281	
