!Keysight Technologies N9950B: A.12.38
!Date: Monday, 17 April 2023 19:57:59
!Timezone: (UTC-06:00) Central Time (US & Canada)
!Model: N9950B
!Serial: MY61131330
!GPS Latitude: 
!GPS Longitude: 
!GPS TimeStamp: 0001-01-01 00:00:00Z
!GPS Seconds Since Last Read: 0
!CHECKSUM:1101983263
!Correction: S11(ON U)S21(ON U)S12(ON U)S22(ON U)
!S2P File: Measurements:S11,S21,S12,S22:
# Hz S DB R 50
160000000	-18.0168163024996	-114.499510656382	-0.0904571182190219	-31.9864498959709	-0.102573852916532	-32.0364572125724	-18.1035578911763	-126.734932871645	
160640000	-18.0966392873813	-114.493068993221	-0.0768474124394447	-32.1553153546949	-0.0752254383789755	-32.2659805352553	-18.1733711269103	-128.584406417358	
161280000	-17.9094582990336	-114.986175476461	-0.0962919994807066	-32.4247810783795	-0.0845810171899552	-32.3946322615239	-17.9380109699483	-128.54123419677	
161920000	-18.0462960923204	-116.484916203918	-0.0678775212616675	-32.4962661550997	-0.0705715745577344	-32.4716511363282	-18.2339831294816	-127.158172757268	
162560000	-18.1259582717345	-116.059778340103	-0.0568301725203581	-32.5724279473067	-0.0948076174496906	-32.7026245518195	-18.1232739892411	-127.626673076855	
163200000	-17.9663452583964	-115.432584365334	-0.0653318743812458	-32.8287280904122	-0.0773806114257952	-32.8219335704275	-17.8834517294061	-128.065635080235	
163840000	-18.0165122754824	-117.331842829472	-0.0626145526548651	-32.867986085417	-0.101002387030036	-32.8811431199369	-18.0370903200296	-127.302652147488	
164480000	-17.7079820816942	-114.74199436937	-0.0805515153041299	-33.0252876890003	-0.09504476482119	-32.9438658671305	-17.9002262061023	-129.430867712068	
165120000	-17.7543932471373	-115.963035062288	-0.0725002760516136	-33.1706311460537	-0.080926561481964	-33.1665140042759	-17.872801228646	-128.032150977291	
165760000	-17.7012874132901	-116.348989691183	-0.0660686683025943	-33.1019889389136	-0.0982255003136241	-33.247173263117	-17.8743777056994	-128.540037409711	
166400000	-17.6557268822795	-117.054478541388	-0.0951100035005392	-33.3707433818088	-0.0942470978675811	-33.4311612090628	-17.7492281909523	-128.35799436842	
167040000	-17.6276381908887	-116.978453976318	-0.0858225674386094	-33.44001501405	-0.0992697677286554	-33.5173571851977	-17.738980902838	-129.404750763567	
167680000	-17.7537139164404	-116.140590194622	-0.0896484043137633	-33.6419971601876	-0.083323286505067	-33.5709179356983	-17.762396313291	-129.502693653479	
168320000	-17.500056222281	-116.744049143614	-0.120541740424232	-33.6956677910472	-0.0866444663457735	-33.69101582329	-17.589083901224	-130.04551467943	
168960000	-17.5899298860201	-117.104717977985	-0.0931993585926544	-33.9333990075279	-0.0935226320400349	-33.8931409010306	-17.6692213807045	-129.428739515882	
169600000	-17.811215071032	-117.511660418182	-0.0766014009447587	-34.0643720354741	-0.093630796437426	-34.0142951109789	-17.5719183273852	-128.438378780851	
170240000	-17.6352286984552	-117.069678177539	-0.122662738744611	-34.0353819920789	-0.0940782982466619	-34.1929842591571	-17.7032285476195	-129.840175007555	
170880000	-17.458528732462	-116.818700089553	-0.10025850670391	-34.23432749419	-0.0890581461779231	-34.3015794360208	-17.6497300473208	-129.886272324901	
171520000	-17.4730485774684	-116.982449359988	-0.100203324483847	-34.3119578654287	-0.0867375881787968	-34.3639776595723	-17.430760436313	-130.133680603244	
172160000	-17.4231949452084	-116.162995895683	-0.104691100042335	-34.6052704290884	-0.103105126634881	-34.5317161125583	-17.3100348902482	-131.123638217053	
172800000	-17.476427449715	-117.598763901362	-0.0942872637506784	-34.6628637550705	-0.0881014263317385	-34.6655561860604	-17.3998966171977	-131.526548786108	
173440000	-17.2718744059127	-117.707203391337	-0.0826242161496474	-34.700192716571	-0.0812572901866465	-34.7235798039022	-17.693024719554	-129.506155613726	
174080000	-17.4887326750129	-117.294626667044	-0.0724301968304924	-34.8610634300138	-0.0831670796724345	-34.8676631511538	-17.2637430488515	-130.555179380936	
174720000	-17.159864973998	-117.343809046331	-0.085425611614826	-34.9134286852343	-0.0931344198804686	-34.93842557325	-17.4775898053544	-129.715552974561	
175360000	-17.4674143522931	-116.986006776263	-0.111516769039028	-35.1910877927591	-0.101903904962056	-35.1358274873887	-17.2548634890695	-130.514599902188	
176000000	-17.1942465801297	-117.874419374938	-0.0967499319790233	-35.2377152420105	-0.0956745160618038	-35.2375616519033	-17.4250998776701	-131.581516769833	
176640000	-17.1731508702654	-118.611189376967	-0.103377945925315	-35.336025405592	-0.0918777892290802	-35.3101576331346	-17.2548741051461	-130.947748875216	
177280000	-17.1350245576731	-117.206493110048	-0.113873777296731	-35.5803497892877	-0.107003930738856	-35.4439963733724	-17.2402864405381	-131.831782847513	
177920000	-17.2141019318154	-118.63523714894	-0.0987392131826653	-35.4994870373565	-0.110967936847671	-35.6501021090673	-17.3790552318132	-131.202808991456	
178560000	-16.9928406381075	-117.614270897323	-0.131316238338477	-35.7950660812995	-0.0887082042062354	-35.6617285546996	-17.2583775172671	-131.890244790251	
179200000	-17.221206574652	-118.662609259954	-0.083611929587165	-35.8880416520653	-0.0897680950361693	-35.8996192045428	-17.3633863847628	-131.42178628337	
179840000	-17.0976806288029	-118.138312401054	-0.112077112525732	-36.0915953672242	-0.0952792330527332	-35.9521639813175	-17.1995012635866	-131.326172193704	
180480000	-17.0215825180085	-118.938683193179	-0.119819041215789	-36.0955921198983	-0.089413441657177	-36.1496727417752	-17.1985400941439	-132.101896045653	
181120000	-17.0499490208578	-117.930811966067	-0.106829104704456	-36.3261574419639	-0.0940157265338307	-36.255426156001	-16.9894258208905	-131.167991606878	
181760000	-16.9533371579973	-120.061811974349	-0.110926266515747	-36.3994421907148	-0.106886757705389	-36.3697571373239	-17.1924662782523	-132.71760202136	
182400000	-17.0161401904967	-118.662229681441	-0.101845379197457	-36.3995028749265	-0.094798228513007	-36.4337293299297	-17.002280219332	-133.156546486401	
183040000	-16.9757038173153	-119.431909831431	-0.109113230323066	-36.7433404660175	-0.113069902661341	-36.6216439037743	-17.0389219151673	-131.142608501704	
183680000	-16.8248697306763	-120.222458872693	-0.106262429835976	-36.861928339821	-0.107447915374746	-36.9653870025288	-16.9787749668209	-132.130879867208	
184320000	-16.9671523370334	-119.703944477259	-0.0890040754111929	-36.8312540443555	-0.105264673752696	-36.8923483906186	-17.0309429710585	-132.865755410436	
184960000	-16.8918827426628	-120.151240140089	-0.105426758017698	-36.9799548985565	-0.119493936789374	-36.9665512939613	-16.8524277416543	-133.131326630918	
185600000	-16.8530197002118	-119.669393930104	-0.1016590039513	-37.173380152748	-0.129613587569949	-37.1358348386132	-16.8253257295233	-133.38082409836	
186240000	-16.7503234083763	-119.39790762459	-0.105050834114815	-37.2994639135418	-0.112793440832449	-37.2927316774685	-16.9188763433373	-134.404746517214	
186880000	-16.7409430293553	-120.639715719407	-0.119703646850087	-37.4559482769175	-0.109928989736626	-37.4095444474	-16.8107951929199	-132.713834915493	
187520000	-16.6237481743047	-120.344784699861	-0.0994468961082632	-37.4198394422492	-0.0904497710605127	-37.5991723043108	-16.9249991760104	-133.798027798521	
188160000	-16.7970815779121	-121.729153714073	-0.103629436401122	-37.6323777349128	-0.126497358637875	-37.6513104062471	-16.6021423123309	-132.944579690431	
188800000	-16.5543818228746	-120.373511711376	-0.114279945949122	-37.7709667181999	-0.0978009901618827	-37.7706361391983	-16.8826065523558	-134.300770861081	
189440000	-16.6303914249041	-120.977537825232	-0.117762144782481	-37.9537423141838	-0.132861391103567	-37.9403985292986	-16.6299420038202	-132.618191522346	
190080000	-16.5819955766868	-121.428877882379	-0.0951910954047098	-37.9345012262403	-0.108325339386199	-38.1016867040898	-16.8373299660918	-134.081514047052	
190720000	-16.5883417926363	-120.765105670163	-0.118846441001944	-38.1831719056346	-0.115002431439886	-38.2341306751468	-16.6990993172477	-133.710532571136	
191360000	-16.6779415284138	-120.296647489815	-0.127139213623457	-38.1927358373125	-0.125300257538308	-38.3308655142712	-16.5933022366532	-133.649401543965	
192000000	-16.4027127938754	-119.902532408742	-0.10339999442416	-38.4119566345885	-0.100564550068293	-38.5211940571699	-16.6684253074035	-134.259719601539	
192640000	-16.4718727452418	-119.888148299586	-0.144822951385316	-38.7261113853286	-0.120434285203486	-38.666296964259	-16.4041219151639	-135.723367528209	
193280000	-16.3385773608122	-121.946954425987	-0.124476749901291	-38.7622960900745	-0.124511985526662	-38.8018240071878	-16.6194139713015	-135.082457591594	
193920000	-16.5889731457334	-121.542848753007	-0.103092411035768	-38.7202513252239	-0.118637189442094	-38.730668491256	-16.4854844145511	-134.943559888046	
194560000	-16.3449662330326	-122.014303091104	-0.12731726934408	-38.729559009799	-0.114753422071787	-38.934779446848	-16.6359308302901	-134.955473027917	
195200000	-16.3716825570994	-121.114441547111	-0.129834992469494	-39.2204651309095	-0.126066290661095	-38.9977185885535	-16.5408304107812	-135.074468428907	
195840000	-16.4399503568116	-121.911088914812	-0.113172873353918	-39.1326353846788	-0.114961805850282	-39.082931812989	-16.4583438707381	-135.22696402154	
196480000	-16.3375882840689	-121.648469067594	-0.122434736763212	-39.4234943466131	-0.125425281459179	-39.3091843400319	-16.3149349462132	-133.648577252311	
197120000	-16.2356288778987	-121.977939240079	-0.111816618709949	-39.4685382981361	-0.121677042317361	-39.3564381085224	-16.3100871211605	-135.688988076715	
197760000	-16.3544609709563	-121.593302044997	-0.119902489722925	-39.5718405968759	-0.107738245164182	-39.5695843689786	-16.4508238077741	-135.606328554896	
198400000	-16.2872330930916	-122.19385610639	-0.124406060925548	-39.6888462464072	-0.122600288870115	-39.7065714956574	-16.2948087396379	-135.842460927851	
199040000	-16.2665907753161	-121.63343547963	-0.135538355544093	-39.8050886710235	-0.121740141934102	-39.7446597864883	-16.2625970616428	-136.537156199901	
199680000	-16.2228033947734	-121.527156968422	-0.121973745192385	-39.9909919189942	-0.122650141550456	-39.760691247127	-16.3558943245563	-135.915424858306	
200320000	-16.1307547382323	-122.451270329963	-0.134197609039938	-40.0691225364527	-0.129132623734672	-40.0455002590934	-16.2786769829915	-137.061790037516	
200960000	-16.0910811999344	-122.23198032562	-0.125552764033446	-40.2182897831204	-0.119816050192425	-40.1424795062942	-16.138267363917	-136.333152942615	
201600000	-16.1617765095653	-122.401239576064	-0.138834717971705	-40.3292621585198	-0.137880349568273	-40.2359311986501	-16.1816864046355	-136.080251060947	
202240000	-16.1477803330767	-122.030897225582	-0.114794947162327	-40.5090047545885	-0.118200580715199	-40.5320167487216	-16.2769532633355	-135.918177983034	
202880000	-16.0168685531916	-123.383959917119	-0.130248772538032	-40.5268975155073	-0.148165106528109	-40.5377342597643	-16.1468973877905	-137.166227672458	
203520000	-16.0365679551492	-123.233193227637	-0.121484439856704	-40.6974085040822	-0.139397034432938	-40.7571945516529	-16.1865181915488	-137.200005642503	
204160000	-15.9204013639062	-122.956342461066	-0.133652165989721	-40.9038546230197	-0.119299412273117	-40.9119328329188	-16.1665768619123	-137.617946343813	
204800000	-15.9728237501415	-122.910504253738	-0.133592803837392	-41.0523402839343	-0.132897531026028	-41.0499450972425	-16.0158449949681	-136.839441358998	
205440000	-15.9337919790821	-122.143390927847	-0.154780935754217	-41.1759218624075	-0.135781005774565	-41.1326191479955	-15.9838379599064	-137.201429508838	
206080000	-15.9785579642817	-123.763975556824	-0.130545368416658	-41.1860480081451	-0.142148122267783	-41.1087205337876	-16.0651784470735	-137.803898557743	
206720000	-15.9139738615268	-123.645472402583	-0.143018967861305	-41.2482305548393	-0.128052084331484	-41.3177373979115	-16.0479798687301	-138.831929442345	
207360000	-15.9111470710789	-123.424002646086	-0.127002551530254	-41.4162964487139	-0.130599134190762	-41.4818361266151	-16.0123654325244	-137.299979950882	
208000000	-15.7686666478883	-124.72529420553	-0.131250154574423	-41.5113818335188	-0.113684486677585	-41.6539966047718	-15.9806718943228	-138.054494957822	
208640000	-15.8104311712527	-124.591344527045	-0.147767664493873	-41.6846451075918	-0.140652655660637	-41.7839212542128	-15.9421425912065	-137.605966627599	
209280000	-15.7381050811954	-122.715765539586	-0.124578312932228	-41.8324718412552	-0.123303042478632	-41.7940282717192	-15.9897837166498	-138.029688437378	
209920000	-15.7549888536142	-123.721054428977	-0.125792183276859	-41.9386310842677	-0.120953886746402	-41.9360079818011	-15.9226611015244	-138.330717508917	
210560000	-15.6938652067004	-124.284823709742	-0.16843774064241	-42.0210719200088	-0.160891631219968	-42.1086520975075	-15.7903825330312	-138.930921229796	
211200000	-15.7582014798484	-125.255078668185	-0.132862382868314	-42.1515479232464	-0.148262646434599	-42.2541284436369	-15.8246429861708	-138.705242717054	
211840000	-15.6886558159142	-123.42427207708	-0.164975240816667	-42.4510895903655	-0.149295157608268	-42.4491543264858	-15.8516854926118	-139.486364403122	
212480000	-15.6922410460303	-125.87279774208	-0.141474337063825	-42.4360098607936	-0.133519642781109	-42.5691980162235	-15.8515512465186	-139.8573192706	
213120000	-15.80530164977	-124.259646099623	-0.135307660118407	-42.5434870136563	-0.150890012726166	-42.6282561836815	-15.7908450765225	-139.276034004228	
213760000	-15.6182057357171	-124.558024918413	-0.138218758167501	-42.7590212839143	-0.126603548859511	-42.7440825918569	-15.8932245669559	-138.713009104246	
214400000	-15.6666234262945	-125.237099854631	-0.140483359088006	-42.8129762485306	-0.140581166871674	-42.8414685822247	-15.8909587740695	-139.487137239079	
215040000	-15.5088277348873	-124.826007584537	-0.129909411211586	-42.9001504078716	-0.141700982387713	-43.01429024209	-15.8196982564725	-139.595837716954	
215680000	-15.517969836387	-124.865397031794	-0.15138412590469	-43.2047338621861	-0.152294473220594	-43.1652683330899	-15.7237956678474	-139.945497197799	
216320000	-15.5875011928622	-123.921139679479	-0.156760781227622	-43.2341240248255	-0.17565853602154	-43.3310483544764	-15.6015751627169	-139.211999868177	
216960000	-15.4240637990679	-125.166197136845	-0.149713804919277	-43.3076426012011	-0.160327845476247	-43.2216300593711	-15.5154764415012	-140.583410627626	
217600000	-15.6072660112493	-124.925493051001	-0.140809601673805	-43.5594698347074	-0.14971764583234	-43.4859631910849	-15.7529120136589	-140.4094782114	
218240000	-15.5491155056718	-124.995889532385	-0.148150025557775	-43.7009861088506	-0.151628292403464	-43.5459056912073	-15.4439777850819	-140.491577198012	
218880000	-15.5041883610876	-125.815918937279	-0.130795923819676	-43.7450381616055	-0.149600310199567	-43.9350056458728	-15.6789932348968	-139.576059810612	
219520000	-15.323061603658	-125.211380245397	-0.161121560800414	-44.0147226687721	-0.152191886926153	-44.0571618027981	-15.6812328697175	-141.327733730191	
220160000	-15.3021646029377	-126.003480617804	-0.135769254157252	-43.9784410696847	-0.165630586113575	-44.0994236897722	-15.5234367329656	-140.789343498807	
220800000	-15.2464039082512	-125.515534161939	-0.146950878861081	-44.1660973867557	-0.141783474217217	-44.1361276500093	-15.4786088672992	-141.257284353242	
221440000	-15.3175109725679	-126.548324406034	-0.153055095096988	-44.2773107532252	-0.15658535652798	-44.1895962049204	-15.4439768073801	-141.630457637209	
222080000	-15.3964735983148	-125.977819850621	-0.145603474930176	-44.4006867380886	-0.162942410386204	-44.3062507633865	-15.4890055385069	-141.102047945935	
222720000	-15.1913266676482	-127.246407230813	-0.13916244546979	-44.540101185365	-0.165526775211131	-44.5641237924543	-15.3853777551766	-141.165535266718	
223360000	-15.2403911350443	-126.802753578998	-0.149801730826975	-44.549795607916	-0.142402532027673	-44.5914254124255	-15.3681239187703	-141.894372388865	
224000000	-15.3987721188824	-126.696837431028	-0.142282222435209	-44.6470437282679	-0.162224602530112	-44.6766980739871	-15.3596839910872	-142.313129651572	
224640000	-15.1978935297789	-126.982956428883	-0.162008224292786	-44.8873571839548	-0.16225854070246	-44.872489886116	-15.3423960123625	-141.867830086009	
225280000	-15.2011774775886	-126.610736453991	-0.154396598299541	-45.0228788821578	-0.160354414222467	-45.0172455884273	-15.3317588529101	-142.012958828811	
225920000	-15.2853638772833	-126.518184095251	-0.156559415975895	-45.1379219060126	-0.15740470841601	-45.0796829709891	-15.4558289273191	-142.671331586758	
226560000	-15.2669868829778	-126.580290009663	-0.158011435216115	-45.339355794855	-0.169658463529039	-45.2516326983915	-15.2300808875402	-142.062053197758	
227200000	-15.0760499503387	-126.729427637362	-0.16996250643335	-45.3652983722442	-0.148560590147179	-45.3677088587936	-15.40562718631	-142.338200729966	
227840000	-15.1913994087448	-126.553647066633	-0.146420487303376	-45.505472779416	-0.165092761423457	-45.5549604434593	-15.2433188393044	-142.638285612616	
228480000	-15.0344000644903	-126.336546052721	-0.165013465940653	-45.7541633202157	-0.16425185638148	-45.6283922496279	-15.3196507308511	-143.033543464226	
229120000	-15.0298884679084	-127.766255291066	-0.167935099680839	-45.5910998975418	-0.15465764596581	-45.7467855781948	-15.2463801614781	-142.486625375097	
229760000	-14.9688768069117	-127.807713884106	-0.162074264150695	-45.8670996195339	-0.168648923088712	-45.8607858995818	-15.1612260566338	-143.38006771497	
230400000	-15.0405460063127	-127.828189681172	-0.165719773774098	-46.0368400993407	-0.157027638265282	-46.029641219365	-15.1977017764594	-142.804847898746	
231040000	-15.0401179016968	-128.325662404577	-0.163892345063782	-46.233321691347	-0.146219335755775	-46.2116356114936	-15.1288042453972	-143.527725943832	
231680000	-14.9921307466839	-128.279902168495	-0.151845406055966	-46.322454799172	-0.164053746609897	-46.2748920758397	-15.264510132343	-143.328921170551	
232320000	-14.9380510950397	-128.61871695582	-0.160408743340717	-46.4274482249663	-0.165844126144994	-46.4363838587446	-15.0771978163405	-143.551422666375	
232960000	-14.9690131673168	-128.099096899351	-0.179035825659178	-46.5420419842301	-0.154691705554626	-46.5284047307121	-15.2421481075342	-143.992779508751	
233600000	-14.9052343334228	-127.728629109217	-0.159900620612134	-46.5336078364355	-0.151767011734519	-46.7399253172522	-15.1193518100558	-143.775311010696	
234240000	-14.9432113653944	-128.627284567512	-0.165224066261613	-46.8011625022581	-0.172061699343081	-46.7696429455196	-15.0298557689498	-143.579366667145	
234880000	-14.9125604711419	-129.15527870642	-0.174723287037239	-46.8927097982736	-0.17234516277466	-46.9428127068314	-14.9938561250067	-143.891212004426	
235520000	-14.8802912366688	-128.066980446947	-0.164577974133832	-47.0212077793778	-0.172964511339278	-47.0494449524201	-15.0621101955407	-144.583696014999	
236160000	-14.8523774389119	-128.866533164305	-0.162080772680787	-47.2039521730371	-0.171721998800483	-47.0989071842399	-15.1030023879567	-144.703880218375	
236800000	-14.9388314564016	-128.214014834815	-0.15143177571413	-47.2963534684585	-0.154967144794831	-47.2413554773903	-14.8886021802465	-145.11663025858	
237440000	-14.8530194251049	-128.631864333848	-0.168547195106903	-47.4540765581136	-0.17145618084838	-47.3533737111213	-14.8419445859745	-145.616007841718	
238080000	-14.9253777593195	-128.836647943512	-0.18389462888986	-47.6065012157179	-0.183249688007054	-47.5019404400113	-14.8649776787772	-144.713163672775	
238720000	-14.8820322813388	-129.191477106017	-0.156151734463843	-47.7683457175355	-0.150864311322112	-47.7292509318781	-14.9370136980788	-144.837657701267	
239360000	-14.8504427851581	-128.589427949214	-0.160836850508738	-47.7566943513025	-0.190997443355799	-47.8515542408814	-14.8438605063153	-144.491141082789	
