!Keysight Technologies N9950B: A.12.38
!Date: Monday, 17 April 2023 20:59:49
!Timezone: (UTC-06:00) Central Time (US & Canada)
!Model: N9950B
!Serial: MY61131330
!GPS Latitude: 
!GPS Longitude: 
!GPS TimeStamp: 0001-01-01 00:00:00Z
!GPS Seconds Since Last Read: 0
!CHECKSUM:1829648466
!Correction: S11(ON U)S21(ON U)S12(ON U)S22(ON U)
!S2P File: Measurements:S11,S21,S12,S22:
# Hz S DB R 50
800000000	-6.89205026969211	-129.803840898135	-1.51974232766748	-59.125380373592	-1.47047834724874	-58.9936021264447	-6.99085933712479	-177.062001937796	
801700000	-6.87259720682698	-129.924912550293	-1.49933268794231	-59.1866662941208	-1.47837639023597	-59.13688655633	-6.94786321857291	-177.313958264602	
803400000	-6.87115316793968	-129.67042968972	-1.47553970724539	-59.2628735356461	-1.44864570833191	-59.225896735473	-6.98154832975566	-177.41356813057	
805100000	-6.86250292923989	-129.986775165088	-1.4865227899172	-59.2808049082613	-1.48036950372999	-59.3565181998148	-6.96355544121136	-177.638920919319	
806800000	-6.90606453464317	-130.322717978365	-1.46603352823062	-59.498631711952	-1.47098505841187	-59.4301179189892	-6.97264068153327	-177.823274102799	
808500000	-6.90499222942514	-130.106247154577	-1.47423238012986	-59.5465379235365	-1.47160995472338	-59.6846108861407	-6.94915253546893	-177.719305335695	
810200000	-6.8843139818648	-130.120732961055	-1.49776799933576	-59.5281690797996	-1.50067786552674	-59.5194938486656	-6.90093187730828	-177.816388900598	
811900000	-6.83249812942252	-130.109565629519	-1.48659324387838	-59.7066916891634	-1.47935878230848	-59.9024643089398	-6.98278729402297	-177.922620305922	
813600000	-6.87355782499702	-130.069010313756	-1.50355491729953	-59.8360305828058	-1.48910508770679	-59.7650830606687	-6.95604385267971	-178.291072110864	
815300000	-6.87845165567206	-130.272172933547	-1.47549851694063	-59.9144116081984	-1.49592827830516	-59.9052646549843	-6.95950571764931	-178.029615811094	
817000000	-6.8576425215049	-130.430873945588	-1.49648417642214	-60.1406706435476	-1.47846354198267	-60.1551798867358	-6.88571391382185	-178.314507495611	
818700000	-6.87786692892498	-130.358881767895	-1.50326918784074	-60.1951603811255	-1.49856274540881	-60.1112101437112	-6.90133599006636	-178.647304711855	
820400000	-6.86685162006396	-130.381983502471	-1.4950559835275	-60.236420427655	-1.48120215239834	-60.3122419994008	-6.91803264395276	-178.903771812459	
822100000	-6.8748290558188	-130.462632701115	-1.49893491254942	-60.3286768926515	-1.47891583928834	-60.3409384730226	-6.96432963503401	-178.947182834436	
823800000	-6.8495486887536	-130.423500409315	-1.50541283430681	-60.4292636620703	-1.49127343884516	-60.5613142265914	-6.94906313356072	-179.07993203354	
825500000	-6.86277399895504	-130.370516535437	-1.51467088367679	-60.6533429128356	-1.48919771242685	-60.6624239724413	-6.93395115017948	-179.145876183274	
827200000	-6.84714444774586	-130.841103127429	-1.50336890996255	-60.7317594585817	-1.4886254458708	-60.9265502051951	-6.97603461817624	-179.141122865469	
828900000	-6.86001360023594	-130.590503922835	-1.48103560534192	-60.7972310394927	-1.47443994556933	-60.9531538315407	-6.99532134406605	-179.538028847067	
830600000	-6.84665232472914	-130.449900003305	-1.49262753432717	-60.9603641325561	-1.48301252907263	-60.9991921168638	-6.93102506021371	-179.873152827341	
832300000	-6.88212859001201	-130.756228081684	-1.49911274368317	-60.9778954996426	-1.49396470029181	-61.1543210319687	-6.95643126779652	-179.691334900842	
834000000	-6.859900065673	-130.580766002223	-1.50418766735525	-61.1677364452241	-1.49707430088227	-61.1344851260413	-6.93064153601984	-179.686559884063	
835700000	-6.86079862340411	-130.750817200602	-1.48616552088123	-61.2269151344904	-1.50113312647773	-61.3228092167423	-6.94857934601777	-179.885108217932	
837400000	-6.85813412683809	-130.737152951181	-1.49521539674628	-61.4291491108274	-1.49389666435753	-61.2083614647748	-6.91739573355376	179.697821197718	
839100000	-6.88783382222213	-130.896872260302	-1.49946169474135	-61.505873898762	-1.46732603328676	-61.5087449542965	-6.94205636582644	179.451251871632	
840800000	-6.79938382632872	-130.895073916524	-1.52497216520051	-61.5547172087054	-1.49734034323063	-61.5590667788379	-6.91756766251124	179.468763934813	
842500000	-6.85098763205767	-130.819335527073	-1.50358249722919	-61.6920335744431	-1.49774540203482	-61.7515418529372	-6.93821605047761	179.433462042389	
844200000	-6.8541748213906	-131.123684617493	-1.51454125590977	-61.7659605809729	-1.50180656209838	-61.9256091807906	-6.97062251212352	179.110237880247	
845900000	-6.83790942551588	-130.909597986041	-1.53341045098879	-61.9199487679255	-1.48364463447907	-61.9018952576843	-6.96661138679024	178.617926726205	
847600000	-6.80494633502504	-131.284588906985	-1.51960568207772	-61.8691247227174	-1.4982398723818	-62.0221940802702	-6.95630891313191	178.996160203051	
849300000	-6.83317893222658	-131.159178637492	-1.51016314005397	-62.1567373737138	-1.51696893486536	-62.1201797357492	-6.91722781358821	179.009208776299	
851000000	-6.84791265338449	-131.229691112263	-1.51354061653994	-62.2100348817815	-1.49992644438131	-62.2295852308276	-6.93450302739294	178.682215004199	
852700000	-6.86654915857529	-131.278942833314	-1.50655483748233	-62.4469734963035	-1.51422343196683	-62.1800669631772	-6.91760606936197	178.581188104878	
854400000	-6.84348371363531	-131.213399737555	-1.51887698525082	-62.4990603548325	-1.48521562438478	-62.4244941648077	-6.89838892990264	178.640410193073	
856100000	-6.85153974985733	-131.268312688168	-1.51005965769463	-62.4067948190248	-1.50044136387688	-62.465587433856	-6.94225543960471	177.822255057738	
857800000	-6.8528386409894	-131.657233587531	-1.52441193514921	-62.5606998391999	-1.50668834181926	-62.6393453029286	-6.94507610637062	178.162974133571	
859500000	-6.84471010634066	-131.523668656113	-1.50857132976137	-62.6880445435124	-1.50295150213449	-62.6658326934437	-6.91162665322105	177.692968378582	
861200000	-6.82643169027045	-131.437089535887	-1.51835999923143	-62.7000330167926	-1.50926118287919	-62.8012127148223	-6.90141399887573	177.76925791699	
862900000	-6.83040934472754	-131.571111391922	-1.52230139284847	-62.9886675517819	-1.51609005086388	-62.9826873238547	-6.9215516294358	177.729639599293	
864600000	-6.85164997967758	-131.803220464787	-1.50498610859085	-63.0646095772315	-1.51453172801684	-63.0678978915237	-6.9781663667761	177.763828739164	
866300000	-6.84069933642092	-131.532142873492	-1.52851028599621	-63.120814502182	-1.49669746817716	-63.2025805313024	-6.93065693229314	177.119943581681	
868000000	-6.83159533711121	-131.933685087778	-1.5151293866594	-63.1023361570765	-1.4845370320429	-63.2625261867046	-6.94526748297974	177.045858509057	
869700000	-6.81698221794672	-132.021121211107	-1.51504665801185	-63.1530482670391	-1.50288800546268	-63.1983145573693	-6.95496070814956	177.090076046849	
871400000	-6.84483122911677	-131.602010642653	-1.52600157115888	-63.6004288147457	-1.51648340484699	-63.3996269611539	-6.93341764070469	177.072878637304	
873100000	-6.8423868534157	-131.734355315272	-1.51173448088618	-63.5312669221586	-1.49863579596328	-63.4088037278585	-6.87253511177034	176.770444031318	
874800000	-6.81406577546431	-131.840115091506	-1.52481825921084	-63.5980530411689	-1.51683831372212	-63.7300921067493	-6.93383100531727	176.747221760306	
876500000	-6.83356069559036	-132.027926325249	-1.52512996427491	-63.7304395666437	-1.50021903866379	-63.8831244497316	-7.00279631250855	176.602591123294	
878200000	-6.84875897629795	-132.160798309938	-1.51128583095295	-63.6337382415662	-1.49009737498531	-63.7286757962896	-6.93517077476168	176.292213158595	
879900000	-6.81100026210597	-132.03793426644	-1.52372418562121	-64.0623481853236	-1.510307979034	-64.0370215994995	-6.92189455835697	176.194521989785	
881600000	-6.83506820962461	-132.30621617712	-1.50444546602412	-64.0657073760346	-1.54611782925909	-64.1088775279612	-6.903492821466	176.369826726217	
883300000	-6.84842168800278	-132.126910207285	-1.52188659317198	-64.0510612769576	-1.51528187714075	-64.0756667984535	-6.94232687297786	175.952036696447	
885000000	-6.83839094308966	-132.31473126353	-1.52616450945497	-64.2196145466306	-1.51326326807295	-64.198619465501	-6.95730999088151	175.844614586507	
886700000	-6.84575848102376	-132.145885277286	-1.52148823222721	-64.3193355797323	-1.49872193787226	-64.3587119074451	-6.96969200518999	175.608165765004	
888400000	-6.8855629071432	-132.135955892438	-1.51065670090482	-64.4334679628605	-1.51290646935655	-64.4194390644665	-6.96609006649341	175.759446191813	
890100000	-6.85657410067724	-132.348002820801	-1.52895049940801	-64.5924939524352	-1.52199919301134	-64.5541705537743	-6.94057920618148	175.497474161128	
891800000	-6.84891323767195	-132.44400611978	-1.53255116437936	-64.6584800135836	-1.51356006135768	-64.5990464061017	-6.93478899795545	175.707404707193	
893500000	-6.85681656879178	-132.376578020368	-1.51793050582855	-64.7276262633787	-1.52221117452777	-64.7262407016782	-6.9336974291707	175.109736125485	
895200000	-6.85966119660507	-132.495534608997	-1.52215643456919	-64.7860242700959	-1.51126810853741	-64.8162611760822	-6.92007910952046	175.039370612302	
896900000	-6.87730935810231	-132.536372805966	-1.5126380553092	-64.7663133916906	-1.50285569478894	-64.877349193449	-6.9222224020943	175.034563438582	
898600000	-6.84656043955762	-132.479478995246	-1.51344088650021	-65.1099713130009	-1.50236509415863	-65.0535383413754	-6.93118163133132	174.55305246204	
900300000	-6.80948502281035	-132.568286716037	-1.54179272645296	-65.2491109714835	-1.50480067783055	-65.0953978798835	-6.9441965312177	174.400339865267	
902000000	-6.84978525950382	-132.497705827944	-1.52358926996848	-65.2593607633876	-1.49258795830731	-65.3253811813817	-6.95618402014573	174.290500801209	
903700000	-6.84947088106063	-132.67161605817	-1.53836069099719	-65.2697629709471	-1.51081542691045	-65.2551789505197	-6.92442992486692	174.344548475064	
905400000	-6.85954285433908	-132.728632324084	-1.53219870051696	-65.5831945243308	-1.50649922240924	-65.5331055559393	-6.94277440858817	174.272513500366	
907100000	-6.86787857561648	-132.814114543525	-1.53992776325973	-65.5002388435419	-1.52241587901741	-65.5753551860089	-6.92632463234859	173.645914326965	
908800000	-6.8365711880309	-132.694557459606	-1.52547473655947	-65.6396497367975	-1.50072915217201	-65.6716419988351	-6.97200569175415	173.797475014613	
910500000	-6.87477767610014	-132.571281356579	-1.51954125979242	-65.830118461651	-1.51239218569565	-65.7175929573406	-6.90920432483128	173.651927421951	
912200000	-6.89274253566998	-132.813317713409	-1.53543725403796	-65.7969636267227	-1.50602673976646	-65.9758467958829	-6.95332871895883	173.466534970392	
913900000	-6.89481982680866	-132.865211838592	-1.53430062572293	-66.0775013421168	-1.51385591258935	-65.9217692165153	-6.94791798492073	173.411058974838	
915600000	-6.90983378759217	-132.931053198537	-1.52377046409119	-66.1246518977271	-1.5104987033901	-66.0142670822365	-6.92677218048516	173.246844296944	
917300000	-6.86909796303579	-132.949103248887	-1.53539931540661	-66.1991157225308	-1.51541394889644	-66.1516985714234	-6.9286937749707	173.011590956891	
919000000	-6.82404224598331	-133.039659004671	-1.53973628293174	-66.2246961775544	-1.50767104527436	-66.3487714758255	-6.97066017368779	172.819711331496	
920700000	-6.90585779934092	-133.138965116065	-1.49166288900041	-66.2967819797708	-1.50439024518072	-66.3795958182294	-6.96511186247581	173.023895395969	
922400000	-6.90628376536125	-132.913166611789	-1.52405841913604	-66.6525115557603	-1.50581092503266	-66.630138049166	-6.99211602283163	172.922572448477	
924100000	-6.90129781268774	-133.153184147668	-1.53491378873452	-66.5688719691894	-1.51534644234404	-66.622375493693	-6.97533921245292	172.653112110881	
925800000	-6.85958571636635	-133.292828586003	-1.52420785938942	-66.6704902893781	-1.51506970917244	-66.6667464281154	-6.92678511895618	172.247133193829	
927500000	-6.87427130374032	-133.105753478969	-1.53067411473576	-66.7643303257382	-1.52494202717746	-66.8028218578528	-6.94213071637877	172.452498246668	
929200000	-6.91436001302153	-132.883417853451	-1.49635365968371	-66.8826577431781	-1.50172483877874	-67.0815008860403	-6.98394621321758	172.117654298479	
930900000	-6.90087181472065	-133.150099411868	-1.52494682800665	-67.0525114216807	-1.49348709583321	-67.1158218712263	-7.03068411227089	172.083358051423	
932600000	-6.86495105675248	-133.355618923246	-1.52008464346797	-67.0596073612274	-1.49129905549876	-67.0968179616418	-6.9846920930594	171.671918075434	
934300000	-6.88012653614967	-133.340234255928	-1.52761379046833	-67.1428857921179	-1.51774490418486	-67.3158035964743	-6.95660914739261	171.722309305114	
936000000	-6.92475198205897	-133.608462082596	-1.51817165667622	-67.3207348741735	-1.49714660169375	-67.2553163781373	-6.98199854221169	171.616588195181	
937700000	-6.90951968652541	-133.26044698066	-1.51746595271246	-67.5964980743244	-1.51847142855615	-67.5366812621434	-6.96429962562437	171.532788264195	
939400000	-6.90180642975715	-133.576766798508	-1.53409759146896	-67.5294204622252	-1.53030987414916	-67.5698489677112	-7.00710427525472	171.332364901	
941100000	-6.91679165649972	-133.294842980791	-1.53211067889733	-67.7355156957023	-1.52630467704159	-67.8046870219436	-7.00443392912986	171.324222210833	
942800000	-6.9272832173846	-133.614118447282	-1.51003281836129	-67.8064950162195	-1.50936976506467	-67.826170732906	-6.98843263430982	171.074587490944	
944500000	-6.93054660971918	-133.872191577212	-1.52311669619079	-67.8552594109013	-1.51796600245806	-67.9543557422641	-6.98652869224976	171.233242062012	
946200000	-6.90178410042114	-133.582463913561	-1.52622786560944	-67.9941536249588	-1.50309045462102	-68.0225126061183	-6.97741651137096	170.853721343607	
947900000	-6.93260323649053	-133.775568122438	-1.51233153683703	-68.0894280702353	-1.48318894359341	-68.1467144761672	-7.03362883014532	170.818188597385	
949600000	-6.9009230229012	-133.785732790834	-1.53971569723052	-68.2078501101224	-1.51898492263234	-68.2842379698331	-6.9995451000274	170.401409110191	
951300000	-6.96115059903817	-133.434306733446	-1.53076814703752	-68.3527673328138	-1.50064492099009	-68.284387308773	-7.02289799695091	170.185905700536	
953000000	-6.95455581217329	-133.615362559751	-1.53450192593436	-68.4568913640923	-1.52386901365562	-68.5318752993603	-7.0417778870294	170.2460919157	
954700000	-6.93305750867967	-133.641092742045	-1.52183799702547	-68.4627575826112	-1.53326019318613	-68.4787421083312	-7.02293567137998	169.801843915576	
956400000	-6.95493060826148	-133.847892550218	-1.51913787380314	-68.6233161582715	-1.49414061148117	-68.6185178198193	-7.05212995533069	169.65947137068	
958100000	-6.96328476743658	-133.924101321361	-1.55438655093302	-68.7413909319333	-1.51260343450831	-68.8017164216128	-7.02855687884241	169.892090361159	
959800000	-6.93979116376121	-134.014663982755	-1.50602774352586	-68.8943857554476	-1.48880100446993	-68.8029300135912	-6.99740516599644	169.313460135237	
961500000	-6.94648851161077	-133.936625520751	-1.51984303270037	-69.0291293515548	-1.49866040620802	-68.8969371453572	-7.01414474547166	169.246738895009	
963200000	-6.95102382773012	-134.100157324089	-1.51021917733959	-69.0169115510869	-1.50880833515929	-69.0373071967318	-7.07496046797486	169.349771789778	
964900000	-6.93948505819175	-133.997895139247	-1.53035158436569	-69.1945191590464	-1.51131290929627	-69.1867644847438	-7.02206818415025	169.37731046483	
966600000	-6.97760907025116	-134.156518988572	-1.50933627962032	-69.1717048550958	-1.52580198479591	-69.4438600476829	-7.05931090901628	169.375313879245	
968300000	-6.98191783923332	-133.868605980208	-1.52311316849852	-69.3235463789943	-1.50920462981761	-69.3098892057831	-7.04467446885055	168.806437751798	
970000000	-6.97474746953125	-134.116785952522	-1.52405933482624	-69.4897269310391	-1.5002041304001	-69.5076591952634	-7.05133379364295	168.984802863865	
971700000	-7.0143673119767	-134.258440546618	-1.52089013377396	-69.4904698316845	-1.52377454954858	-69.6157685275128	-7.05640156540059	168.718694026795	
973400000	-6.99828121657612	-134.324232056205	-1.50596047413609	-69.5656599244469	-1.50774831715701	-69.5317546718677	-7.10186399575153	168.580781186327	
975100000	-6.98534094182503	-134.405553481135	-1.5039728120128	-69.8064175910665	-1.48697094095905	-69.7683924348042	-7.10813840883791	168.300984230447	
976800000	-6.98156916518447	-134.234536841122	-1.5206841477575	-69.8188754905513	-1.49591010205115	-69.8945703622375	-7.11201714990512	167.852330475489	
978500000	-6.9689960974675	-134.344404138442	-1.50539407306185	-69.8640730392386	-1.49312692724609	-69.9561958854664	-7.11180689534177	167.917328694727	
980200000	-6.99979457886504	-134.321382710735	-1.53041520905835	-70.006093599167	-1.51936284628268	-70.0090154165192	-7.08537513947123	167.673658872922	
981900000	-7.00723297618825	-134.202513081923	-1.51791927872579	-70.272809093285	-1.52431745859473	-70.1746065630589	-7.0857223798911	167.851398228637	
983600000	-6.98122301992325	-134.784252969293	-1.5119480560084	-70.4032138567775	-1.50811381470156	-70.408727131553	-7.12184606543155	167.363663078405	
985300000	-6.97755593241119	-134.635699138059	-1.52159235017568	-70.3197728970218	-1.49378873192015	-70.4718545581132	-7.10103872159168	167.073713795838	
987000000	-7.03223907413921	-134.845434365749	-1.5001404588405	-70.417997960204	-1.4816596995808	-70.5485570754504	-7.14166747932875	167.431700784596	
988700000	-7.03182366397473	-134.709743107351	-1.51654082747055	-70.6030208042652	-1.4883596119281	-70.6818550031067	-7.12402068954724	167.079441548288	
990400000	-6.96528181665509	-134.718375889117	-1.52599215820885	-70.45895202499	-1.48223535439354	-70.7301112022359	-7.12999791914573	166.852167891255	
992100000	-7.01008989372591	-135.222008063408	-1.48630574929827	-70.7187122267172	-1.48404789592048	-70.9261864262607	-7.14306297875574	167.249638472767	
993800000	-7.08275184844277	-134.959095124255	-1.5253293683318	-70.8707461129265	-1.50399139357853	-70.920574330151	-7.12544105570539	166.83482865104	
995500000	-7.04383556727891	-135.278272705316	-1.49641801947909	-70.9367035948555	-1.50171544924366	-71.0682784176777	-7.18595415988041	166.504640851521	
997200000	-7.03061303297046	-135.059841808522	-1.51203257307899	-71.1382162441737	-1.47870810858648	-71.1484675904072	-7.13988530179329	166.559588369816	
998900000	-7.07857853560819	-134.952125880738	-1.5200376265507	-71.380134103329	-1.50353350575637	-71.089273794539	-7.12307962583206	166.396913523521	
1000600000	-7.02735008814282	-134.829514586119	-1.52500356681617	-71.3701633805251	-1.50083737002753	-71.4720797289451	-7.16980891913837	166.062698516507	
1002300000	-7.0542411047241	-134.8180940121	-1.51971290672066	-71.3747117471387	-1.50193931030337	-71.4218766107266	-7.17913210446918	165.935695049586	
1004000000	-7.04888708887447	-135.250210828583	-1.48885927104912	-71.4878341592541	-1.4894726454188	-71.4945641012157	-7.17388077988751	165.883511701818	
1005700000	-7.03995448248466	-135.162498247211	-1.53185926340736	-71.7707250944087	-1.51084055560218	-71.7276875590745	-7.14098984395012	165.963294823983	
1007400000	-7.04588425507102	-135.074090386233	-1.5184543950977	-71.7042931681674	-1.49921563408025	-71.8232389412337	-7.17114721191912	165.633622487216	
1009100000	-7.07001732586487	-135.268243901716	-1.49214664857747	-72.0143367437149	-1.45637765574119	-71.8691219935251	-7.1404064871448	165.518725428942	
1010800000	-7.09334085907181	-135.338447029476	-1.51782536259083	-72.0051005462412	-1.51163872464974	-71.9608951278471	-7.16850021299561	165.303551568366	
1012500000	-7.08421906411897	-135.73034294685	-1.48939699302992	-72.028633312223	-1.48661080482118	-72.0309685106771	-7.21265186916519	165.045268886349	
1014200000	-7.06739579852203	-135.394525118126	-1.52311093723617	-72.1984715350035	-1.49453688972363	-72.2497084362416	-7.19338057182054	165.020843007163	
