!Keysight Technologies N9950B: A.12.38
!Date: Monday, 17 April 2023 19:10:20
!Timezone: (UTC-06:00) Central Time (US & Canada)
!Model: N9950B
!Serial: MY61131330
!GPS Latitude: 
!GPS Longitude: 
!GPS TimeStamp: 0001-01-01 00:00:00Z
!GPS Seconds Since Last Read: 0
!CHECKSUM:1442037510
!Correction: S11(ON U)S21(ON U)S12(ON U)S22(ON U)
!S2P File: Measurements:S11,S21,S12,S22:
# Hz S DB R 50
2500000000	-8.68533999361505	-65.2171553254111	-2.10473011669989	134.131475167827	-2.12981581091672	134.076782411857	-8.86535124049239	154.683153013169	
2510000000	-8.79518317901167	-65.5330031424601	-2.11698614777325	133.315769768159	-2.14113798544686	133.293649258023	-8.93182095944655	153.905041595691	
2520000000	-8.84980502663694	-65.6270584164325	-2.11609777504447	132.381388003136	-2.14099407061318	132.483079495569	-8.9841071496707	152.72139316672	
2530000000	-8.92904757568109	-66.0405121524859	-2.0990178079181	131.57322203747	-2.10427056999571	131.5871621202	-9.13498670490289	151.683955634748	
2540000000	-9.02918479742153	-66.1431344145773	-2.10324236614437	130.580178441671	-2.11058399768858	130.75675732246	-9.17059138785664	150.924342320821	
2550000000	-9.15459525348209	-66.7152446207555	-2.0788964002969	130.030300923835	-2.10576192295822	129.908866412831	-9.18943553051423	150.19433265097	
2560000000	-9.25618497305289	-67.1498042681696	-2.08332416211949	129.11773037931	-2.10165041529225	128.990797867679	-9.26691042014011	149.441192601436	
2570000000	-9.31764972827778	-67.229930695989	-2.06015300245382	128.109719590318	-2.07910550026687	128.282612299903	-9.39470529488234	148.414373057963	
2580000000	-9.43945431277035	-67.4388940067499	-2.04286232701836	127.239698792217	-2.06442011277972	127.361079989448	-9.42290216061702	147.787922498408	
2590000000	-9.53888404237668	-68.2414116999586	-2.03914969315157	126.553627328524	-2.04805969497683	126.635270216675	-9.6010443255395	146.893966593623	
2600000000	-9.70758156387855	-68.0115066735177	-2.0327081119301	125.572973123151	-2.02995002984624	125.504415450666	-9.76389687170443	147.024589120282	
2610000000	-9.82133413264405	-68.6160706856948	-2.01268994811914	124.630029650033	-2.02402818442309	124.709888049959	-9.9517264315354	145.774418898758	
2620000000	-9.97691841536141	-69.071204607289	-2.01483083023569	123.846785504544	-2.02296893177389	123.772440365714	-10.054648426904	144.95994865192	
2630000000	-10.0510445980025	-69.0402330139048	-1.9952218779683	122.852712215987	-2.00625068490183	122.954113582343	-10.208343501291	143.615091888124	
2640000000	-10.144561504019	-69.3627177463853	-1.98635197312407	122.005876424979	-2.01478030580524	122.109884127375	-10.3167058372114	142.689132260426	
2650000000	-10.3105330800397	-69.6885493543084	-1.97340695879396	121.294386872935	-1.989016038945	121.291052861486	-10.4401647279535	141.847495910826	
2660000000	-10.4255611745106	-70.1283284041717	-1.98035575797541	120.209359695955	-1.983714590871	120.201012467502	-10.5661891078897	141.333768818571	
2670000000	-10.5762259461433	-70.0426675188272	-1.97460718840814	119.295400869429	-1.9920704091799	119.465432221875	-10.6636816030401	140.101679496028	
2680000000	-10.787802927482	-70.525071527826	-1.94023716965035	118.523976817214	-1.96484907507924	118.694765163161	-10.8317618907356	139.9215880236	
2690000000	-10.9627066642838	-70.5511179928069	-1.94262807760135	117.661840131418	-1.95888550375691	117.606739728939	-10.951952017404	139.357534793534	
2700000000	-11.1603689995951	-70.9461975132064	-1.92868767334838	116.77286871876	-1.94376670360852	116.756222280725	-11.1513994517341	138.432553120672	
2710000000	-11.3118024954115	-70.7240220611433	-1.92817001406248	115.819262293233	-1.93959995497811	115.759944735284	-11.3630402376715	138.03765574218	
2720000000	-11.463895788961	-70.8027813437871	-1.89655976022266	114.882889833472	-1.92195983400091	114.951492838989	-11.6193267806337	137.264154524039	
2730000000	-11.7266777165058	-71.3962031310409	-1.91817116289852	113.878838395507	-1.92127390238517	113.783915581047	-11.8028232830073	136.867311735002	
2740000000	-11.8431268340304	-71.6323808456145	-1.89866322251834	113.042528669379	-1.89949541530832	112.915815208092	-12.0737011721156	136.076834130728	
2750000000	-12.0368707921709	-71.3254383299687	-1.88052531224361	112.054960953344	-1.89392780315406	112.211182957556	-12.2325010249105	134.849817605247	
2760000000	-12.2699696804064	-71.8489540800732	-1.89146123231283	111.16636477829	-1.88667398665259	111.250941769308	-12.5176351080729	134.251257362791	
2770000000	-12.5555621757795	-71.8058023270845	-1.87385379526512	110.251775862123	-1.88990767349992	110.25958212262	-12.680296896878	133.498510786332	
2780000000	-12.7905764967452	-71.4558356390974	-1.8481798223226	109.337894180802	-1.88557297744004	109.402512223908	-12.8255513320647	133.055619810533	
2790000000	-12.9218660722627	-71.6495712598973	-1.85437444207478	108.354216942768	-1.85482556830058	108.563173981343	-13.1339323409957	132.704843116797	
2800000000	-13.3012249650487	-71.5987316734124	-1.84395298707721	107.59520793689	-1.86072424314429	107.379581722237	-13.31860690505	132.858400081007	
2810000000	-13.6126128591962	-71.5028894303406	-1.81968163598396	106.434747164896	-1.84484978002314	106.519197755959	-13.5290183093456	132.659301994073	
2820000000	-13.9082267720344	-71.7501687306853	-1.83079994065197	105.563458881905	-1.83533870161881	105.455607044983	-13.8119926854206	132.303487495076	
2830000000	-14.1359710864402	-70.5756388407105	-1.80671689682174	104.463197719603	-1.83952819877737	104.583945290764	-14.1326860304166	131.969450308334	
2840000000	-14.5483858034885	-70.8299172905328	-1.81223188419618	103.56084660347	-1.82543394985735	103.736838466304	-14.483610691572	131.917181220619	
2850000000	-14.7979579693037	-71.1424266825518	-1.82965855369785	102.630527809501	-1.83438162430908	102.665461980154	-14.8604886015643	131.276323488688	
2860000000	-14.9761754215077	-70.2813377459338	-1.80649143829188	101.650150556634	-1.78734789741529	101.730015651018	-15.2769035883507	131.807179007787	
2870000000	-15.4636339039718	-69.5056227488236	-1.8022757848337	100.884695786214	-1.81131006893512	100.79353632851	-15.5376846231518	131.781183462894	
2880000000	-15.7641195133797	-68.6731521662062	-1.78084232884341	99.7821559343162	-1.79538789287549	99.8031060823929	-15.9348047488148	130.320315940163	
2890000000	-16.1591656456961	-68.7633442384956	-1.80329602934572	99.0391728217151	-1.79533403042411	98.9341855011163	-16.2747561917509	130.371927187049	
2900000000	-16.605084410863	-66.875770087509	-1.78953649834689	97.9745421102339	-1.79783139430125	97.7362676185372	-16.4863982288554	131.463564131097	
2910000000	-16.9017685717866	-67.1785676758439	-1.79587634358679	96.873569681752	-1.82921650282972	96.978055112984	-16.8258575226222	130.765268859572	
2920000000	-17.3537150157134	-65.1502964375461	-1.7811923009178	96.1366393442779	-1.79707919370962	96.0734565566933	-17.2718136699859	133.469978096865	
2930000000	-17.7610905976557	-63.8920688291431	-1.78834000885807	95.0827488715602	-1.81097483687101	95.0517753649334	-17.6323903785196	134.137378927081	
2940000000	-18.3152054491301	-62.291112672764	-1.76852550463917	94.0782551792037	-1.79794336310822	94.1441773459404	-18.0425244384737	135.650707974772	
2950000000	-18.7595538990771	-60.3844258791326	-1.80344082653134	93.0148929457753	-1.7881555359492	93.126276979668	-18.6109428944343	136.797433706397	
2960000000	-19.424279405502	-58.662794049923	-1.77079024995375	92.1732095472497	-1.79240937010835	92.2854573103689	-19.2597012302007	139.174793116891	
2970000000	-19.7311343033964	-55.6342169488668	-1.7776958801807	91.1148050763824	-1.7922549105609	91.1143813452174	-19.7090611831141	141.21745308047	
2980000000	-20.0388956661164	-54.6620427517659	-1.79065947708174	90.0857097986297	-1.81643919797624	90.1999339943441	-20.0031484927807	143.203187379921	
2990000000	-20.675193049931	-49.6491197564411	-1.78550706903226	89.2971117214218	-1.77574014144107	89.2750867342704	-20.6443218373851	145.44304281447	
3000000000	-20.8924855633381	-47.311566489504	-1.76274432818846	88.1689887327135	-1.79359538408752	88.2545753055526	-20.8564840232308	147.930059686242	
3010000000	-21.7617300860874	-42.8887598989682	-1.78528132512006	87.193450827532	-1.79110367309595	87.276994413024	-21.3132860672958	150.557249300652	
3020000000	-21.9404470319247	-38.6372758802113	-1.79567316206065	86.2493050104584	-1.80554086005748	86.2974193224684	-21.5147513751865	154.979382973682	
3030000000	-22.4905345779004	-32.3262484148098	-1.81187160282055	85.288052506772	-1.8323310257603	85.3106550446369	-21.7875212565851	157.870628682336	
3040000000	-22.5407687561543	-29.3475183807856	-1.79124747734534	84.266098038892	-1.8166765063735	84.3758484941058	-21.9986000376808	163.874518591864	
3050000000	-22.6748016372218	-23.1818231546071	-1.8236014618672	83.2435309774841	-1.83313612027249	83.349954103294	-21.8594071078031	167.342986310489	
3060000000	-22.6116253273691	-17.2308028825387	-1.81788950469255	82.3535908391518	-1.84293194017162	82.3745659877495	-21.8130321431895	174.844538240692	
3070000000	-22.5631535459225	-10.5980379870602	-1.80439212385238	81.4406837460517	-1.82600811465719	81.4364837494639	-21.8547504628607	179.419275896152	
3080000000	-22.588553625756	-4.71588594122873	-1.8460875191762	80.4515751872549	-1.83190969919995	80.4706326467569	-21.7549853420113	-174.833082894303	
3090000000	-22.3769589575192	-0.559551722289247	-1.8308512562074	79.5290179264742	-1.86775867774123	79.4985503048008	-21.7050049006439	-171.326610727655	
3100000000	-21.7689570017932	4.29721997766832	-1.83420692272466	78.5590834974662	-1.84769021171529	78.515361432346	-21.4307481311874	-168.916414124871	
3110000000	-21.7276409791721	8.65457050098704	-1.84203428991156	77.4868308458242	-1.87067493392895	77.4441127903623	-21.1989932081507	-164.700006431744	
3120000000	-21.4140131336028	15.1540576665483	-1.86820543218883	76.6661906708129	-1.87191443733009	76.5032877451428	-20.9247388944169	-161.554717172229	
3130000000	-20.8728042851813	16.891505916797	-1.86521508417522	75.4751475804598	-1.87043508652261	75.5240511631378	-20.3847559475658	-159.670555149981	
3140000000	-20.4382179457135	19.6448535385237	-1.8793582757414	74.528581097538	-1.91700984308022	74.5803517143671	-20.0370225473748	-157.149834560539	
3150000000	-19.8207160032324	22.6978019672788	-1.88238486872044	73.6803212229662	-1.9039944064388	73.5779322973983	-19.4370251308374	-155.520062024831	
3160000000	-19.5892664421975	25.5593571672962	-1.90643180057158	72.5101435996336	-1.93336127866148	72.7350037651546	-19.0017586777046	-154.941744933436	
3170000000	-19.0183663014898	28.1700876704241	-1.92469022319268	71.7568748101354	-1.92328685743682	71.8428108328273	-18.5003426718498	-152.430895799071	
3180000000	-18.4638017088564	30.2512378041632	-1.92268327586904	70.6701805297272	-1.93852548263408	70.8745702643692	-18.0743323795784	-150.097866336528	
3190000000	-18.034187056734	31.129800410912	-1.92265660170994	69.7463477846069	-1.9671090708703	69.7518357786251	-17.5285515416072	-150.446280684059	
3200000000	-17.6221114217108	32.7230767040937	-1.939544362819	68.8647693990031	-1.9446358262248	68.7979566685722	-17.2131661382446	-148.45536863205	
3210000000	-17.339794327839	33.1417839674721	-1.94267360991116	67.952527643866	-1.98361757910331	68.0530267784062	-16.9525894716656	-147.622576168592	
3220000000	-16.8383024129407	34.893607531477	-1.98172811419937	67.0236231625748	-1.98553914796513	66.9955799743685	-16.4602959932475	-146.73165289545	
3230000000	-16.5836114859718	35.9987781174349	-1.99139871437711	65.9965844379821	-1.9963060823083	66.1783030234349	-16.334663921325	-146.482544126988	
3240000000	-16.2268076822465	36.7780134098042	-2.00768682358128	65.0869441432739	-2.01755577894704	65.0442816587999	-15.9050656293383	-147.139921383814	
3250000000	-15.7713788977793	37.5412092587784	-2.01896010777787	64.1988441445072	-2.01470798597814	64.1641885332548	-15.6699333602499	-145.985442717905	
3260000000	-15.4689765323061	37.9922810570292	-2.03901589489484	63.2023267145949	-2.06438676630487	63.2432848347852	-15.4445436439679	-147.452888272673	
3270000000	-15.0659191639539	38.5714379469907	-2.06918580189703	62.311540683759	-2.05786267026791	62.3289133632191	-15.1472486307188	-147.439413094381	
3280000000	-14.9587632417123	38.6716657519952	-2.08454348969907	61.2713428161026	-2.08449773404162	61.4324308863845	-14.706430926756	-147.97769581854	
3290000000	-14.5459705334338	39.1756894007842	-2.0855669003657	60.3884433937222	-2.11452729572599	60.5342597543286	-14.4013765285498	-148.396414373546	
3300000000	-14.2739876929677	39.0840098746286	-2.11073470987783	59.4415902396819	-2.10327451494235	59.6596260940488	-14.0746609918745	-147.886511519529	
3310000000	-14.0336240324435	39.1185990766842	-2.11138365816747	58.4766239104113	-2.12599313481677	58.6427776826073	-13.8914893638102	-147.806456456466	
3320000000	-13.8201591927107	39.6857346656663	-2.13347536057105	57.6535996371641	-2.12254414663652	57.6765694481563	-13.5711721852803	-148.744353545488	
3330000000	-13.6225259114137	39.6872816805636	-2.12418542089616	56.6944071694023	-2.16025913919211	56.6425196215611	-13.4024305752551	-148.952254188696	
3340000000	-13.3147926659715	39.6153568690347	-2.15654397528465	55.8190571510597	-2.17357844233959	55.8338639091109	-13.1703446528471	-148.710046290498	
3350000000	-13.0605700453319	39.5928906831024	-2.18575756008229	55.0427847779805	-2.18893186606067	54.9096524150201	-13.0749857009119	-149.468954350215	
3360000000	-12.8362066569135	39.3391097502184	-2.18966830374147	54.2253976633308	-2.20288592138754	54.1338303850975	-12.7331037986965	-150.691912668254	
3370000000	-12.6229923838282	39.4275923643839	-2.19934165617835	53.1499979291958	-2.24177104729913	53.2042248058559	-12.574966181848	-150.992044249816	
3380000000	-12.4430869236428	39.4495156881513	-2.23055086011392	52.2532427160712	-2.25904302488598	52.3237406247175	-12.4068941058604	-151.484852296054	
3390000000	-12.2435005401202	39.3438451283435	-2.24615366124842	51.4614773779195	-2.2511262123941	51.3522729450404	-12.2189319911028	-152.513419028317	
3400000000	-12.0138643123343	39.2542955186689	-2.26328531621284	50.4746820247282	-2.25963848114816	50.5506540685157	-11.9900317908788	-153.2841345614	
3410000000	-11.8421200029225	38.9362787549564	-2.28401132579509	49.5294091428634	-2.28271713179744	49.5509522418711	-11.8658119244248	-153.169863489571	
3420000000	-11.7133460762533	38.7094193956346	-2.27742086903925	48.6799933099433	-2.29940716239517	48.6534134925758	-11.6033582364757	-154.371676147255	
3430000000	-11.6068130323994	39.0356179487268	-2.29939539866589	47.8195560347557	-2.30790429931451	47.9830528732946	-11.4559056380973	-154.909642482265	
3440000000	-11.4115166080586	38.882441857954	-2.34557593304434	46.947644443773	-2.36814412127773	47.1137827130799	-11.3185095336944	-155.325532813517	
3450000000	-11.3079691899189	39.0749433413843	-2.3177227991537	45.9105798002584	-2.34533207586181	46.1300903467876	-11.1984509013033	-155.786005606972	
3460000000	-11.1357222828996	38.4394238766169	-2.37436296717003	45.2153829909333	-2.37729672187856	45.2029094618718	-11.0140295714568	-156.230772263318	
3470000000	-11.0013978748667	38.4796868875202	-2.37255368816333	44.2482021185833	-2.40558157773345	44.2374313103833	-11.0044903926275	-157.386978568248	
3480000000	-10.8776538463258	37.9892793962242	-2.38416540975219	43.4512797032566	-2.39739169921367	43.6386446892275	-10.8922879053544	-157.969852444692	
3490000000	-10.7519370102586	38.1176045215449	-2.4290689417722	42.5737682262323	-2.4148605105268	42.6647753682744	-10.7268641084532	-158.731712784413	
3500000000	-10.6143781431095	37.8183935429719	-2.430661386385	41.6662063510089	-2.44024251645475	41.7527653485704	-10.6328525284794	-159.878775012587	
3510000000	-10.4642456517982	37.4780024607595	-2.43112227357118	40.9878739929675	-2.447649408749	40.9745061256167	-10.4986815960068	-160.642950062142	
3520000000	-10.3774239436669	37.1357298381313	-2.44999447418589	39.9991547600758	-2.46676034067728	40.0470173007179	-10.326043985198	-161.464456445239	
3530000000	-10.2513977531224	36.7886763525773	-2.47178600367884	39.2778053565141	-2.47823672423437	39.260873160486	-10.2232941281424	-162.376054309602	
3540000000	-10.2048324305703	36.4553119814981	-2.4849924054578	38.3622716853738	-2.50995893553288	38.4968480006243	-10.1049790981935	-163.19963817056	
3550000000	-10.0103078361813	36.4088074667015	-2.50219065248288	37.6921029333984	-2.51069510799395	37.4905551320445	-10.0121500875806	-163.645511405747	
3560000000	-9.93777429018239	36.3578236959028	-2.51219907602541	36.6563213991232	-2.5096404643424	36.8191727905381	-9.92980435856302	-164.47026876672	
3570000000	-9.91251047015124	35.7391112315828	-2.51497671203724	35.8426678743102	-2.53820725650907	35.940630765117	-9.83616735300639	-164.876699097003	
3580000000	-9.80189074164744	35.2973430895564	-2.54434798644652	35.2095798211329	-2.55128248252766	35.1071092454607	-9.80265113042912	-165.645087820674	
3590000000	-9.75672906059365	35.4223658477483	-2.57007783312545	34.1150008235663	-2.54015700487865	34.1803808111481	-9.7325955276601	-165.993179958512	
3600000000	-9.72860991325031	35.1529661988258	-2.54727925166568	33.1932300915927	-2.58926947641219	33.2327683391316	-9.7230951734243	-167.327360007349	
3610000000	-9.61226450156316	34.9801994947321	-2.5734943402382	32.4783993498098	-2.58570007031616	32.560759025808	-9.6564012514175	-168.531990625476	
3620000000	-9.52823709913931	34.5575944281076	-2.5964537662185	31.716839791842	-2.60285873836883	31.9312732874723	-9.6099748987076	-169.726596167791	
3630000000	-9.49151098292221	34.0635795747073	-2.61111756143677	30.7779847412084	-2.60183952763236	30.9318176474991	-9.43350158907299	-170.077050750505	
3640000000	-9.43414790654823	33.7631645755436	-2.61438317554899	29.9957645159781	-2.63237087140032	30.1802847886837	-9.39474772478123	-171.135437375269	
3650000000	-9.35686567876154	33.6895474605159	-2.62455065955429	29.1812996437949	-2.62530718628658	29.3022709165723	-9.29019777031129	-171.417824605323	
3660000000	-9.2915319738795	33.2722493661101	-2.63025065689412	28.3538396928969	-2.63044141850727	28.3314276888262	-9.21416744514888	-172.513693102108	
3670000000	-9.26403328802403	32.9995365603001	-2.62239690581124	27.6098445713103	-2.65242630384537	27.6741623441306	-9.18900884388322	-173.261956367742	
3680000000	-9.2375473193898	32.805555126668	-2.66005832344984	26.8578147329459	-2.65577246250227	26.8357916705128	-9.13060275848919	-173.840429100905	
3690000000	-9.17442770530812	32.6616106311576	-2.6586035773981	25.9034652289158	-2.6478141709163	25.9661543985797	-9.15339462628804	-174.053133245148	
3700000000	-9.17588610930412	32.4079598145049	-2.65752072280827	25.1038382786461	-2.66708992417798	25.1424991402914	-9.11937890004394	-175.418410250456	
3710000000	-9.12146888382176	32.0280775595643	-2.67874516549267	24.3137035355286	-2.66768246402655	24.350050164308	-9.08549171365024	-176.270772735054	
3720000000	-9.09522490166905	31.9747198137767	-2.67166045126154	23.4996855226774	-2.68965216129019	23.5629549476947	-9.10290192640387	-177.267813556825	
3730000000	-9.06756477031646	31.3080151290223	-2.6793477712986	22.8109865776495	-2.71232776108546	22.7938254935539	-9.09274136162997	-178.303570332723	
3740000000	-9.02445398941221	31.2777681051638	-2.70436504641942	21.8242307186434	-2.69067965867214	21.9095545610531	-9.07085707346834	-178.933682141859	
3750000000	-9.03050529148332	30.6882069763078	-2.69388950532994	21.0764985282437	-2.68969248951448	20.95712604363	-9.0142371726066	-179.566429143955	
3760000000	-8.95577582441795	30.1746759859227	-2.70414982249444	20.3855097898832	-2.72782126600022	20.3264075463141	-8.93989332708919	179.336013723896	
3770000000	-9.0148668658624	30.1247099964638	-2.69709637313355	19.4922369570632	-2.70139948542682	19.4700684571078	-8.87737986547284	178.739819085084	
3780000000	-8.96330200784987	29.7310102184224	-2.71000410685815	18.8448319544561	-2.70505123711881	18.7442200491869	-8.84942092571135	178.102495877792	
