!Keysight Technologies N9950B: A.12.38
!Date: Saturday, 22 April 2023 16:26:47
!Timezone: (UTC-06:00) Central Time (US & Canada)
!Model: N9950B
!Serial: MY61131330
!GPS Latitude: 
!GPS Longitude: 
!GPS TimeStamp: 0001-01-01 00:00:00Z
!GPS Seconds Since Last Read: 0
!CHECKSUM:1381819790
!Correction: S11(ON U)S21(ON U)S12(ON U)S22(ON U)
!S2P File: Measurements:S11,S21,S12,S22:
# Hz S DB R 50
1000000000	-51.3796624030758	22.9704817374795	-0.0191154649223124	-60.2635513767226	-0.013234032972264	-60.3452684046772	-51.7105406663293	-0.639267268434268	
1005000000	-50.4636794333829	-21.801054391554	-0.00956689092844351	-60.5960777711038	-0.0280870718435625	-60.5508406081549	-54.1395814024313	-40.3590930092181	
1010000000	-49.537078150193	6.57899393938025	-0.0228365420468391	-60.8598325927535	-0.0231989914455143	-60.8170685310368	-58.4337848010406	23.7616486954768	
1015000000	-51.0244559616186	-41.7871790755342	-0.0306967014436325	-61.110932922327	-0.0220281890435816	-61.2705870868322	-49.0538798931163	-19.7861828471255	
1020000000	-50.3669572557845	-18.781289753134	-0.0254457079964736	-61.3444614732562	-0.0355763884797515	-61.4925235961454	-55.3336798385835	7.88456942378583	
1025000000	-48.4867648930439	-18.6556470420734	-0.0176006794068274	-61.7652851472585	-0.0170433995878994	-61.6952366150279	-66.3110839933093	-52.2659910393241	
1030000000	-55.9455837562193	30.393100101183	-0.0196147145415142	-62.0189895259127	-0.03226491406198	-62.0848779907079	-47.4011960662161	-17.8471490592011	
1035000000	-50.2827187318357	-17.0920525356109	-0.0369329167630017	-62.233944510505	-0.0361615457690871	-62.4294355735852	-54.1440530126181	-21.5501847483341	
1040000000	-47.2293372012888	-20.4740442530175	-0.0145101347377736	-62.6007343155883	-0.0294720531645997	-62.6948098119333	-50.6536238926878	-44.6471883307077	
1045000000	-49.8567931692668	-25.8480649715611	-0.0321918684543156	-62.9178201815629	-0.0308513585860805	-62.8992529956895	-48.542654305706	-8.35413187919264	
1050000000	-53.9189486898137	-30.8952059938877	-0.0168242138053211	-63.214035928299	-0.0255630927702471	-63.2497324526861	-52.9924922211406	-0.89268921477395	
1055000000	-53.7533736196468	-24.8267760823952	-0.00889369098122959	-63.528674168721	-0.0403335834963987	-63.5469935028242	-51.9346364904616	-31.185861544553	
1060000000	-51.9737641958312	-27.6915102287251	-0.0364224673069701	-63.6943060770839	-0.0237610652753262	-63.9218681660956	-49.9164364026819	11.8718393350947	
1065000000	-48.1216799233871	2.20357464548216	-0.0219206970435428	-64.0579109125918	-0.0322556709321181	-64.1805403850642	-53.4831084832777	-69.776252898724	
1070000000	-48.6711397063992	-29.1566479450785	-0.00910860307546974	-64.4453784425923	-0.0169655275330733	-64.4002408536129	-52.3498030348449	-33.0359160820777	
1075000000	-55.3448829992328	-3.74905444092669	-0.0169448601904457	-64.7326461014468	-0.0251699373788175	-64.7796466505072	-48.2990423832889	-28.292567861224	
1080000000	-51.115334315838	-17.8441059560468	-0.0216197071503463	-65.1201893605233	-0.0302364409859859	-65.1213086111153	-56.3764483951259	-8.83418935802191	
1085000000	-50.816079771877	-15.7331344313954	-0.041413534622274	-65.3962568921064	-0.0294431756003532	-65.4047247770689	-54.7423067698269	-42.2979643542308	
1090000000	-49.6728919331598	-23.8666840834559	-0.041147908129981	-65.6939295463877	-0.0372363163661798	-65.6094915589006	-50.2305103072237	-12.2869091008105	
1095000000	-47.3983468016293	-7.11717707143952	-0.0275631900562093	-65.9479156388673	-0.0212415663314411	-65.9196053155945	-52.4259222925245	19.685977349555	
1100000000	-49.4705360473081	-32.3376873214152	-0.014461381097852	-66.2145994961322	-0.0411162104031634	-66.3355292054671	-55.9086789844038	-15.0913507529191	
1105000000	-45.4583893051512	-7.18368416797036	-0.00862263735746493	-66.570290598185	-0.0215230608235304	-66.4522310312899	-47.6930454579701	-18.0613526725156	
1110000000	-52.8281825041821	-48.9037605884362	-0.0164877295210474	-66.8412631137973	-0.0349562478358508	-66.78548196077	-47.0120059543801	-20.0077646978808	
1115000000	-53.6755289971436	-18.0590780815995	-0.019929195025413	-67.1139543430819	-0.0205543897811604	-67.1301893110399	-51.8489986536849	-45.9478480474013	
1120000000	-47.2737413072852	-0.354204787018804	-0.0141856233710057	-67.4781741751814	-0.0281211856217564	-67.493401556349	-49.8863609498738	-30.4422840169437	
1125000000	-48.8029120799761	-18.3057922272261	-0.027348191734071	-67.6418855176901	-0.0233586134161802	-67.76649247001	-50.7943525718715	-23.5001661115097	
1130000000	-53.9288162799185	32.8650804752422	-0.00849921402938006	-68.0699497400908	-0.0376157583849456	-68.0034678818215	-52.0112620385344	-32.0737321889326	
1135000000	-52.9997871020244	-21.4888139420617	-0.0305389557308972	-68.2763103438322	-0.0250331113040123	-68.4264942385812	-54.1118784555584	1.98198837699584	
1140000000	-51.4040830385214	-11.7950950095539	-0.0138744283849773	-68.6070947276026	-0.0298944368679444	-68.6796743164027	-50.9193306208122	-2.61221960258128	
1145000000	-52.247290038676	-16.3180440148589	-0.0210740708116532	-68.9548106360774	-0.0274521845308559	-68.8790952451438	-54.2788114898598	-52.0564938300552	
1150000000	-47.2443480157715	-34.7117633433928	-0.0316283356944337	-69.2129577700269	-0.0231457703732772	-69.258795798495	-50.6680207616405	-4.65513374718418	
1155000000	-51.6127779690347	-60.9501829178365	-0.025621183498548	-69.5191285145402	-0.0187853568201947	-69.5004241954956	-50.8437821672052	-35.5355071520217	
1160000000	-50.350984910019	-9.22900762276687	-0.0251333711086652	-69.8418794870425	-0.0222508484945342	-69.9151586470705	-51.786841811643	14.6106272875758	
1165000000	-50.7704387812045	-33.9112580792274	-0.00910864851457564	-70.1842421019018	-0.0258772853863182	-70.2525996103892	-51.2412291779017	-28.1212036882317	
1170000000	-51.5246797016851	-33.2783001385552	-0.035599038417937	-70.3794143169355	-0.0203346667533186	-70.4665643811387	-52.4270977300969	12.2802326413139	
1175000000	-50.5346200989545	-17.3983118817496	-0.0231863347590282	-70.7856887664935	-0.0204202807763087	-70.8113819943981	-49.2752799601051	-54.8147364821438	
1180000000	-47.6549822501899	-18.1538725650685	-0.0227673790764582	-71.1376616644187	-0.0266149098112565	-71.1011421988727	-48.6015666000272	-2.73657491338958	
1185000000	-49.8126529618708	-20.3122373733247	-0.0146847983642718	-71.372233618448	-0.0249102938263533	-71.38266067739	-49.1443358609949	-46.0598538269068	
1190000000	-58.0680376597839	-26.7679556229987	-0.0315469852695861	-71.7696142907509	-0.0163831437853835	-71.689053717165	-53.3382664581628	-91.409326866107	
1195000000	-50.0984066482572	-29.3143703551697	-0.0210727609059159	-71.9346266666413	-0.0203646761419927	-71.985700642051	-56.3714299554783	-35.4465365221721	
1200000000	-47.943920391385	-25.8326049092962	-0.025800724846698	-72.4172288964889	-0.0317873696146811	-72.1905082273024	-50.6585434619623	-15.1234911034058	
1205000000	-52.9743488961549	-44.7712500227225	-0.0274436836669202	-72.6533543578354	-0.025916996511057	-72.5677223531304	-57.0206177202404	-17.0280025107363	
1210000000	-58.8097224777677	-54.8134155426375	-0.0258193365335669	-72.7981836838172	-0.0215760031360615	-72.8719956431246	-55.2418028739115	-47.7556394217088	
1215000000	-50.4640570989625	-33.5642092759629	-0.0367461294065056	-73.1379150066143	-0.0196126439203859	-73.1670638685089	-47.9811220727497	-35.6082591413588	
1220000000	-49.1847460046144	-43.3832991541277	-0.0288438871246558	-73.506547397348	-0.0183155104111148	-73.3993324236353	-52.174596038236	3.72626389985752	
1225000000	-49.734563667342	-24.4990706572151	-0.0172647951290304	-73.7562428440309	-0.0207752099417316	-73.7617449018918	-51.4743264299308	-7.31192186993461	
1230000000	-51.2187422091567	-27.7069720405016	-0.0194447594050183	-74.0759187246969	-0.0232273158138913	-74.0367831047167	-52.0959715533735	-55.1751403378928	
1235000000	-49.4933360767319	-27.4559325179373	-0.0229605165543825	-74.4836186156611	-0.0352392595938939	-74.312575855108	-63.1979244912337	28.5529133970304	
1240000000	-49.5923126559311	-36.1731702648432	-0.0186814136169294	-74.6711547184938	-0.0385173580431747	-74.6301083725756	-51.1086006333808	-3.22980922349138	
1245000000	-49.6697760726163	-11.4846888714746	-0.0408181324889643	-75.0204616123664	-0.0417364939819238	-74.9260162191379	-51.0681770521174	-39.5075977295751	
1250000000	-55.2966799064839	-40.8529147611546	-0.0197420576909842	-75.2273529303238	-0.0290882686869113	-75.327347431705	-50.8409310590464	-37.6695267363826	
1255000000	-49.2761661953716	-42.1678748733712	-0.0194896237521714	-75.6405337390057	-0.0243718146890707	-75.565936890362	-50.6194982020263	-39.3870470398642	
1260000000	-51.9610380262496	-68.5081235609699	-0.0233654509765292	-75.8255722565064	-0.0275227879737555	-75.9381232828432	-52.5723840041014	-17.9947745330337	
1265000000	-47.8153014094573	-17.3942595241319	-0.0270888480138968	-76.1438058977916	-0.0374165491251308	-76.1810694324439	-52.8481671537059	-30.4360227133779	
1270000000	-49.7091145659606	-16.4073658018292	-0.0223246196942141	-76.4470171436211	-0.0211452208291694	-76.3715984380336	-52.5525471960898	-34.809583886757	
1275000000	-51.5463458872203	-23.9533072742468	-0.026551580190285	-76.7890161633628	-0.0357586677082762	-76.784001501868	-50.2434697876069	-18.5182309568738	
1280000000	-49.4341928902456	-67.4541725632406	-0.0297326091495307	-77.1363988349998	-0.0399417535138222	-77.0366143151314	-52.8207072566963	26.2882676300267	
1285000000	-48.2899969698748	-16.1928995709105	-0.0257733320099371	-77.3343314458874	-0.0368529579798276	-77.3691514376561	-47.5812685596092	-47.7143223498823	
1290000000	-50.231829729647	-42.6758317314116	-0.0224704109509073	-77.5811314729602	-0.0229460278002143	-77.7566405109932	-53.3749861323841	-0.228015760808112	
1295000000	-47.5886462830133	-46.1405500813441	-0.0356321466248122	-78.0210861807518	-0.0323826681705755	-77.9775703152095	-50.3894040913151	-35.9366936727013	
1300000000	-49.7343100104647	-44.9333015795061	-0.0320852190846532	-78.2118024519923	-0.0271586764905621	-78.3134459597146	-54.8702260297116	-19.8995791273716	
1305000000	-49.0341457454196	-58.3750307825012	-0.0191467496820288	-78.5517835795909	-0.0340185250383483	-78.6352670674084	-52.4753777125918	-53.763254783583	
1310000000	-49.8815708774831	-19.0877418552404	-0.0185391191647683	-78.8643175238181	-0.0352946012766003	-78.9286202303766	-51.2683744554234	-28.3106753848644	
1315000000	-49.9336085465639	-48.1756590541775	-0.0355310298760576	-79.2522217186849	-0.0323365467775897	-79.1327033869398	-55.854860897898	-67.9959571809577	
1320000000	-47.827511335845	-33.9646629683108	-0.0310926055692763	-79.5144615951275	-0.0230934300464295	-79.4561612126599	-52.0570310545201	-58.2910183576026	
1325000000	-58.0995981167836	-75.8597650592404	-0.0165150606352892	-79.8419894562789	-0.0238012766460768	-79.7178371054047	-55.9478742865894	-21.4364384286025	
1330000000	-55.6058087206806	-2.06190238501863	-0.0139792894749998	-80.115249691918	-0.0248421758604349	-80.0854114236917	-50.2414888223271	-15.1208243521611	
1335000000	-50.2532381551388	-18.659991718193	-0.0258759268674206	-80.4320160571948	-0.0161331378180538	-80.3047094374639	-52.8980517422899	-61.1709085235112	
1340000000	-51.2670398668974	-0.151335079923472	-0.0258049309195364	-80.6247507256383	-0.0361435992693973	-80.6604877418664	-48.6207980768033	-31.708445905203	
1345000000	-50.6859200343921	-13.6460379589993	-0.0268071531100206	-81.0461993454062	-0.0329316243405586	-80.8854087752139	-50.7613792678153	-46.3121208569198	
1350000000	-49.2457208439896	-43.7337364366137	-0.0289107715869706	-81.3024262753183	-0.0316777101902481	-81.2345368512553	-57.524964185627	-55.8643032115451	
1355000000	-50.7000383462674	-25.5920169794004	-0.0200161000401372	-81.5254675462274	-0.0448547340642959	-81.645587724191	-67.3420216323446	-138.783327847412	
1360000000	-53.2975896950843	-61.4927678897825	-0.0407822513573921	-81.9167092102818	-0.0374006798583928	-81.8204363205477	-55.8415330885347	-45.1980188414857	
1365000000	-49.8655496965103	-18.3630499573785	-0.00997658620508649	-82.2737340456743	-0.0344469783164593	-82.2035095066017	-51.3763507902217	15.4706145096756	
1370000000	-54.0628583247723	-38.9359163035525	-0.0190552172118924	-82.4927778230834	-0.0251924314325276	-82.5161148102102	-49.8509450608312	-56.0430216365825	
1375000000	-47.3727090961373	-27.7850084978259	-0.0350086211377393	-82.8938732586952	-0.0390148989553945	-82.7738932405976	-47.7121491513725	-10.6854117199097	
1380000000	-53.1606125365348	-61.12416312173	-0.0213922100397319	-83.0913798385707	-0.016622991613336	-83.056995142564	-53.8277195104539	-50.0166916767498	
1385000000	-49.1882379506267	-17.6090781275252	-0.018580989889664	-83.4650607585131	-0.0341275389463791	-83.35835620376	-52.8425825695242	-41.9459700345244	
1390000000	-49.2918873664005	-46.6908114191832	-0.0160514508571432	-83.5467811932495	-0.0290239810258607	-83.6859945794248	-57.2053625388106	13.2834894063034	
1395000000	-50.9795379623581	-31.231559880837	-0.0133745220308643	-84.0367365813384	-0.0386166823006114	-84.0142943822819	-55.4130919475249	-62.3268255662985	
1400000000	-48.4060106719406	-45.7197116259785	-0.0212765020317457	-84.2423948519427	-0.0337423858707768	-84.2328135197675	-49.4185304593687	-25.1642410193479	
1405000000	-55.0766650301839	-39.7516909771824	-0.0167200516987639	-84.5103010821135	-0.0326849681511849	-84.5510365098141	-51.5349453082678	-33.2591530887584	
1410000000	-51.8879300191558	-33.354621591093	-0.0215655351673126	-84.9633157590951	-0.0231902646769065	-84.8508297043747	-52.7273770021244	-67.2537853627338	
1415000000	-54.8149706468289	-79.2861160561829	-0.0354084371188826	-85.2229734945996	-0.033579760219059	-85.1569411157131	-60.6532539867868	-112.692174357144	
1420000000	-49.7170611425788	-56.2610437497447	-0.0351460147033418	-85.4874880887095	-0.0238383571939551	-85.5173214980293	-51.8521073162489	-40.8768021754342	
1425000000	-60.8115282640581	-29.620382288648	-0.0310524723949781	-85.786004507995	-0.0288606517252585	-85.780098219845	-56.5513815491548	-31.8152361944197	
1430000000	-52.2938324198001	-39.3280999665098	-0.022224524813483	-85.960655748855	-0.0226680620623282	-86.1439797320769	-53.0053370092894	-50.1321014567103	
1435000000	-57.8510686368052	-36.1240957073061	-0.0263454018502809	-86.361903540648	-0.0190778639048912	-86.4036297035203	-51.1387457207931	-19.5434325528463	
1440000000	-52.6866259538117	-49.0551544504903	-0.0194965501096223	-86.7190884552198	-0.0322507506924568	-86.7196931558854	-49.9868752948705	-31.4555890546236	
1445000000	-54.2203491887931	-4.12730033180474	-0.0446634214523766	-87.0030787427392	-0.0231032454474257	-87.0561595276559	-51.534858083252	-24.9200030174368	
1450000000	-57.6732212471378	-21.309295688485	-0.0178939135511441	-87.2660216189786	-0.0276322709739357	-87.3165735691692	-50.3177221653703	-69.2867415594277	
1455000000	-49.4924605394451	-68.7420163512713	-0.0242249250810535	-87.6689294514796	-0.0511458315431842	-87.5903529677655	-48.6323272245377	-48.6691191595543	
1460000000	-51.9839644444993	-30.9132538050249	-0.020863714459072	-87.886148265846	-0.0359697820706199	-87.7188455887134	-52.5558245326963	-7.87977624482394	
1465000000	-50.1861764262665	-36.5283259559603	-0.0306058940821069	-88.2165046524431	-0.027702450290207	-88.3046591577455	-54.4914686423923	-55.8402912116933	
1470000000	-50.6360276137325	-42.4074239658701	-0.0293588626612289	-88.4410369794864	-0.0373730774794869	-88.520046458755	-53.8440801264473	-34.2730439828621	
1475000000	-54.61461070381	-39.868043483865	-0.0232783425503937	-88.7560687941684	-0.0358095745851888	-88.7944333030911	-63.136174653356	26.028569226017	
1480000000	-52.6715317895095	-33.6036795284837	-0.0194551944852891	-89.1514902250079	-0.033401411059359	-88.9892744521287	-60.8604211539025	-71.8912763278233	
1485000000	-48.7281747085305	-23.4149040269287	-0.0345474758348843	-89.3717671616078	-0.0189859559062413	-89.4103667532169	-53.3884065964594	-69.5647258973323	
1490000000	-46.9306679430989	-33.3375918722309	-0.0365086593989984	-89.6919060162178	-0.0303185330622998	-89.7859029635708	-48.715994992104	-37.9386210738269	
1495000000	-50.0329171347246	-67.0405737689693	-0.0207420086099285	-89.9790750777485	-0.033592153191125	-89.9744823575243	-66.3081677649728	-67.9117431006756	
1500000000	-49.1547009271231	-48.9420605264741	-0.0225435914081011	-90.3868632793483	-0.0267217200585837	-90.3208332114019	-52.5397620429825	41.8820892084189	
1505000000	-49.6517090266887	-36.6964278655452	-0.0379646653836559	-90.6483311128274	-0.0297846183603665	-90.5874831029823	-53.4790539915315	-21.1776026929319	
1510000000	-50.4254600870668	-54.3403569637365	-0.034613529668757	-90.9676771287016	-0.0375058462357175	-90.9195992012686	-51.4744442701802	-49.1599222716383	
1515000000	-52.8431244873591	-91.482615805969	-0.023777535980268	-91.1985814765383	-0.0245643939873601	-91.2619992251723	-56.292514256392	-74.1082566814219	
1520000000	-55.2521378563611	-18.3746738999988	-0.0379377095841149	-91.5349752187538	-0.0493771646708444	-91.3871995010508	-52.4653801119905	-45.2479961877824	
1525000000	-51.8371518622089	-42.6406975305885	-0.0437142432680276	-91.8028641110778	-0.0375549776677827	-91.8423728643039	-60.2592146655561	-58.8525631616028	
1530000000	-50.9769179831464	-64.9257313315915	-0.0394808381527988	-92.1264978477071	-0.0392916672402714	-92.1545975749134	-54.1779447711476	-77.5968540228209	
1535000000	-50.2983622223804	-64.5750702564236	-0.0273293680410414	-92.4561282303208	-0.034275441416485	-92.3996535415306	-51.5217461756974	-60.1094078339449	
1540000000	-56.7043832392204	-47.3919769788614	-0.0368012139174412	-92.7001248241102	-0.0290965311675032	-92.6468078955699	-56.8813779212324	-66.4413017721819	
1545000000	-51.0989330337051	-41.84308333801	-0.019133301305711	-93.0813755810315	-0.0382278295966303	-92.903621358145	-49.1254466267228	-65.8958478725882	
1550000000	-51.4385732673688	-45.6727653282013	-0.00630466141272798	-93.2575773817731	-0.0330753348190058	-93.3103926481897	-50.2777799153159	-53.7556762364713	
1555000000	-50.4987702653467	-35.3724310753197	-0.0149697412716068	-93.660282800341	-0.0317816586215533	-93.60436942596	-50.2641091173853	-46.414592262089	
1560000000	-56.3402040791917	-0.703454746759573	-0.0194667790245938	-93.9461919336879	-0.0366406359493009	-93.9576391599597	-58.8214122899092	-42.4046725579238	
1565000000	-47.8149046235475	-54.1717412038689	-0.0313455702373044	-94.1803189586981	-0.0301610102505045	-94.204779685581	-53.8428541099289	-55.8164470607985	
1570000000	-50.1255314211127	-82.9277971522369	-0.0352445989714432	-94.4740289376447	-0.0334172181588371	-94.4499561789769	-50.2957113527892	-50.6962693655967	
1575000000	-53.9840114443341	-28.135329547814	-0.0368210658106825	-94.7203507468212	-0.0291948511560468	-94.8340450798278	-50.6366086449075	-61.8037248579626	
1580000000	-51.3498166493757	-24.3813172135895	-0.0208985869786931	-95.0758909584125	-0.0440225567209989	-95.1310932930441	-65.3200397214927	-121.43397733817	
1585000000	-53.3745900871725	-14.3038556468569	-0.0248778335611862	-95.3213822137397	-0.0389379850158276	-95.4597206110479	-52.7062611019255	-44.3070588785174	
1590000000	-53.2509528382524	-65.7904732883534	-0.0390293436410288	-95.6877671426786	-0.0363789521199583	-95.7519204657588	-54.7246097927451	-87.0277355358017	
1595000000	-49.1876910622412	-52.6665940645007	-0.0301488023585283	-95.9719611553256	-0.0425194153116045	-96.0593121526981	-49.5739425005843	-13.3729106452314	
1600000000	-52.9964470036052	-38.0356169891308	-0.0279183621949575	-96.3514513757339	-0.032683538528986	-96.3204899802107	-52.2645265180639	-35.3000957281523	
1605000000	-48.6416145411024	-61.9539323833272	-0.0223868552931626	-96.6139907616925	-0.0297136754294311	-96.5927580478098	-60.1570529013698	-15.4436527647835	
1610000000	-47.2014173516931	-69.2796742943725	-0.0191071537301744	-96.7975587917144	-0.0194225272468911	-96.933377966441	-55.1860692351079	-68.3799018265489	
