!Keysight Technologies N9950B: A.12.38
!Date: Thursday, 18 May 2023 16:39:33
!Timezone: (UTC-06:00) Central Time (US & Canada)
!Model: N9950B
!Serial: MY61131330
!GPS Latitude: 
!GPS Longitude: 
!GPS TimeStamp: 0001-01-01 00:00:00Z
!GPS Seconds Since Last Read: 0
!CHECKSUM:1642724472
!Correction: S11(ON U)S21(ON U)S12(ON U)S22(ON U)
!S2P File: Measurements:S11,S21,S12,S22:
# Hz S DB R 50
800000000	-20.6219373391359	-101.635648674707	-0.0473251885251719	-35.5517234908106	-0.0582715798603931	-35.4987165472364	-20.5369134791863	-148.275515972326	
803200000	-20.3912637519696	-101.92924929108	-0.0414959410221759	-35.5823761955923	-0.0760835584463372	-35.7121424624881	-20.5028998505162	-149.759513191557	
806400000	-20.3931618288446	-102.936902097347	-0.0450019939430686	-35.7017041905227	-0.0529354389426354	-35.7856451683925	-20.5506683261443	-149.10201359383	
809600000	-20.3824567501993	-100.03303706958	-0.0200589051972141	-35.919473015585	-0.0605454469683348	-35.9712095056326	-20.3273498618013	-147.900242450001	
812800000	-20.3129443333622	-101.742884454284	-0.0491960929021498	-36.1140664978149	-0.0745330379047782	-36.1036450588072	-20.3900782698785	-149.041176680804	
816000000	-20.2281343640509	-103.147124693634	-0.0560694313388675	-36.3233753776121	-0.0697805808562346	-36.2645385969365	-20.379487214651	-149.500360374868	
819200000	-20.3339276275903	-101.860026297733	-0.055904643310729	-36.3582872948983	-0.0642304161839807	-36.3505616765617	-20.3363834819759	-150.208959222925	
822400000	-20.37575753587	-101.956235429166	-0.053447432298208	-36.5400917754896	-0.0687523950754797	-36.4520121289008	-20.5386399316086	-149.501722933826	
825600000	-20.1799139846567	-100.47990709415	-0.0608079496796006	-36.6234123809546	-0.0471888371280129	-36.668817592376	-20.4849549819188	-149.176578514051	
828800000	-20.3193118514104	-101.45621221378	-0.0498370209279767	-36.7749890578501	-0.0615894538820344	-36.7423312332212	-20.3351074361606	-150.92975316136	
832000000	-20.2180589282035	-101.082073050434	-0.061925709347651	-36.9475529730498	-0.0564350997617757	-37.0545223190201	-20.3230203684925	-150.660791772384	
835200000	-20.2801350748851	-102.821808231955	-0.0520617385315588	-37.1665645308817	-0.0768458964950443	-37.0905518063083	-20.2605440474831	-150.899608165818	
838400000	-20.2176755454746	-102.485128517311	-0.0454599491575412	-37.233525685881	-0.0668392218820736	-37.2128688056617	-20.3693150768795	-152.005651300364	
841600000	-20.343308203747	-102.633058544451	-0.0521234026665474	-37.3139272762141	-0.0718822013123769	-37.3298491239825	-20.3691833853956	-152.84829859401	
844800000	-20.1295332913179	-101.631293362353	-0.0587051300527833	-37.5536536795191	-0.0580388216592868	-37.4561278712266	-20.2218477677766	-152.115688657319	
848000000	-20.3766803888632	-102.192721732243	-0.0452541212938802	-37.640921466998	-0.0703150644311541	-37.6695347476399	-20.1793666713119	-152.899229951084	
851200000	-20.2431420860866	-102.400774979166	-0.0586183508732155	-37.832820653435	-0.0733371101179809	-37.7439892340014	-20.3353339536394	-153.059804598446	
854400000	-20.1996240743853	-102.465985132917	-0.0380702460783411	-37.8560482815143	-0.0650262412068798	-37.8445516937831	-20.2282771669632	-153.164062475113	
857600000	-20.1563010702852	-102.110845158006	-0.0512941950235283	-38.0889902472012	-0.0623837320759044	-38.0554037650862	-20.2975319856078	-153.176564843828	
860800000	-20.2478694906987	-103.945841060693	-0.054377096900363	-38.2101565202441	-0.0627107413815166	-38.1471183440208	-20.20195963144	-153.993037814588	
864000000	-20.1616990856329	-103.367551926594	-0.0491691224165528	-38.2707017443735	-0.0554390764515965	-38.309326931178	-20.2228484547011	-152.954777937957	
867200000	-20.0876987334289	-102.457636833011	-0.0531569094577841	-38.5028923886917	-0.075885123475574	-38.6199097407797	-20.170932489683	-153.911487339875	
870400000	-20.1813791942637	-102.714663993087	-0.0419022904169782	-38.6286907228048	-0.0718217399858925	-38.6619727258279	-20.2453704572633	-154.545501522837	
873600000	-20.144916382935	-103.020616508178	-0.0474846025709001	-38.727156846284	-0.0696127533686562	-38.7671262775803	-20.1774493023597	-153.363251782626	
876800000	-20.0723909076385	-104.658158164882	-0.0744119434411852	-38.9019462888002	-0.0607268136596536	-38.8314507816212	-20.1902771621503	-154.075663638171	
880000000	-20.1545033505347	-103.6735354924	-0.0518821379879326	-38.9901603646023	-0.0739357736390389	-39.050023016462	-20.2900353362335	-153.221613423437	
883200000	-20.0085739703079	-103.609056066028	-0.0587239418914488	-39.2391265691248	-0.0759346842704385	-39.0923129816819	-20.3752867240206	-153.27364343737	
886400000	-20.0009211570815	-104.705535855811	-0.0632501891824267	-39.3848735574567	-0.0586581576787555	-39.3224662214614	-20.0983477156415	-152.896192898708	
889600000	-19.8168660731878	-102.827170102851	-0.0346215238755181	-39.43754949985	-0.074279957481567	-39.4533605590544	-20.1904077389297	-154.339333051642	
892800000	-20.1761820494455	-104.013149879109	-0.0542189388710523	-39.6112193190788	-0.0587606988557345	-39.6350929749754	-20.050665157152	-154.464856773556	
896000000	-19.8987240171322	-104.129926857324	-0.0530427401388098	-39.7846611222053	-0.0748461450604901	-39.8392498049945	-20.053797463241	-153.26918164152	
899200000	-20.0269425332447	-105.581887007686	-0.0595224787302794	-39.8070931358674	-0.0669506579385101	-39.9044221915289	-20.1100783074985	-154.699926736709	
902400000	-19.9565599364327	-105.283592757321	-0.0599573056246711	-40.158042052975	-0.0581833599195152	-40.0715889600126	-19.7514228419621	-154.462053557412	
905600000	-19.8742470171416	-104.201621671486	-0.0531317856449389	-40.1811951371195	-0.0700585907267487	-40.1693537756482	-19.7920699944986	-154.930156558209	
908800000	-19.9891767609591	-104.141585336178	-0.0541781806858836	-40.374989410576	-0.0604174858418599	-40.2556919999099	-19.939158270872	-154.491674034664	
912000000	-19.8062475543622	-104.485470099973	-0.0465155252603514	-40.4699525677584	-0.0625567829361139	-40.4055116597355	-19.7626160155738	-153.602498039517	
915200000	-19.792837418246	-105.217156929953	-0.0612822452234407	-40.5984773336044	-0.0754204194490236	-40.5519478416477	-19.9600962292539	-154.169723984591	
918400000	-19.6822126195162	-105.081961806428	-0.0519419329069943	-40.7363204536557	-0.0778196926910914	-40.6648644960527	-19.7408533637756	-155.360549290132	
921600000	-19.82736066221	-105.403744519437	-0.0601150167631974	-40.8523833469035	-0.0783680740793959	-40.9228194537777	-19.76839286818	-155.384196464818	
924800000	-19.650255277379	-105.794344418283	-0.0611398730015609	-41.1696242894706	-0.0814152091601382	-41.0189958980967	-19.6815061892586	-153.587637301802	
928000000	-19.5658803410551	-106.900486544493	-0.0762893749528841	-41.1134299042403	-0.0775214428409474	-41.2485290679596	-19.6436031675698	-155.170749679026	
931200000	-19.6932192919006	-105.898235818674	-0.0643440284770791	-41.3107357609137	-0.0726123233353663	-41.3161238509391	-19.5722213738769	-155.547288862848	
934400000	-19.5765644266451	-106.021442209159	-0.0613917255266994	-41.4581320262871	-0.0767142642287388	-41.4994119344915	-19.4959385719015	-156.268014586639	
937600000	-19.2687406229477	-107.20122163562	-0.0664176245067734	-41.5542093846073	-0.0766602192169909	-41.6167277097113	-19.2975857116691	-156.130084610437	
940800000	-19.4403476472007	-106.627013789672	-0.0443666953681807	-41.7741379195497	-0.0595701927515561	-41.7798668967087	-19.4908348409849	-156.667179203595	
944000000	-19.3994763923509	-106.534433004303	-0.0539926265926972	-41.852629625014	-0.0860133135296932	-41.9272796725906	-19.3396043302878	-157.194389945321	
947200000	-19.3826113210008	-106.407351275662	-0.0777697639165611	-41.9419872756903	-0.0799729561876347	-42.0267839553082	-19.3700571823835	-157.808493943272	
950400000	-19.361089167585	-106.21630589879	-0.0545869627264181	-42.1666278070595	-0.0794287839315799	-42.1062379798128	-19.4085902692986	-157.293290010843	
953600000	-19.1988032562735	-106.268599588224	-0.0592665567969726	-42.3505634819793	-0.0859411457352492	-42.2624894792589	-19.105788127854	-156.813550957937	
956800000	-19.1255667594722	-106.665927689517	-0.0863540427941471	-42.5020760666377	-0.0868619153126431	-42.4607104748102	-19.2490837695319	-157.90466202299	
960000000	-18.9659606467135	-106.539864239314	-0.0597840083514437	-42.6092932819036	-0.0799028786481497	-42.5199363442037	-19.1005826389511	-158.271106288872	
963200000	-19.0937027611499	-106.413856042815	-0.0761465211638271	-42.6708617461539	-0.0839960383335023	-42.6808218876303	-19.161388831257	-157.985470163017	
966400000	-18.9632388995394	-107.033078268356	-0.0674545797255158	-42.8042091888727	-0.0800758749693395	-42.8633821524979	-18.9052091461631	-157.843933912115	
969600000	-18.9883774474936	-107.29767121283	-0.0675435474737603	-43.0558949220458	-0.0829876644391932	-42.952928750905	-18.9183785710423	-159.310064740188	
972800000	-18.9283558359511	-106.577259116836	-0.0586944926842969	-43.1138146720556	-0.0729464573463163	-43.1564942532964	-19.0106588850423	-159.988494313812	
976000000	-18.9482005177742	-105.980685246584	-0.0777720643106495	-43.3222367823671	-0.0939788281704938	-43.338412038141	-18.9999367375062	-160.032100028607	
979200000	-18.8484160868272	-106.173318334654	-0.077872736693206	-43.4865110986195	-0.0675719848578665	-43.4075396592969	-18.8969398586008	-160.046312249647	
982400000	-18.7592565848119	-106.065718031303	-0.0677456569964274	-43.5611899572128	-0.0951832337279103	-43.5784496920089	-18.8390228857835	-160.716328489213	
985600000	-18.7992866410393	-105.863311731086	-0.0652166177066163	-43.7195020058072	-0.0890175905255096	-43.8077822995875	-18.8370334028024	-161.100325683867	
988800000	-18.7380256237306	-106.855527314473	-0.0831603596211859	-43.8078665747816	-0.0866715673760975	-43.8806963457261	-18.7581478947593	-162.095416607005	
992000000	-18.6951046015691	-105.825280855264	-0.0658898183751443	-44.0774746765307	-0.0822125667312567	-44.0347334571649	-18.6734116465843	-161.626112328977	
995200000	-18.5149283286287	-105.800666493967	-0.0754888275332674	-44.1717058684244	-0.088202543102221	-44.1320127413321	-18.6224367638867	-161.909774569826	
998400000	-18.5660037929367	-105.224739154258	-0.0520691376578671	-44.2884267790559	-0.087768291044494	-44.235317287936	-18.6671006579284	-161.610886230204	
1001600000	-18.6974273963381	-105.143955732905	-0.0674748738552557	-44.4446566283417	-0.0795817319783533	-44.3698006691179	-18.6646015157072	-161.748242715543	
1004800000	-18.6364248332365	-105.1481823216	-0.0662803885049668	-44.6112893364288	-0.0871587659783541	-44.6086289360861	-18.5571023521606	-162.927935263345	
1008000000	-18.5180030871297	-105.665234604115	-0.0701844346934472	-44.7339356707122	-0.0897911093369494	-44.55315325425	-18.6199418527874	-163.182151635619	
1011200000	-18.5366726943532	-105.063832723504	-0.0675538495751199	-44.8373986098674	-0.0792436029370826	-44.8229804061563	-18.591139032377	-164.063909482126	
1014400000	-18.5617111194043	-106.080830304956	-0.0638259197112491	-44.996805937415	-0.0815847776118753	-44.9328048473816	-18.5050229321099	-162.972131021379	
1017600000	-18.5064339019237	-104.330464747593	-0.0718411078604504	-45.1328495192359	-0.0729812131761841	-45.1415172162853	-18.6259983369862	-164.327642019621	
1020800000	-18.5116884104401	-105.02683524405	-0.0749072665307177	-45.2515008771272	-0.0939588568981935	-45.2976327559939	-18.632198855598	-164.214821048394	
1024000000	-18.3851558098916	-105.552534509435	-0.0542217277471065	-45.3727291028111	-0.101662397948727	-45.4383132916394	-18.5284943263159	-164.20018824649	
1027200000	-18.4322742405071	-105.845143933492	-0.0685951697039436	-45.480272986265	-0.0895671161499666	-45.5867506005846	-18.6951107015455	-165.324543291382	
1030400000	-18.5432312182936	-105.344937732082	-0.0690407779829563	-45.5296974949536	-0.081471366893467	-45.6474373364246	-18.6886414944228	-165.673132635329	
1033600000	-18.5162591056627	-105.146024990165	-0.0685139197785434	-45.8742275077347	-0.0958116367923628	-45.758256660891	-18.5427992475246	-164.971740770619	
1036800000	-18.5135036470889	-105.503042513168	-0.0725270040993389	-45.959511913229	-0.0929360217611929	-45.9596994487514	-18.6367352010874	-165.784321507988	
1040000000	-18.6252465668419	-105.186214396889	-0.0813101702056484	-46.0752952913647	-0.0871097553407408	-46.1388682197433	-18.5653789045668	-166.659033400325	
1043200000	-18.5242288002383	-104.621634805938	-0.0565270927695008	-46.3143131775293	-0.0824232489241377	-46.2217158868708	-18.6157373323069	-165.161888785519	
1046400000	-18.5904375384195	-105.355641405715	-0.0713397819694703	-46.4447095244885	-0.0872984026231331	-46.3933942859833	-18.473979726941	-166.532457775167	
1049600000	-18.3638071628657	-104.332577068786	-0.0810587631238134	-46.5684464511316	-0.0895010729265708	-46.5829000660088	-18.6176823129793	-166.808451311217	
1052800000	-18.5168370621706	-104.974805910083	-0.0801319739910769	-46.7569595735944	-0.108098757577155	-46.5494416627212	-18.597271876029	-167.429472940285	
1056000000	-18.5500102536539	-104.793118775303	-0.0750893791209465	-46.7980635755792	-0.0885648492144404	-46.6940674584296	-18.5867545661964	-166.916887454279	
1059200000	-18.5900002425665	-105.197101900878	-0.0897370313072702	-46.9148010096047	-0.07433607314506	-46.8940081895691	-18.5249365057954	-166.713319973928	
1062400000	-18.508009365244	-104.761222266746	-0.0671862179015903	-47.1046675068273	-0.0835170220325856	-46.9542646970428	-18.5779004313351	-166.853551745165	
1065600000	-18.4948965931976	-105.496979828115	-0.0707041753945411	-47.1878013251417	-0.0963908222652516	-47.2309705237333	-18.4964140353287	-166.936887852484	
1068800000	-18.44079883804	-105.389846473605	-0.0795026145030595	-47.4035394610384	-0.0750211113698721	-47.3745846004495	-18.4549729428012	-167.415311116766	
1072000000	-18.6050954189595	-106.233627881946	-0.0823068082069091	-47.5061578516997	-0.0925435632082788	-47.557534091127	-18.5491379441346	-169.096311995293	
1075200000	-18.4462361922324	-105.449915891708	-0.0711953027728082	-47.6561624792498	-0.0985603535155233	-47.6035756760344	-18.4221671911623	-167.106623431104	
1078400000	-18.4864698584514	-106.306254567949	-0.0668592125925936	-47.7389273052116	-0.0865400849722305	-47.7738005751104	-18.4884393435225	-168.100937408528	
1081600000	-18.4547309830355	-106.60262599598	-0.0831162202511915	-47.9383480501726	-0.100807812187459	-47.8661635163756	-18.4515732745849	-166.891313449286	
1084800000	-18.6565216281299	-105.890833925224	-0.0749570934959098	-48.0773126538633	-0.0836340418607606	-48.0965971018353	-18.5728390398527	-167.990001320707	
1088000000	-18.4169144888154	-107.191868848659	-0.0696634210426507	-48.1557086397283	-0.0829129919941289	-48.2966776864318	-18.3642049675928	-168.616694831625	
1091200000	-18.3129497472473	-107.728643420324	-0.0871768349199897	-48.3880306969328	-0.0873633506357761	-48.2759400903187	-18.4847983750158	-168.559777473459	
1094400000	-18.4724210717399	-106.756863398473	-0.0840486990883886	-48.5267415854549	-0.0921882666869303	-48.4075007533691	-18.4408635271473	-168.640953369886	
1097600000	-18.3010689273024	-107.558871253073	-0.0774751037192434	-48.4837778629315	-0.108583495087398	-48.5427014789507	-18.5191779207286	-168.769823677823	
1100800000	-18.3550033647824	-108.261923810728	-0.0813878600476658	-48.7866310569606	-0.098151226229954	-48.686248502946	-18.3518419882857	-169.246659745279	
1104000000	-18.3914150735338	-107.778967370607	-0.0850256515610992	-48.9356188122899	-0.0897024922238039	-48.8414266062571	-18.4068928974803	-168.482486786073	
1107200000	-18.4358083177903	-107.976604325794	-0.088041862719125	-48.9508609980518	-0.0772395317975516	-49.0883114241161	-18.3641482431548	-169.347604866916	
1110400000	-18.3258399141258	-108.754861443013	-0.0861900514391729	-49.2665086773145	-0.0968666526717228	-49.1715335301692	-18.2616456639404	-168.850122827927	
1113600000	-18.2256780259039	-108.894838279219	-0.0852314526295146	-49.3958446647389	-0.0970667867026678	-49.35114635573	-18.2343800792398	-169.143507257921	
1116800000	-18.2209374602036	-108.068117429651	-0.0747358744691332	-49.5373091352848	-0.0812958878740707	-49.402947119852	-18.2263413638788	-168.861092355799	
1120000000	-18.0525174559006	-109.651665076809	-0.0672361976978826	-49.5496496030057	-0.0895725765039368	-49.5762708250892	-18.1723401968449	-169.64594442498	
1123200000	-18.1071703719241	-109.365683479857	-0.0885257726087652	-49.7712234180915	-0.102220613219051	-49.7348829277784	-18.1765544093577	-169.252324884631	
1126400000	-17.9644582207125	-108.924671848883	-0.0868476178533793	-49.8969189082752	-0.106700151619512	-49.9485033894301	-18.0347647131638	-170.274924665567	
1129600000	-17.9811986837868	-109.0227018515	-0.0862732043399358	-50.0513269118709	-0.0976578387916248	-49.9598515198299	-18.1397825286347	-169.651686771411	
1132800000	-18.0404262285359	-109.293331713418	-0.0837201956658964	-50.2440344880961	-0.0943966032617141	-50.0896270511899	-18.052812913925	-171.221262195068	
1136000000	-17.9674698050557	-108.975505437067	-0.0878756009922926	-50.161786764904	-0.0902877867160846	-50.2952292234959	-18.0175743117485	-169.998482637994	
1139200000	-17.9294339226709	-109.748126754332	-0.0926173916520842	-50.4244680417005	-0.100268478132201	-50.5101599340348	-17.9361280855135	-170.261895942323	
1142400000	-17.9781979670664	-109.539282953877	-0.0946174507558953	-50.5784169458438	-0.0933787049840917	-50.5584437345671	-18.0140098795231	-171.367069716417	
1145600000	-17.7728677050707	-109.271903555307	-0.081781347389536	-50.7045285671496	-0.093445226426646	-50.7078598398786	-17.8613824674395	-170.738866017684	
1148800000	-17.6752650577006	-109.587940626206	-0.0924392182532769	-50.9453786453507	-0.103050885000599	-50.8606198709224	-17.7841789386603	-171.362700652089	
1152000000	-17.6541389806755	-110.008378873084	-0.0846967044360978	-51.0406996838406	-0.0901786119792895	-51.0615364898236	-17.8340465575432	-171.399746809814	
1155200000	-17.6983439371972	-109.80202306917	-0.0782024148864324	-51.1583073214413	-0.107926622928095	-51.1350809413669	-17.7479574784391	-171.750936563915	
1158400000	-17.5600936667574	-109.887293426203	-0.0850354439964623	-51.4244809357797	-0.106657347770153	-51.2548196187017	-17.683497380824	-172.569407531446	
1161600000	-17.579737550311	-110.223099429302	-0.0829272998039423	-51.5272224620933	-0.0949844687965246	-51.4744157172643	-17.7170036114829	-173.143988147638	
1164800000	-17.5224960504065	-110.126108957582	-0.0727936667868246	-51.551660170668	-0.101872720504188	-51.5899879715663	-17.7212152886527	-173.006131115457	
1168000000	-17.4563712368653	-109.926039812319	-0.0871033680861652	-51.7554428510644	-0.0998123513389116	-51.7236555653332	-17.5475766685005	-172.954773161556	
1171200000	-17.4600159115506	-109.580967371212	-0.0889373147333082	-51.9096850386813	-0.102577463141912	-51.8512636418347	-17.601142357064	-173.414957000913	
1174400000	-17.2721428852582	-110.204346639524	-0.0958849834841909	-52.0930724524947	-0.111215029134811	-52.0866523661388	-17.4593446290497	-173.539697436767	
1177600000	-17.3179889803634	-109.605417768448	-0.0987677253121121	-52.1904612809584	-0.114465971512663	-52.1998086960957	-17.4209296888105	-174.840589799972	
1180800000	-17.4129075913345	-109.49796394057	-0.0991744123853887	-52.2430887323327	-0.108408289624737	-52.237681781753	-17.3697942583175	-173.824679746254	
1184000000	-17.3583841677714	-108.782693266803	-0.0992942894434706	-52.3498805451983	-0.0949705324262253	-52.4290828134669	-17.3735331246643	-174.817385928629	
1187200000	-17.3161405616435	-109.355959294555	-0.113288217199241	-52.5581194458759	-0.112479068970094	-52.5318927413523	-17.4035769543351	-174.934532086907	
1190400000	-17.3091020664662	-108.600355946992	-0.0896784115153021	-52.7587753129417	-0.100646861146548	-52.682424043235	-17.3665054289072	-176.373473230003	
