!Keysight Technologies N9950B: A.12.38
!Date: Thursday, 18 May 2023 17:18:06
!Timezone: (UTC-06:00) Central Time (US & Canada)
!Model: N9950B
!Serial: MY61131330
!GPS Latitude: 
!GPS Longitude: 
!GPS TimeStamp: 0001-01-01 00:00:00Z
!GPS Seconds Since Last Read: 0
!CHECKSUM:0261313654
!Correction: S11(ON U)S21(ON U)S12(ON U)S22(ON U)
!S2P File: Measurements:S11,S21,S12,S22:
# Hz S DB R 50
160000000	-27.4065977557544	-98.4137194170769	-0.0487379981964331	-5.49775609403153	-0.0498431690296418	-5.4835215464456	-27.8878160404405	-101.235914685776	
160640000	-27.4604296190051	-95.0754350856847	-0.0418685255468651	-5.47494736712594	-0.0432905275180191	-5.36808512408128	-27.9618739294707	-98.1533127690042	
161280000	-27.5731014382878	-94.3679072782267	-0.0390762915481934	-5.36625134228988	-0.0585294949295498	-5.44057716381754	-27.8535214091335	-97.2725050670678	
161920000	-27.2883876685542	-97.2519315726468	-0.0449233926698094	-5.50660461302468	-0.0442703688761023	-5.47722304490271	-27.61094128791	-100.663396765206	
162560000	-27.0607480374911	-97.1203310360176	-0.0369699702241617	-5.53440639094739	-0.0443204344781859	-5.51901297437851	-27.6945958855707	-98.8046574574298	
163200000	-27.1631175730793	-96.7804368215402	-0.03926655735399	-5.53774090809825	-0.0551164190766076	-5.54062227605339	-27.5129058028154	-100.08113272538	
163840000	-27.1706345606927	-96.0513657831849	-0.0431714418477561	-5.50583032106427	-0.0577035195558164	-5.61331604697975	-27.7154407946329	-96.8537983967243	
164480000	-27.4758238861313	-97.0541332572149	-0.0479929435947474	-5.60393486884276	-0.050448910332072	-5.55394871468579	-27.6715286842439	-99.0480228976351	
165120000	-27.2818249530113	-95.0295662832783	-0.0173768153340579	-5.55871625890396	-0.044892510802472	-5.59932485902578	-27.6929078687234	-98.3246023289831	
165760000	-27.1013227673902	-97.3065988226397	-0.0364699369091298	-5.6570862643326	-0.047954753043526	-5.64167328517464	-27.3120719591167	-98.1587682387753	
166400000	-27.2555238422916	-96.9496611736769	-0.041325505363922	-5.69255602352523	-0.0511139928351607	-5.5609996812417	-27.5611802821191	-98.3590320276891	
167040000	-27.2916317064032	-95.6664951331437	-0.0375038014617891	-5.62946357325009	-0.0664226324213844	-5.73795124652432	-27.5040003711845	-98.8766332139004	
167680000	-26.862148072918	-96.3825307778639	-0.0263357453300175	-5.70851414390319	-0.0527532906210869	-5.72013292436023	-27.3298430582408	-97.4481908257647	
168320000	-26.8758419890841	-97.5233808117874	-0.0375043322389505	-5.71848181915933	-0.0542008048252307	-5.7082695681111	-27.0482191614521	-99.9695198507581	
168960000	-27.3062951905485	-94.9955743824655	-0.0434770375973569	-5.76207970050236	-0.0525039246515183	-5.78594862472544	-27.4474898983035	-98.354935884936	
169600000	-27.0334877192876	-95.9472220657469	-0.0349014223342963	-5.75437066625096	-0.0512297117972059	-5.63892496888745	-26.9244650537649	-98.6176877026737	
170240000	-27.0386412880656	-98.3771842514314	-0.0273281831558459	-5.78448378754975	-0.0563245036536152	-5.82801633674022	-27.0436044778833	-100.090382866583	
170880000	-26.8488601660479	-98.26047822123	-0.0371860800723384	-5.63236751652477	-0.053742934488228	-5.70364953370363	-26.9440266862398	-98.7434254678287	
171520000	-26.8634270100595	-97.847749515541	-0.0354570825614028	-5.75458917803708	-0.0489965359034894	-5.81428532756846	-27.2700236139813	-100.135485429886	
172160000	-26.8564761156973	-95.6029721339232	-0.0521173445072608	-5.75881628945822	-0.0394827492913854	-5.88385183818616	-27.1361900129585	-100.314045705037	
172800000	-26.5940120864998	-96.5222950074566	-0.0297999223553721	-5.8319479033634	-0.0636822921267307	-5.6904992826212	-27.2397599800011	-96.2340371325116	
173440000	-26.8237090460754	-94.9331644202048	-0.0277324375613851	-5.86401989079577	-0.0405911085637237	-5.97761087944417	-26.7932091430809	-98.7952880129773	
174080000	-26.6163553460008	-95.6398087002285	-0.0352342993645657	-5.88737931155884	-0.0510211574002283	-5.84831579658253	-26.9816986170102	-96.6783289318023	
174720000	-26.7001100834347	-97.6099654711043	-0.0266248771576272	-5.80827329101013	-0.0671756347171318	-6.03071590554931	-26.8888285313191	-99.0917872111386	
175360000	-26.6320885803752	-97.2931321527537	-0.0376047601914398	-5.90192429141813	-0.0546066387354799	-5.85483978418755	-27.2052689493959	-101.242986859438	
176000000	-26.7280680463531	-94.9388942375031	-0.034770404234484	-5.89023411471238	-0.0514527901841169	-5.96600959777736	-26.7222594708692	-98.151849656007	
176640000	-26.8026249065197	-98.1367524061661	-0.0408161419268391	-6.07971674712467	-0.0622395692325696	-5.95494716661614	-26.8164255619035	-100.940361205492	
177280000	-26.4865174624126	-97.2665197175113	-0.0294294805125994	-5.99274524075413	-0.0519587125062671	-6.07547869355546	-27.3058573649592	-97.6757402319978	
177920000	-26.5312126277638	-95.8088510632688	-0.0352135559259871	-6.11091895158988	-0.0533504772227077	-5.96419470899914	-26.878414487713	-100.787563109795	
178560000	-26.6504523877621	-97.8557042854327	-0.0475670759014166	-5.88188084479221	-0.0453823461392811	-5.92571137501019	-26.7505455208823	-100.847570996471	
179200000	-26.7295250016291	-97.0183351862787	-0.0466793181815937	-6.1357405457074	-0.0532439940398586	-6.09737797755613	-26.8853190196269	-98.6802250901406	
179840000	-26.262630042335	-97.9028577585241	-0.0699360330776796	-6.02986250500198	-0.0509408948555588	-6.1416991433436	-26.3742737991144	-99.3082828074085	
180480000	-26.5065324640208	-96.9441823811043	-0.0283576254503423	-6.06595331381282	-0.0525860083561282	-6.02777627402229	-26.827364955256	-98.2422687231046	
181120000	-26.3265074780749	-96.2102228775306	-0.0494796686003863	-6.11491726269069	-0.06262039774066	-6.14497941245538	-26.8540723543335	-96.8115338815482	
181760000	-26.3329870056183	-96.8944157198882	-0.0457867516119259	-6.17894186117866	-0.0556080034356311	-6.09665077460897	-26.4212309631041	-100.677687955949	
182400000	-26.3337694824757	-97.0816342199609	-0.0417906398710677	-6.16805854342158	-0.0636982269460918	-6.21059579763521	-26.5334409489675	-96.7421294520715	
183040000	-26.2502097136529	-97.355315550862	-0.0530472443328096	-6.16263569459178	-0.0438598642012511	-6.1774913342277	-26.6372560629457	-98.7008113727439	
183680000	-26.26804425062	-95.4153620757624	-0.0508318593536322	-6.1215730571684	-0.0454536363757514	-6.187679783736	-26.2284059730528	-96.5674324794738	
184320000	-26.1333077504408	-95.2033481864141	-0.0354298770112922	-6.15603501665017	-0.059409609672684	-6.19847548657152	-26.4830754690533	-99.1392700394393	
184960000	-26.3495519909881	-96.5545416042336	-0.0567334984669704	-6.28086402498473	-0.0733576887743008	-6.21812857998961	-26.5618396600428	-98.4003081136494	
185600000	-26.4506226723608	-95.1717628185794	-0.0298244669667533	-6.23658486773956	-0.0613436765374133	-6.13369288080571	-26.7390579007108	-101.306957233464	
186240000	-26.1044721531619	-97.9111658339244	-0.0481702373560571	-6.25783044373109	-0.0631929429529861	-6.25806201844527	-26.4912469083507	-100.469227421324	
186880000	-26.1410379386049	-97.5953423909191	-0.0458861249660337	-6.328612842401	-0.0654414173023631	-6.42574534384389	-26.7254600357345	-97.6044036043057	
187520000	-26.0322854819504	-99.1519039426625	-0.0405025627584033	-6.35936824314023	-0.0619307678740336	-6.31081553653881	-26.2456911775178	-97.7231082542677	
188160000	-26.2368086515817	-94.9638488869259	-0.0429007517718623	-6.30496129818655	-0.0456612089931435	-6.29891067257594	-26.6294882506261	-98.1083692443099	
188800000	-25.8866897852917	-95.8808021953947	-0.0502008893958278	-6.31963493440725	-0.0508801213762282	-6.34304267011731	-26.0972866619778	-100.585482930817	
189440000	-26.1248814380843	-96.3508108594263	-0.060979130228878	-6.38414743651633	-0.0529198378504046	-6.50998113820272	-26.3671782029259	-99.8532086168413	
190080000	-26.0365671634287	-97.1607276371569	-0.0566991236350144	-6.38699136573528	-0.0543588305548086	-6.39666341049947	-26.2744585417929	-98.2525583638205	
190720000	-25.6396839848375	-96.9856753099912	-0.0426144081272198	-6.41880631650395	-0.0373897821578783	-6.36739110045275	-26.3891957078354	-100.560172641261	
191360000	-25.951667561517	-96.2507475189688	-0.0364048530837429	-6.50154723346105	-0.0586158191871682	-6.47833571836756	-25.8036096738293	-99.3557290453136	
192000000	-25.7624184712712	-96.9587089993879	-0.0377506176052591	-6.49510411953076	-0.0621926221718494	-6.50786645876654	-26.2388584191883	-97.6001666728893	
192640000	-25.7298224238818	-97.6008903030785	-0.0482225722096312	-6.50099927926997	-0.0393974791654096	-6.56654608540115	-25.9971318882549	-98.0755896787067	
193280000	-25.9981620248819	-95.4132054898491	-0.0417508854992933	-6.51024605086168	-0.0615100694927913	-6.44515875755314	-26.0661768997245	-97.7936226987396	
193920000	-26.0441962699229	-95.7597231416323	-0.0601488698298576	-6.58478509174951	-0.0632573159251586	-6.56294314282288	-25.9237002904534	-99.1118719147152	
194560000	-25.9436263164019	-94.9928492757635	-0.0412178694255654	-6.61902772395606	-0.0483353826833375	-6.54043658111771	-26.0057697680002	-99.8958388189904	
195200000	-25.5086933944689	-96.7332465712943	-0.0495964225470337	-6.5136521925363	-0.057901721849727	-6.596221041553	-25.977776352764	-99.9752338026637	
195840000	-25.6014885609964	-95.789826353558	-0.0362821469944738	-6.60619369833673	-0.0472091006827213	-6.65612624261163	-25.9730475811767	-98.2530936628706	
196480000	-25.651369480092	-97.3369292459539	-0.0559886284466019	-6.45863141243689	-0.0649649926824772	-6.58989709543244	-25.7897135505294	-99.6023348051766	
197120000	-25.5589887488648	-96.6665534837825	-0.0259075054188389	-6.66611586572738	-0.059178692525726	-6.66296478843315	-26.0566797281742	-98.5727923183403	
197760000	-25.6140749949043	-100.161637892978	-0.0367081883948118	-6.56115319014549	-0.0482547997517248	-6.70221912070691	-25.6506624001278	-99.6843185302012	
198400000	-25.8114955352522	-98.2784928728114	-0.0565878064701781	-6.7496969450135	-0.0552780866881782	-6.56395606637777	-25.5712467934947	-100.875400993008	
199040000	-25.5932012326581	-97.0362704842054	-0.0451987239689579	-6.64591553531573	-0.0559469368995818	-6.74000594941146	-25.6410668156109	-100.715014493422	
199680000	-25.5783885298864	-97.0706470635581	-0.0526713534823899	-6.70448678423539	-0.0713968098092629	-6.81400915567504	-25.8914866916999	-99.0363878327538	
200320000	-25.6547361385687	-96.6813428864649	-0.0458433952144835	-6.79308776416364	-0.065490660381297	-6.72496386331617	-25.7873553064665	-101.043051498351	
200960000	-25.5550881337775	-98.3652005658254	-0.0542965976372802	-6.77828594523316	-0.0473721527270694	-6.70971815987193	-25.8634081768602	-100.863051598805	
201600000	-25.4755866045449	-97.0282728644335	-0.0433275759875522	-6.83760642002703	-0.0537542825531219	-6.74979466209804	-25.7110945794946	-101.973553946468	
202240000	-25.6555481011327	-98.677973721833	-0.0577381951318454	-6.84545303764551	-0.0471590464258214	-6.8832551364549	-25.6041998073635	-100.576390447978	
202880000	-25.580489010891	-97.6814585535588	-0.0511344696498655	-6.78451415321504	-0.0532548209535234	-6.7973359287025	-25.7074321822656	-100.739041613928	
203520000	-25.5062163697293	-96.6166578680446	-0.0397250814672668	-6.85697017643942	-0.0601552887382254	-6.78437450792241	-25.8073817523373	-104.533779103083	
204160000	-25.1505134701669	-97.0326415801925	-0.0407609866088579	-6.84836292403182	-0.0586184416725603	-6.85213968752185	-25.7479707041831	-101.716356415612	
204800000	-25.4835461046404	-97.3974435022993	-0.0438554031684701	-6.8516103352162	-0.0565909739466191	-6.9006212143292	-25.6773459566046	-99.634217375907	
205440000	-25.1506517783176	-98.7436630252152	-0.0376828061922622	-6.96721292010932	-0.0651814719687843	-6.82916816803813	-25.7848934202445	-100.130957110189	
206080000	-25.0975411036589	-96.0380379620859	-0.0374411336903405	-6.95311249469283	-0.0663137770406781	-6.95027222037066	-25.9082426270112	-98.736468852067	
206720000	-25.1449799963307	-98.690642035733	-0.0495122211603819	-6.98917888157895	-0.0722270919883679	-6.96255924875124	-25.4396677479929	-99.6582406422866	
207360000	-25.0693666596429	-97.6384785050069	-0.0418039312254292	-6.9310867516254	-0.0543673702045595	-6.94330975049272	-25.2669148172427	-99.3042514585679	
208000000	-24.8181630726566	-97.9737045800454	-0.0600707192839071	-6.97019193016364	-0.0680576710154728	-7.04109669627478	-25.3456500044321	-100.377973091297	
208640000	-25.0476585098248	-98.5309936012043	-0.0566206708390619	-6.96638182148687	-0.0655687536628018	-6.91437647721245	-25.407659101597	-100.254353088497	
209280000	-25.4532775066827	-96.3155374373172	-0.0500853444191989	-7.08462671025456	-0.0628354066417366	-7.04605138373693	-25.4331927260098	-101.853449356346	
209920000	-25.0817635105265	-98.1880427056016	-0.0563360736075525	-7.0280185361385	-0.046203725397628	-7.11623157521249	-25.4712053509129	-99.9716258472716	
210560000	-25.1663259704003	-97.6200191050767	-0.0473107724108941	-7.13350646046105	-0.0728388739000696	-7.0655543535147	-25.2908502418511	-99.8755706879363	
211200000	-24.8430875271841	-97.6119521479775	-0.056231896338098	-7.09905437268539	-0.0735058329409606	-7.07473412045619	-25.4916402245955	-98.9672071199763	
211840000	-24.9579977204275	-96.8649882065766	-0.0508856003330994	-7.06608104532109	-0.071500562692388	-7.06216012421737	-25.5731473379748	-101.044962807992	
212480000	-24.9604602067828	-96.8990203710125	-0.0481204701175426	-7.10928531475831	-0.0610786042957158	-7.11491968257745	-25.2739658763339	-98.1696534392032	
213120000	-24.9755182728563	-98.1038414731395	-0.0424531385905189	-7.13386338370245	-0.0610825023239395	-7.09490303562854	-25.6140717459937	-101.654144426525	
213760000	-24.7863185874843	-97.705195473302	-0.037305178579835	-7.11757003561464	-0.0551002763950188	-7.1948304424031	-25.3715546750825	-101.48894637623	
214400000	-24.9458716495447	-97.7687086339543	-0.0604606569713813	-7.26842117040467	-0.0675445876943603	-7.15899357662783	-25.127175379369	-100.179551790773	
215040000	-24.842129371534	-99.2359001155164	-0.0433836343928392	-7.25375987894444	-0.0573594674886135	-7.17689344119413	-25.4511904286702	-99.8003064439321	
215680000	-25.1332200553846	-98.3012543769912	-0.036417172643285	-7.2391040904522	-0.0643648264061697	-7.20970828387978	-25.2941704255913	-102.205584389169	
216320000	-25.1613708518325	-96.6521590691975	-0.0553824755946727	-7.24899525930067	-0.0772415081446265	-7.26813575182683	-25.1923239474039	-100.090778696544	
216960000	-24.7827545249393	-97.2531682149079	-0.0464006548530042	-7.30097636241968	-0.0543000026506096	-7.35096045860403	-25.1202885549348	-99.9774139324719	
217600000	-24.7974631416374	-97.169298264291	-0.0408530911821682	-7.42958809400407	-0.0773007376988734	-7.36566864062571	-25.0286371813861	-101.65330787909	
218240000	-24.8830300082331	-98.2258282872857	-0.0597381523851067	-7.32381757962025	-0.0691890123048673	-7.25012486603242	-25.0017771346352	-100.066490562273	
218880000	-24.6200664597518	-98.7367402925502	-0.0602512325897946	-7.23828692832325	-0.066423905733205	-7.39063726674153	-25.0731533098314	-102.192939678498	
219520000	-24.7591871719493	-97.494273301563	-0.0384175718571243	-7.37311145777936	-0.0583898527975238	-7.36539915885692	-24.9689808835575	-99.4371973885002	
220160000	-24.9779347136905	-96.3875918343069	-0.0505151973907491	-7.32276224990108	-0.0768943904838879	-7.39700435907345	-25.0890323720073	-100.332719131613	
220800000	-24.7499921610678	-96.6728863676483	-0.0477948434801959	-7.48419891154536	-0.0520865063492765	-7.43465854657543	-24.8716630130181	-99.0242567081716	
221440000	-24.5937288306506	-97.7957006552424	-0.0568635616476552	-7.4748915895059	-0.0712304838465835	-7.42288785383707	-24.9731864515354	-100.843979158135	
222080000	-24.6971356487133	-97.055435917066	-0.0567846526887614	-7.4008250995959	-0.0577457803191346	-7.44210226680265	-25.0456670637249	-101.7433959177	
222720000	-24.7352989884747	-96.6354695054523	-0.053832299601503	-7.34609820832029	-0.0628372899427275	-7.39734612381308	-24.7685562077319	-101.715381694779	
223360000	-24.5046054358877	-97.7454266995967	-0.0420092559175817	-7.4585274622879	-0.0570888826606447	-7.53776821279001	-24.7189420114711	-100.19043863935	
224000000	-24.6481527413895	-98.0609050007147	-0.0579988258981231	-7.5846848840982	-0.0655455828571223	-7.61128649840389	-24.8244315825192	-99.695485000781	
224640000	-24.4520577464283	-98.0010418155003	-0.0502132116501267	-7.47192649798343	-0.0673782041547233	-7.46274151432315	-24.6051015024994	-100.600344204638	
225280000	-24.3793330632327	-97.9891763715124	-0.0374874428437586	-7.63235492695425	-0.065269169791883	-7.53012775410289	-24.6756456306418	-100.60857183455	
225920000	-24.5500644840544	-99.5763981747834	-0.0382555510198647	-7.50078793528377	-0.0674668582792064	-7.67770772493959	-24.800242369204	-100.579710127607	
226560000	-24.3901674090006	-98.1040819375069	-0.0555618361912559	-7.56772161640626	-0.0752434004925894	-7.63850992305473	-24.8369453060335	-100.546841977107	
227200000	-24.4738075963098	-98.0021289610158	-0.0636936716080445	-7.71943554983812	-0.0559732781030514	-7.57771153576851	-24.4800267486442	-101.798488948058	
227840000	-24.538948555867	-99.312378164896	-0.0569108064523408	-7.58687116504783	-0.0702712820159863	-7.57748332959842	-24.6428499901954	-102.06757314235	
228480000	-24.3731583140456	-97.9444311226608	-0.0513167068682734	-7.64043551363765	-0.071430774676998	-7.60175011781714	-24.5530468384405	-100.596197489947	
229120000	-24.2362736430125	-96.0636645333051	-0.0724226607859558	-7.75455475364083	-0.050394503394379	-7.64830614603919	-24.6591356061447	-100.918699431648	
229760000	-24.4910401049196	-100.680363189767	-0.0681669583189778	-7.62795657407123	-0.0706335622940793	-7.68853810703068	-24.785680871425	-102.675056423451	
230400000	-24.4016367165415	-99.3099292373109	-0.0478548257697671	-7.59538631478772	-0.0727754972966973	-7.77912259255219	-24.4651741265738	-101.684139313662	
231040000	-24.3412440978764	-97.3837032442741	-0.0508426609440715	-7.7123080190128	-0.0825490936498191	-7.73405023923807	-24.6440819751282	-99.0595285572185	
231680000	-24.3969781633918	-97.8459038223455	-0.0506933300255549	-7.76310452797273	-0.0713445531596532	-7.85850557367865	-24.7525729868804	-100.748093425887	
232320000	-24.2781761572342	-99.0288371347327	-0.0499553765986694	-7.80070649182169	-0.0831643732594644	-7.78043415461142	-24.3737010614153	-99.5203621468366	
232960000	-24.1232505565593	-99.1620856779545	-0.0571517330279103	-7.88847123160474	-0.0646536414797277	-7.7717296459202	-24.5359610130432	-98.8952119564922	
233600000	-24.1585143115122	-98.0577283920839	-0.057642153783496	-7.91759455409482	-0.0562597526389035	-7.76105766420253	-24.5619308528157	-102.543421863149	
234240000	-24.1467172549875	-99.3941513817282	-0.0548531324726076	-7.82164679933942	-0.0689603247239162	-7.87475741435082	-24.595966347704	-102.210723135478	
234880000	-24.0415927827306	-97.3806312082446	-0.062516166993281	-7.83820290155551	-0.0598694426953815	-7.88128768410534	-24.6105419366446	-101.342848568647	
235520000	-24.1533637664992	-98.5387452047027	-0.0537563349454594	-7.80061815111891	-0.0737928254078572	-7.93007857177272	-24.6583538190726	-99.8973011900654	
236160000	-23.9585199423387	-99.1724396895212	-0.0554729888970536	-7.87455494784426	-0.0517459312915557	-7.96694118973292	-24.2994562985844	-102.61181262581	
236800000	-24.1808419902009	-99.268065172838	-0.070114671104752	-7.94881373673946	-0.0707783479815346	-7.85511373052231	-24.5751201178529	-100.915255196211	
237440000	-24.118660098038	-100.297876265362	-0.0491965472021777	-7.90255944180702	-0.0704674418589667	-7.96960554940058	-24.5175184212209	-101.985043255308	
238080000	-24.1541933632497	-97.2568145016946	-0.0601606548985286	-7.93024196967427	-0.066670199232254	-7.9705972246798	-24.6200321242135	-101.39724768552	
238720000	-24.0425761491846	-97.5826139211574	-0.066942451003737	-7.99913368468948	-0.0612475385979198	-7.97236999791078	-24.2687571340232	-100.209272515681	
