!Keysight Technologies N9950B: A.12.38
!Date: Thursday, 18 May 2023 17:11:17
!Timezone: (UTC-06:00) Central Time (US & Canada)
!Model: N9950B
!Serial: MY61131330
!GPS Latitude: 
!GPS Longitude: 
!GPS TimeStamp: 0001-01-01 00:00:00Z
!GPS Seconds Since Last Read: 0
!CHECKSUM:0096441179
!Correction: S11(ON U)S21(ON U)S12(ON U)S22(ON U)
!S2P File: Measurements:S11,S21,S12,S22:
# Hz S DB R 50
160000000	-34.627484496534	-94.9327475232296	-0.0183777828412463	-4.10025397655364	-0.0291870752298171	-4.06796672420026	-35.5979015293112	-98.8257117952007	
160640000	-34.5906609987024	-85.5845008530376	-0.0115464045752005	-4.053047301917	-0.00979091523825012	-4.04577012075209	-35.8830806124907	-90.631637478742	
161280000	-35.1573963619755	-85.4067350052586	-0.0159351954032743	-4.02546582602329	-0.0172058831599984	-4.06565936677645	-35.8412387488206	-91.4232211163628	
161920000	-34.6033469663256	-90.1522548584413	-0.011251387563035	-4.02990799607999	-0.0203937492549002	-4.07749867089649	-35.0511032071053	-98.3595040304595	
162560000	-34.1191178661476	-92.0097018557806	-0.0262987200964874	-4.14690025039404	-0.00867660646662109	-4.1208186126497	-35.569619434206	-93.0270719887875	
163200000	-34.4226589745827	-90.7285456573386	-0.00219594103622364	-4.14847645897242	-0.0337209798840917	-4.14186955980512	-35.0811965984004	-98.3201867081001	
163840000	-34.3341888604711	-89.8328898738141	-0.0164805252692888	-4.13589054666603	-0.0353873642301609	-4.11339702252142	-35.5950819133736	-89.4222270289947	
164480000	-34.9389873381228	-91.7281663361492	-0.0245473804853418	-4.1620368584064	-0.0136480853926207	-4.18691501717227	-35.6765480452626	-93.3233764952182	
165120000	-34.6377451760599	-87.0720403852204	-0.00507942758119887	-4.17990655293873	-0.0217009042783649	-4.16395911456396	-35.5284205871703	-91.2110457828185	
165760000	-34.3050138734265	-90.9578379163214	-0.0178609355082548	-4.19147269256049	-0.0288735592966432	-4.26331769531173	-34.6551037202286	-92.085746812439	
166400000	-34.7555269771623	-91.2164136005361	-0.000142484974897811	-4.22736029787419	-0.024816026283738	-4.22559137770835	-35.3149767754711	-93.1909572699996	
167040000	-34.9892207152756	-86.6042672878337	-0.0115189609017146	-4.21703838433301	-0.0391686893065526	-4.25620187516236	-35.2188719121653	-94.44562022758	
167680000	-33.9300266432546	-88.5928203979561	-0.00914553076836371	-4.21437311376973	-0.0297951292700756	-4.28315850010766	-34.9396200274396	-90.123360375002	
168320000	-34.0257275543383	-90.962593720287	-0.0357600422114515	-4.27173834443285	-0.0141966298811356	-4.29565423994601	-34.407786086324	-96.5091312361739	
168960000	-34.9328632786565	-86.3202138499553	-0.00931395759767346	-4.32449625525378	-0.0127104828592617	-4.2132916193676	-35.2014558509708	-93.1887708613105	
169600000	-34.3484655531905	-88.26050870371	-0.00804052846000879	-4.34682704572253	-0.0372852103624602	-4.16751151040964	-33.938713160484	-94.1980586076828	
170240000	-34.5682699308986	-93.6584276678086	-0.0195156902154851	-4.29170998081376	-0.0330923985239619	-4.31321621556698	-34.517416758005	-96.4257267574064	
170880000	-34.1666520784009	-93.1541653067748	-0.0132156218798114	-4.28459422521033	-0.0240951117303099	-4.18690417776008	-34.4083364764509	-92.9312330006264	
171520000	-34.3227355662282	-92.8333854742546	-0.00733625229214618	-4.35328541227472	-0.00841011302385822	-4.35806116162802	-35.5316106435843	-95.5233671829344	
172160000	-34.0828043398412	-87.1110548726943	-0.0212796972766775	-4.34753279681847	-0.00752032938112421	-4.3151288345869	-34.7910437355996	-96.8740662119683	
172800000	-33.6233022656475	-89.5846633270856	-0.0105298223236767	-4.44556425140673	-0.0340797862936111	-4.25593936742011	-34.9169827706678	-87.3850404504659	
173440000	-33.9627304039733	-86.6334675888132	0.000136069489477205	-4.39549458703925	-0.0244775034567791	-4.46069430049879	-33.9011932897823	-92.9758868676549	
174080000	-33.5708742974985	-87.0991990389316	-0.00793386859578652	-4.43355900531348	-0.0141420715966323	-4.36619210023763	-34.6246820413187	-87.7582701314461	
174720000	-33.8530343218376	-90.4318224146429	-0.00539538034519713	-4.41482482581223	-0.036081781743479	-4.5329738109735	-34.400758107848	-93.9358671806258	
175360000	-33.9990446641283	-90.9878322390219	-0.0107355871923533	-4.43099036757995	-0.0266072240619344	-4.36659830303735	-35.1052019350569	-98.6378924757834	
176000000	-34.1565785910598	-85.6762705829482	-7.28616805687821E-05	-4.41044622948483	-0.0126586232049781	-4.53329262523038	-34.3449269147126	-91.772975021989	
176640000	-34.3537236469164	-91.7230546788708	-0.00597744262532691	-4.5332839475596	-0.0125861305424413	-4.45528239470319	-34.2742903007654	-97.6615597953484	
177280000	-33.5616323492767	-91.8265015931012	0.00184554573598419	-4.43112318348359	-0.0277089287376307	-4.47678302759124	-35.3563844110598	-89.983646607701	
177920000	-33.7569452188478	-86.7461249025712	-0.00997603061465694	-4.51135871116095	-0.0200106283766193	-4.44366020013355	-34.8534615243835	-97.1330616793951	
178560000	-34.009972973733	-92.4030703970646	-0.0151267474767733	-4.41234665776046	-0.0143275394298498	-4.47356967709605	-34.378517240793	-97.9857967509815	
179200000	-34.1951104047074	-90.4521734962781	-0.000400957264904614	-4.63725397639744	-0.0243982477179276	-4.629369623181	-34.664552267318	-90.8345954222066	
179840000	-33.3895828043213	-91.2385149246563	-0.0315748007634611	-4.60817660193953	-0.027820387003761	-4.58335958846186	-33.2739094161547	-95.6006416508659	
180480000	-33.7808039162883	-89.8035174393159	0.00472469381736767	-4.60808477667659	-0.021500181076723	-4.50723028632827	-34.4157893837338	-90.6258023573698	
181120000	-33.4517259586512	-87.7838051632957	-0.0170668282188936	-4.57739370264386	-0.0296170296268097	-4.5836103654168	-34.548221163974	-87.8978372962844	
181760000	-33.502225088719	-91.247838459733	-0.0185685435992847	-4.631277202036	-0.015166349119692	-4.56065478556004	-33.6654789427304	-96.547085276671	
182400000	-33.7938991431796	-90.7513996427445	-0.00820105925959171	-4.70690667897039	-0.0321367704015264	-4.67405098293831	-33.8181593127033	-87.7353419777207	
183040000	-33.4939224756613	-91.1753963954616	-0.0191888029732604	-4.50547663566671	-0.0262316648033362	-4.7161355767784	-34.0389499197824	-91.7653341309243	
183680000	-33.3896291921435	-86.6523034594621	-0.0165601292578046	-4.58642084787114	-0.0208168275851084	-4.62324210754277	-33.2468827866067	-88.254224879729	
184320000	-33.1371910813042	-86.1140091793374	-0.0125007252023554	-4.72643391240448	-0.0286433756143675	-4.68647677036059	-34.1699790461659	-92.3309480764908	
184960000	-33.7920166298591	-88.5574004242773	-0.0211119444805657	-4.76139423199869	-0.0254823978322187	-4.64563742270248	-34.3228587340909	-92.0220309466809	
185600000	-33.8978665779405	-85.1830087484432	-0.0165687968153606	-4.54964345672928	-0.0243239856160893	-4.57828642076407	-34.6472145809923	-97.2821894628813	
186240000	-33.3262492624415	-91.7890438828717	-0.0189500748977675	-4.70637746507144	-0.0295343342010436	-4.79227178491778	-34.0477819619385	-96.0098462775746	
186880000	-33.3827761339362	-91.1333233909339	-0.0175759337275232	-4.70068602696931	-0.0238515470300091	-4.76510722668612	-34.5334918934093	-88.8635659675811	
187520000	-33.1896635771414	-95.1946066999935	-0.00248922766626093	-4.81288874695414	-0.0226872529497118	-4.72492105568045	-33.5822235266379	-89.2937921188238	
188160000	-33.6349037585805	-84.1037921594717	-0.021907151418611	-4.72134132118574	-0.0201586463831867	-4.71986474141523	-34.4155617016007	-89.7717386346264	
188800000	-32.7046981928638	-88.2621255427864	-0.0163510287016292	-4.74151161248174	-0.0325469042229397	-4.81478902553177	-33.2475636088206	-94.7485379046387	
189440000	-33.4172144093134	-88.0722915684981	-0.0226614575020295	-4.82910108191495	-0.0234741371679176	-4.91552409878205	-34.1266203106079	-94.200893835583	
190080000	-33.3013953484352	-89.3735793640538	-0.0280657944811271	-4.79949521752895	-0.0262244022960895	-4.76125970218616	-33.6383070573386	-89.6842773775858	
190720000	-32.5746040546062	-91.078640432547	-0.0168525119416174	-4.86861845853454	-0.0184350945067898	-4.75146074498184	-34.1487566810134	-96.0525265470772	
191360000	-33.2338746376006	-88.3523003869955	-0.0160801831889611	-5.000784307799	-0.0325243140834251	-4.87134437479726	-32.8973617024596	-92.7924908009568	
192000000	-32.7646846181835	-89.6351456925823	-0.00640813512687362	-4.76831328680204	-0.016765516520436	-4.80334629663918	-33.6624391543789	-89.3895684434441	
192640000	-32.7103595632106	-90.8957232040414	-0.00605149055261448	-4.90818214010157	-0.0109524789894455	-4.93236523617486	-33.1580462763291	-89.6962225757254	
193280000	-33.5036402436953	-85.6216401324174	-0.00884434268402312	-4.92089962467303	-0.0193495292438551	-4.85487765440173	-33.3261008119936	-89.8177565820827	
193920000	-33.6053601096812	-85.5676173351696	-0.0207511501117285	-4.93703083427576	-0.0331631450678815	-4.9381474076326	-33.3573441752842	-91.7166930444043	
194560000	-33.4950582076633	-84.6383772347474	0.00024436009756695	-4.90667835019918	-0.0194013652820785	-4.94045289391932	-33.2555758291389	-94.1311242825398	
195200000	-32.4891946638574	-90.3509727404456	-0.0166911261506207	-4.92439018261462	-0.0250525888389242	-4.91939177600489	-33.4006341445206	-94.3596754529497	
195840000	-32.6755653903044	-87.6794435844205	-0.0080894539661375	-4.91272734348019	-0.0121456252893903	-4.95707604307495	-33.4695034040023	-90.6318999325958	
196480000	-32.7483281410624	-90.965128984459	-0.0129958956849313	-4.86930854880366	-0.0339153664875629	-4.88472631851701	-32.9933177947836	-94.2290361555349	
197120000	-32.5625401911557	-90.6088570476166	-0.0108211145704385	-4.95854485293679	-0.0308960197614963	-4.98001737802474	-33.8622843254548	-91.140065862056	
197760000	-32.7917004281763	-95.9912485247728	-0.0144785493789708	-4.98249095591845	-0.0194974243280857	-5.03405488982724	-32.869057476211	-94.53319883632	
198400000	-33.2242229311539	-91.3280532376816	-0.0177164468110566	-5.01188971385865	-0.0195722575174712	-5.00337257661463	-32.8155022549573	-96.0467362521464	
199040000	-32.9059597563242	-89.7299057414269	-0.00513861656679959	-5.04363126809408	-0.0270181014458731	-5.070726002806	-32.9732226894798	-96.5956435706617	
199680000	-32.8148430399319	-89.689026698345	-0.00657350947312931	-4.97882742985388	-0.0248196371295823	-5.09534723628546	-33.5298454641417	-91.0034976784908	
200320000	-32.9873281184594	-88.8303435564774	-0.0375691373230499	-5.11548810724303	-0.0309419314653145	-5.06146731600435	-33.5178404443633	-95.4505546306893	
200960000	-32.9227987930501	-91.9103986857179	-0.021533089933643	-5.04146795837953	-0.0178119485799802	-5.07845185242818	-33.431580942364	-95.8242520196398	
201600000	-32.7849528312038	-89.8715988047281	-0.0103360175248256	-5.19070591296899	-0.0093942571851111	-5.03930536220475	-33.1201373799744	-99.6005278356008	
202240000	-33.193475952591	-93.128262721263	-0.0202350022095374	-5.19323820394768	-0.0294614816086047	-5.19931723439701	-33.1673075085656	-96.3057210895378	
202880000	-32.8275687716487	-90.2504234974996	-0.0115999083716318	-5.03259335321998	-0.0107863479737303	-5.06959451077841	-33.2664603454573	-95.6207617653341	
203520000	-32.6514574619512	-88.7178468099842	-0.00890776633977774	-5.17401958138639	-0.0202904264734898	-5.08002254685629	-33.4515686879767	-104.010506445601	
204160000	-32.053757530282	-89.1372730125996	-0.00255700152797522	-5.18728823959426	-0.017786246299891	-5.1428288439742	-33.5792811615228	-98.7272685160498	
204800000	-33.096980110782	-90.4640946735723	-0.0132139948800141	-5.12358404300014	-0.0380769741370004	-5.11126337099926	-33.2512439140634	-92.1342675632908	
205440000	-32.0599562114563	-93.7094312717128	-0.00310245721499022	-5.25606264515624	-0.0369533297223311	-5.0760972796865	-33.7015477382708	-94.1462997989501	
206080000	-31.9811915925648	-88.5481759301324	-0.0199642519133203	-5.27772949853526	-0.0271386456727832	-5.20378074913481	-33.872075843223	-89.6568952206833	
206720000	-32.2142699212947	-93.0991458030623	-0.0196466738974727	-5.15368795689655	-0.0404416725844213	-5.23980592066097	-32.8105384807673	-92.9068848781063	
207360000	-32.1707245187052	-90.8447138357748	-0.00761565626446684	-5.26222417010283	-0.0183083027134675	-5.19159566957564	-32.3872477119623	-92.726999973813	
208000000	-31.6158656213276	-92.0473514383317	-0.0307049157709239	-5.18023414831758	-0.0326077083187263	-5.23482443456941	-32.6179008578545	-94.9914529953902	
208640000	-32.0858982219249	-93.0202210120413	-0.00591537087052405	-5.24086104912523	-0.0350320226826593	-5.1683484489168	-32.8333150685353	-94.0064094232551	
209280000	-32.9253138439008	-87.6837388728194	-0.0130322395378873	-5.27420887370068	-0.0195443290591794	-5.26653441310942	-32.8530288719846	-97.6802492543343	
209920000	-32.2457598296387	-92.0238308555157	-0.0184602318146114	-5.40443663463878	-0.0307006011291554	-5.21563364186372	-33.0346559415953	-94.3312808229248	
210560000	-32.3254755692004	-90.5555343966799	-0.00980303402434581	-5.40786330192328	-0.0324578191201222	-5.25181230998283	-32.5340252346529	-92.9006354960527	
211200000	-31.7192257293725	-90.8671876752754	-0.0263878140249434	-5.3032941646291	-0.0255644578897064	-5.34273898672226	-33.0653000745666	-91.3985351089199	
211840000	-31.8853322361464	-88.8989432681939	-0.0234155484188364	-5.30427447999213	-0.0361137087948087	-5.32138427709677	-33.3640976335413	-94.9199793090585	
212480000	-32.1520398962394	-89.6568827754457	-0.0124831561983391	-5.36523197033508	-0.0307377110670537	-5.27083109964633	-32.561336156385	-89.7930819867193	
213120000	-32.1830769459471	-90.9489936635353	-0.00719039349508253	-5.34170291594961	-0.0198273848980694	-5.30209137676745	-33.6204732840932	-98.1381415521072	
213760000	-31.7992288126043	-91.1004679638198	-0.0120625647075649	-5.37957252087089	-0.0282350875137601	-5.2663917783956	-33.0067343791354	-95.4655267690932	
214400000	-31.9564141782114	-90.4854040851635	-0.0185437249611571	-5.49036120305829	-0.0204246636665151	-5.3446189029343	-32.5383316221014	-93.9954005637715	
215040000	-31.8842583436876	-94.8234190020489	0.00361655981513054	-5.44316582305481	-0.0216352720686553	-5.43582992434698	-33.2769199284	-91.7283145739454	
215680000	-32.5599342081207	-91.2567151112514	-0.007494697095201	-5.48033157363821	-0.0306987180448798	-5.37197207627499	-32.9210668876072	-98.0997217483301	
216320000	-32.6007515419987	-87.4555140479924	-0.0102805475515591	-5.51078131345229	-0.0416515996840048	-5.4470794039258	-32.7529452221854	-92.7253881584111	
216960000	-31.7773455455989	-89.3880019337504	-0.0208507658221915	-5.49254026435409	-0.00620241402559719	-5.52741691699408	-32.5944445175156	-92.9242058029239	
217600000	-31.9602762070888	-89.7508309244129	0.000935975850577042	-5.55298447963922	-0.0369161009794949	-5.56418005158829	-32.4717792137507	-96.8134790525393	
218240000	-32.1792777741705	-91.3166508730463	-0.0162564054954783	-5.47662394982425	-0.0283072468029485	-5.50184499953807	-32.4747834310356	-93.7441987312938	
218880000	-31.6752351229701	-92.1037076150514	-0.0185958497389975	-5.46005381952842	-0.0200740835888893	-5.50786370459669	-32.4280620933246	-99.0243249980879	
219520000	-31.9719589368779	-90.3122854958031	-0.00438835896512989	-5.50045232165906	-0.0285419966641629	-5.56496598142808	-32.5783345362152	-91.7145976419037	
220160000	-32.4019815006046	-87.2258405712128	-0.0134860117807233	-5.51417637017913	-0.030747537246459	-5.54104038638166	-32.6848493931756	-93.9049560672429	
220800000	-31.9030125155103	-88.0913999186172	-0.0120321992977346	-5.55059401268311	-0.0352251226320648	-5.61829041420643	-32.2948240432592	-91.0988890269888	
221440000	-31.5415559599989	-90.5230395004052	-0.00868744009470179	-5.69127911836274	-0.0269857870567907	-5.54238716268205	-32.5421920330876	-93.8230412120934	
222080000	-31.727532729976	-89.4191197132142	-0.0173449912643101	-5.59935358770518	-0.0187369428215019	-5.581688433832	-32.6198904794395	-95.7073579038154	
222720000	-31.9819079663514	-87.7406788006614	-0.00953809615428181	-5.55359844455416	-0.0347882918179502	-5.55541190216261	-32.2137753066347	-96.7281781540688	
223360000	-31.5012626953784	-91.0934796271233	-0.0100564566655202	-5.63188532674246	-0.0286217799444821	-5.72862212634584	-32.1125932066037	-93.0651088467232	
224000000	-31.8868172471999	-91.0723626551331	-0.00786289077410067	-5.65930705490927	-0.0286524383929217	-5.74297147409033	-32.1973621486636	-91.9675894323933	
224640000	-31.5830947435364	-91.1746341181838	-0.0146129583883456	-5.65121666812858	-0.0294227565452576	-5.63174579123895	-31.8054155995386	-94.9711285070987	
225280000	-31.3423565586887	-91.1233253013191	-0.00551974026540295	-5.72998757183629	-0.0299927115383299	-5.65970053431765	-31.897864790543	-94.2751764216188	
225920000	-31.7034176903735	-94.5819359392579	0.0084932663511245	-5.61192738494124	-0.021566602655147	-5.70236196405034	-32.2783974903717	-92.2555058392816	
226560000	-31.3572323910818	-90.48010196744	-0.0212873508661041	-5.65051233529207	-0.0311238899094034	-5.70363017726859	-32.5403940576717	-93.7288224946621	
227200000	-31.6335915978897	-91.1916159417426	-0.0125568821635333	-5.80600151734549	-0.0236817400001587	-5.70996240926436	-31.6097836212326	-96.3322802904059	
227840000	-31.7778814136005	-93.3905314660248	-0.0169583955971962	-5.68569396197037	-0.0398572340437771	-5.65305874947342	-32.2672170376093	-96.8141360413467	
228480000	-31.3533855470803	-91.2267211668777	-0.00797570309861029	-5.73212167228986	-0.0353618515803668	-5.78373209788322	-31.8572045172751	-94.2819997543443	
229120000	-31.1828796276379	-86.819125757769	-0.0115853746031227	-5.73507223957431	-0.0198504368281095	-5.68652197692906	-31.996666465845	-94.3639729107395	
229760000	-31.8094592788374	-96.5874861132106	-0.0158454169925807	-5.74420836759337	-0.0192622882380394	-5.77139260809363	-32.3673478170616	-97.5497445800203	
230400000	-31.5026700200978	-93.1257918999297	-0.0190763946084414	-5.79928631807465	-0.0334067862643937	-5.78725947039169	-31.743670599016	-94.7419493568717	
231040000	-31.3911458788283	-89.0255457266699	-0.0118626751875627	-5.754746016548	-0.0396860752445466	-5.7974036052203	-32.0298588618351	-90.8469649529484	
231680000	-31.5417741579016	-90.663072306845	-0.0123136621607901	-5.82777042810714	-0.0306811978305625	-5.86969856111326	-32.3927441454477	-92.9974124981497	
232320000	-31.5710441775744	-92.9738392701702	-0.024817523974993	-5.77305912850795	-0.0326066195822476	-5.90302068124391	-31.5126488032308	-91.3411527497032	
232960000	-31.0638823271927	-93.9153018808975	-0.0286461780673344	-5.86031622800387	-0.025731185394035	-5.80018283372738	-31.9674823447594	-89.8157494940002	
233600000	-31.1196649368946	-91.0758090301228	-0.015345895988277	-5.91546136390386	-0.0168749726635836	-5.76887263965934	-32.0967241896676	-97.7461481023676	
234240000	-31.2540148506195	-93.5601168489099	-0.0100279440168868	-5.90921885125763	-0.0321523280574157	-5.90446712358261	-32.3473703072538	-97.1189107118081	
234880000	-30.9555910428062	-90.121151969082	-0.0162724539218761	-5.88816813058437	-0.029109972751152	-5.91136584822666	-32.5595398566403	-95.0304710369556	
235520000	-31.2360993930593	-91.7986836879464	-0.00305527593900648	-5.85095522633197	-0.029250287959586	-5.88911217169987	-32.2314678037662	-90.9797533473469	
236160000	-30.9712026207386	-93.3798558807879	-0.0214447174070764	-5.90787791009888	-0.0184239056132691	-5.95715918167373	-31.6148945633769	-97.8362352768969	
236800000	-31.3470373686711	-93.7628074591661	-0.016621145338994	-6.00553722695418	-0.0318983534422925	-5.91047613279085	-32.1236794805094	-93.2397243708392	
237440000	-31.1305122298757	-95.8976821248587	-0.0160733113787061	-5.97390465437276	-0.0327703910753888	-5.96673896981147	-32.1945967348834	-96.035732896428	
238080000	-31.2683278763749	-88.8282977526911	-0.00929080359463752	-5.94960171621606	-0.0205541167763227	-5.93549205279538	-32.3738840994624	-93.4835626417759	
