!Keysight Technologies N9950B: A.12.38
!Date: Thursday, 18 May 2023 16:48:57
!Timezone: (UTC-06:00) Central Time (US & Canada)
!Model: N9950B
!Serial: MY61131330
!GPS Latitude: 
!GPS Longitude: 
!GPS TimeStamp: 0001-01-01 00:00:00Z
!GPS Seconds Since Last Read: 0
!CHECKSUM:0225793376
!Correction: S11(ON U)S21(ON U)S12(ON U)S22(ON U)
!S2P File: Measurements:S11,S21,S12,S22:
# Hz S DB R 50
800000000	-15.6853108873203	-108.695719607042	-0.146890451125831	-24.4003949411337	-0.163826256354799	-24.5086285121531	-15.6372771675999	-120.057664095831	
803200000	-15.4925095162703	-109.174578909008	-0.140451362725018	-24.4727947136818	-0.166667545916853	-24.5458016147259	-15.5748508083847	-120.643288209453	
806400000	-15.471301948196	-109.929297109398	-0.137062179761198	-24.5804919808479	-0.151504679150329	-24.7479413233171	-15.5568611074645	-119.952294377404	
809600000	-15.4511005634599	-108.194530374671	-0.130523587609399	-24.7075366408822	-0.157246890029583	-24.7282829781702	-15.4152173989384	-119.503017951215	
812800000	-15.3922547774356	-109.532533717932	-0.153523856601179	-24.9300121299645	-0.175383750045254	-24.886716070914	-15.4527826817529	-119.917293665773	
816000000	-15.3517687917173	-110.125740721654	-0.159924120805089	-24.937038347895	-0.162902610208154	-24.9935590746021	-15.4170127241147	-120.392838933605	
819200000	-15.364790565956	-109.730695507676	-0.161360498948074	-25.106485808938	-0.166617405247808	-25.111523217162	-15.359614499202	-120.618219853041	
822400000	-15.3947897233681	-109.810177508536	-0.151759254125847	-25.1594734971827	-0.150762481077154	-25.0554533575529	-15.4691535177728	-120.102895391736	
825600000	-15.2379175751022	-109.057392967931	-0.154049588013143	-25.1953031645863	-0.164564218546102	-25.1730417102103	-15.4066131757387	-119.737974248561	
828800000	-15.3007641282015	-109.461376455482	-0.145658071766451	-25.2631953820363	-0.148518587258761	-25.3062177986091	-15.2828745990965	-120.854143249245	
832000000	-15.2161478422428	-109.783790364066	-0.161758600138979	-25.5378075324103	-0.164716578816491	-25.4839462197677	-15.2659000561986	-120.640010334198	
835200000	-15.2306183601066	-110.746826716394	-0.158539809009639	-25.5869202047996	-0.173123910930489	-25.5454089178284	-15.2047190810866	-120.808111344656	
838400000	-15.1853332569924	-110.522354941494	-0.165528563328742	-25.5647007241697	-0.172793372489515	-25.4902896742027	-15.2611832975861	-121.369555862735	
841600000	-15.2293481988825	-110.595037538174	-0.164549773091347	-25.6300034152911	-0.174537614955369	-25.6529195177426	-15.247052901516	-121.790349267368	
844800000	-15.0727040124888	-110.042173961176	-0.162767089553693	-25.8874777230022	-0.172566380033779	-25.7466500141785	-15.1228122100564	-121.360019478012	
848000000	-15.2016096631118	-110.467745182935	-0.161015041876093	-25.9231323963681	-0.17279318364494	-26.0217710191335	-15.1020217575305	-121.83382635312	
851200000	-15.1191683212614	-110.452218710034	-0.171964519953863	-26.0083650036755	-0.163530576648535	-26.0049425596014	-15.1183504750476	-122.048291216088	
854400000	-15.0833603792182	-110.720710078814	-0.161593153348612	-26.0552474508211	-0.170876538477427	-26.0924664468345	-15.0549816851327	-122.250223610901	
857600000	-15.0331635673895	-110.42285775397	-0.160717964831876	-26.2799932267366	-0.166752541491558	-26.132957412192	-15.0756938278743	-121.989286170021	
860800000	-15.0388919126198	-111.556058701657	-0.15913582779925	-26.2697932202068	-0.179851740119559	-26.1922793896589	-15.0015806052203	-122.396784479423	
864000000	-14.9665898655596	-111.161300969717	-0.163156613155386	-26.3620579389423	-0.171270216985957	-26.3994423332263	-15.010284997622	-122.115020722442	
867200000	-14.8949296023348	-110.703171910941	-0.169197545977855	-26.5043855376784	-0.189386188078641	-26.4563895408374	-14.9515848917345	-122.486893189423	
870400000	-14.9295281049612	-110.732709552712	-0.166620642869276	-26.5436602451435	-0.181564100611589	-26.5526031769309	-14.9684429018828	-123.042862751155	
873600000	-14.8791423834719	-110.850194926773	-0.147342209096141	-26.681616827407	-0.181529842117998	-26.6392662251749	-14.9182520913299	-122.141600032388	
876800000	-14.8472792718176	-111.849617555947	-0.181925205458621	-26.7719475932217	-0.175507516722208	-26.6548076357872	-14.8974019757932	-122.837776666562	
880000000	-14.8645172728046	-111.026529203884	-0.169521579629507	-26.7518407391835	-0.174809354873451	-26.9058510233754	-14.9288118113676	-122.467350036928	
883200000	-14.7841304287319	-111.041652385348	-0.186044499484323	-26.9154738786664	-0.181288125318328	-26.8856095623978	-14.9831850333604	-122.463692533601	
886400000	-14.7760211294072	-111.501764117203	-0.176692683288492	-26.9180117667529	-0.183676315061423	-27.0199367420488	-14.8392134965997	-122.287742977699	
889600000	-14.66839912295	-110.56277311945	-0.160298766133308	-27.1619663015325	-0.183691477052946	-27.1502721942256	-14.8427171060793	-123.31630898649	
892800000	-14.8520494091265	-111.065080741471	-0.189257395717193	-27.164140670454	-0.181200868717834	-27.2228691435501	-14.7697452555238	-123.324259248162	
896000000	-14.6700984840653	-111.243909223265	-0.170440631622984	-27.3918603276865	-0.171869893730515	-27.3614587692379	-14.7374456656022	-122.878561003751	
899200000	-14.7597048706473	-111.858557265715	-0.169933186873129	-27.3550177745518	-0.18219047870432	-27.406315585778	-14.7578892073588	-123.789084950162	
902400000	-14.674111730229	-111.761846517171	-0.17727210193467	-27.5551577587501	-0.182820987401474	-27.5673870684945	-14.6034591121816	-123.81677179126	
905600000	-14.6064193867233	-111.112773770317	-0.174824734680622	-27.6204355717627	-0.19163884787124	-27.544140509524	-14.6178155991467	-123.800960426726	
908800000	-14.6680407913165	-111.023271113082	-0.172886432374871	-27.6310344076192	-0.173265365930731	-27.5859313369142	-14.659490427322	-123.512821384997	
912000000	-14.5933392126859	-111.093180511297	-0.186566103618883	-27.7519910356841	-0.194879386547187	-27.7471180695344	-14.5685619985633	-123.245568275072	
915200000	-14.5803107431425	-111.415090932979	-0.174884097026221	-27.8155028285199	-0.180851312352168	-27.8100814104335	-14.6686991528895	-123.564766809516	
918400000	-14.4889754598135	-111.49965439248	-0.178949158203634	-28.054214761816	-0.197545559722201	-27.9322798879407	-14.5363132691278	-124.234703700678	
921600000	-14.588535201274	-111.714572005945	-0.182278359047173	-28.0877471392205	-0.192594637193095	-28.0868684167237	-14.5534605940835	-124.360338386894	
924800000	-14.4845181857098	-111.753688168914	-0.170152289810403	-28.2193230955647	-0.208937447530313	-28.0860892857674	-14.496190327098	-123.176369174802	
928000000	-14.44545645031	-112.57136227727	-0.193815533480434	-28.2637857122054	-0.20959390601695	-28.2823020862642	-14.4928972949938	-124.215958896458	
931200000	-14.5332927148804	-112.024471372207	-0.193943031102533	-28.3677838372331	-0.198475032716691	-28.3956664512094	-14.4147800951119	-124.606970559209	
934400000	-14.4427018127364	-112.024110478036	-0.186509875472039	-28.4435578574499	-0.204915781394522	-28.4893053013892	-14.4200416290136	-124.830735874374	
937600000	-14.2586935713663	-112.801287384035	-0.199490004042991	-28.5645174315759	-0.196252628462766	-28.5916677424961	-14.2852471702015	-124.764718120188	
940800000	-14.3629635178204	-112.415032803711	-0.19128945726112	-28.6371356516835	-0.190239438934841	-28.6229502599721	-14.3896253049595	-124.959229189736	
944000000	-14.3617918604981	-112.518811593457	-0.196511912993293	-28.6762884178322	-0.212712007879618	-28.732953527648	-14.2992378156913	-125.479723530786	
947200000	-14.3382914491587	-112.357935315109	-0.197647366577239	-28.7399281022577	-0.213160708160712	-28.8209876114115	-14.3446532286125	-125.831098498859	
950400000	-14.3378096714237	-112.474002793801	-0.189954313005467	-28.8959017436257	-0.200401361180194	-28.8775871860127	-14.3561651687125	-125.389335208378	
953600000	-14.2230798227519	-112.573922240339	-0.203670979060397	-29.0971162171483	-0.21489136397898	-28.9641660296959	-14.173173573339	-124.970546839293	
956800000	-14.1798628950597	-112.972437661436	-0.216144326616361	-29.1506349713213	-0.211891324948945	-29.1330099165299	-14.2543548033712	-125.663599560742	
960000000	-14.0781568472906	-112.816413171504	-0.185373100486043	-29.312598987365	-0.208066179908546	-29.1728030071879	-14.148597887268	-125.800315871082	
963200000	-14.1705205711896	-112.802853946991	-0.215993817481585	-29.2525820338234	-0.216869511815664	-29.2073647788722	-14.216106100301	-125.522992306311	
966400000	-14.0777759982031	-113.345080647782	-0.207375948094969	-29.3407393758735	-0.213294272817409	-29.4922724662614	-14.0338880436188	-125.567531460614	
969600000	-14.0859860544842	-113.747636257313	-0.211022115567513	-29.4979082016113	-0.21825947903055	-29.4733696058356	-14.0479258743819	-126.259529642034	
972800000	-14.065231972107	-113.377298969259	-0.202651398358574	-29.5550798050206	-0.21260762844557	-29.596935318234	-14.0910718572157	-126.466858779095	
976000000	-14.060578714294	-113.1196716854	-0.215345577146696	-29.5991775391864	-0.225153818942374	-29.7019032274302	-14.1166164489856	-126.591472640374	
979200000	-13.9921271312671	-113.369717978863	-0.213695562610248	-29.7879591450905	-0.205418169376819	-29.7304791106008	-14.0277909705235	-126.465209295581	
982400000	-13.9501360505549	-113.412769721205	-0.213023751039978	-29.9748733956388	-0.234982676145137	-29.8953422126473	-13.9705636494818	-126.678009224244	
985600000	-13.9533706158768	-113.36933936753	-0.211391530018898	-29.9261588894271	-0.22325043876825	-30.0106595547834	-13.9596594551453	-126.750247841272	
988800000	-13.9123240546669	-114.115673359611	-0.216911988716556	-30.0157635402385	-0.23245086496415	-30.0647268354511	-13.9185510287968	-127.37029897078	
992000000	-13.8669723249501	-113.651212856716	-0.201588805618409	-30.2076414174709	-0.217836979038748	-30.2735494469408	-13.8387807848668	-126.991031204655	
995200000	-13.7613329677973	-113.707380824824	-0.217461803325319	-30.2916555704551	-0.23971021984759	-30.2485986926323	-13.805327311495	-127.093468686978	
998400000	-13.7838575930201	-113.615492086221	-0.2038908582642	-30.3773079040247	-0.232233692163782	-30.2904906333914	-13.8280542924444	-126.890487421756	
1001600000	-13.8207805917634	-113.693116279539	-0.200009779384561	-30.5641629624714	-0.214736813576086	-30.453575373442	-13.8089551271826	-126.878803409765	
1004800000	-13.7956582782839	-113.698946620864	-0.212694346988196	-30.5522437998426	-0.216491132820564	-30.5314629386329	-13.7268261903646	-127.372337557186	
1008000000	-13.7186711167573	-114.212642794992	-0.221995091364773	-30.7462364614654	-0.239159059215906	-30.5709365995249	-13.7680155397637	-127.351635523473	
1011200000	-13.7130631237464	-114.032957110189	-0.221444185166107	-30.8352636256617	-0.230862738830055	-30.7510825579105	-13.7415009266784	-127.865871841419	
1014400000	-13.7062900480178	-114.616695367267	-0.228880378773671	-30.8348774210569	-0.242559303503272	-30.8056994489096	-13.6415529112545	-127.119953191174	
1017600000	-13.6412337677006	-113.835315466403	-0.220023971173858	-31.0486510265736	-0.218749424529208	-30.8678660833539	-13.7048704224702	-127.809706768323	
1020800000	-13.6337721472904	-114.167177258201	-0.21674427536682	-31.0043030391361	-0.231376300396903	-31.0570941538265	-13.6621526833331	-127.770880233074	
1024000000	-13.5823950345969	-114.532555432031	-0.227903689567523	-31.1085023249731	-0.240954932877429	-31.1293116471914	-13.5963856584955	-127.776851988026	
1027200000	-13.5474106410636	-114.858377656252	-0.211991421394015	-31.2644493840213	-0.238807174272405	-31.2256483595025	-13.6749436157801	-128.164822323514	
1030400000	-13.6073024803744	-114.64417613508	-0.226690982237307	-31.1858459651873	-0.235309358642765	-31.1916726133281	-13.6756947762677	-128.302686553198	
1033600000	-13.5641450312358	-114.517529935543	-0.222844756093757	-31.3849438490884	-0.236796855554188	-31.4385533781946	-13.5588965962556	-128.239236863374	
1036800000	-13.5537912568259	-114.571832989429	-0.211900315969964	-31.3887094888048	-0.225432662331674	-31.5227917381733	-13.5839717145285	-128.437345556671	
1040000000	-13.5775803837495	-114.638064725019	-0.229980322485907	-31.5173025027297	-0.234612063527604	-31.5421219994843	-13.5586956834907	-128.86406863156	
1043200000	-13.5008690976036	-114.102918486529	-0.202401244323893	-31.5685859242105	-0.247857206850092	-31.6229849349093	-13.5621010671844	-127.95928530044	
1046400000	-13.5184498991497	-114.810457289241	-0.23026592866611	-31.7956444904175	-0.228624230145543	-31.7750436133532	-13.4271956516786	-128.75686226175	
1049600000	-13.385930375023	-114.235096497951	-0.253277231906341	-31.8889190980476	-0.241802816860681	-31.8998205742948	-13.4949313465382	-128.753702574406	
1052800000	-13.4536064888454	-114.550862416984	-0.223720011004993	-31.9771874733426	-0.256383006789692	-31.9146545480497	-13.4928480325063	-129.350027498276	
1056000000	-13.4439497408939	-114.546908225178	-0.230898411415334	-32.1071249144092	-0.244353955498133	-31.9519701821518	-13.4582167364336	-129.014554173862	
1059200000	-13.4512251338173	-114.728461131813	-0.235747022545646	-32.0978751612027	-0.229084065292253	-32.0028538721141	-13.4226948176598	-128.905632182511	
1062400000	-13.4054314688409	-114.483791518639	-0.222285718820917	-32.1418373785422	-0.243089461355139	-32.1746420827444	-13.4152122129865	-129.044215097098	
1065600000	-13.3588362317317	-114.784698036458	-0.236520828507264	-32.2707395663608	-0.246720609321712	-32.2544589245427	-13.3661179187208	-129.060027848627	
1068800000	-13.3151622151744	-115.04786504143	-0.24419626679125	-32.3452478776256	-0.233363023900522	-32.4276420631779	-13.3352016048404	-129.537130408285	
1072000000	-13.4150915317584	-115.253052513827	-0.256412360544029	-32.4927250987916	-0.240436006068378	-32.5250426105376	-13.3549920301914	-130.503156390897	
1075200000	-13.3055850359897	-114.741397835246	-0.242199882029663	-32.5826709095025	-0.253033681084483	-32.5271502864688	-13.3002253537911	-129.408838688701	
1078400000	-13.2991399458996	-115.185666137552	-0.236000130493061	-32.6373361742603	-0.250624158150228	-32.5805321579505	-13.3208575151963	-129.805640806299	
1081600000	-13.2502292987462	-115.237138111302	-0.233643579528023	-32.6951057324257	-0.25254813193413	-32.7780448412682	-13.2620275423929	-129.4439730769	
1084800000	-13.3732072463671	-115.091587980649	-0.231291520873807	-32.8361939664663	-0.242688166306158	-32.8551158090973	-13.353637374855	-130.166400453372	
1088000000	-13.2243661485359	-115.480366790857	-0.236492854465302	-32.897867683389	-0.257196505490675	-32.9688235415498	-13.2552063030417	-130.453265834189	
1091200000	-13.16735918764	-115.815665587088	-0.250369350268869	-32.9796089525553	-0.260339189808381	-32.983067259346	-13.2849537267687	-130.59739459211	
1094400000	-13.2312281181929	-115.228250523017	-0.251639620728384	-33.1632146468645	-0.258070895130004	-33.0830524244518	-13.2505958546441	-130.705188800722	
1097600000	-13.1559237252717	-115.720398914385	-0.251585827864795	-33.1491924327632	-0.263544974974817	-33.0426448332409	-13.2808735705738	-130.591122168419	
1100800000	-13.1624195227882	-116.061185308647	-0.250544095507642	-33.3596766617302	-0.266938742808854	-33.24550146655	-13.1845845040801	-131.214879440568	
1104000000	-13.1815619201718	-115.569599103956	-0.2521286507942	-33.3264561698353	-0.255371576068871	-33.2820107019851	-13.2086583945488	-130.64954614346	
1107200000	-13.1934725808072	-115.840456102378	-0.256931527848267	-33.3887234169067	-0.240807707520785	-33.4157047246214	-13.2096910526326	-131.282606197793	
1110400000	-13.1265602974305	-116.176317921833	-0.258163765830717	-33.6566377494271	-0.2682073149869	-33.5445383973031	-13.1481313769893	-131.066384420297	
1113600000	-13.0797640502933	-116.256148888037	-0.252618768361681	-33.7293961256375	-0.261945369321565	-33.7147192412738	-13.1061687432383	-131.266593291356	
1116800000	-13.0700912347806	-115.729785741771	-0.256904811955246	-33.7342576587892	-0.255234929400519	-33.7104163448462	-13.1202683563079	-131.088058167958	
1120000000	-12.982282702563	-116.760410277491	-0.2509560662995	-33.8758769140879	-0.27207110757965	-33.8328693700037	-13.0684546408981	-131.643008825271	
1123200000	-13.0054492791089	-116.433915985861	-0.263963380935955	-33.907331998621	-0.268305342165126	-33.9559846929873	-13.0777866059204	-131.537461861756	
1126400000	-12.9303583507963	-116.341401255937	-0.279499111287599	-33.9644757196584	-0.275376020764478	-34.0170004945905	-12.998345755287	-132.021000879089	
1129600000	-12.9509679731057	-116.321404030535	-0.269825707782045	-34.0617184529687	-0.273947511741659	-34.0614811630593	-13.060934661111	-131.631494994522	
1132800000	-12.9680661656667	-116.527341590764	-0.245526521128044	-34.2430798239389	-0.281879563412106	-34.1272198811799	-13.0238274910786	-132.533725821023	
1136000000	-12.9276468967324	-116.328196212798	-0.254669251064349	-34.2601950773854	-0.259099327649531	-34.2893927914036	-12.9835523754085	-131.868547311117	
1139200000	-12.9356458520054	-116.805505789124	-0.26935972984752	-34.4327668258863	-0.264289620446219	-34.3879559897738	-12.9375295224603	-131.928087711339	
1142400000	-12.9298504739689	-116.784358473347	-0.265189918402807	-34.4262351826681	-0.269473180387635	-34.500565783928	-13.0014398327541	-132.683497746241	
1145600000	-12.8215813688463	-116.768182545198	-0.242765212095588	-34.6487173887357	-0.271553537102833	-34.5389972495369	-12.9076489146907	-132.232938499924	
1148800000	-12.7837696082137	-117.009894824384	-0.27241955098188	-34.7988376586481	-0.27621048656205	-34.7485144978137	-12.8456957386664	-132.733676845904	
1152000000	-12.7739407877961	-117.221114966757	-0.266512944925351	-34.8261264770304	-0.266246125294599	-34.8159769175165	-12.8671198514343	-132.693769144727	
1155200000	-12.8027126605193	-117.269990799021	-0.26637939074459	-34.9229240119537	-0.280356115601089	-34.9214284394616	-12.859619041246	-132.713777388982	
1158400000	-12.7129799592559	-117.360988549874	-0.262007773445228	-35.063413984605	-0.269168732050996	-35.024070081385	-12.7933864575862	-133.314277543707	
1161600000	-12.7560921524381	-117.591044453239	-0.255579301563758	-35.0957920679222	-0.290806530891909	-35.0503462830235	-12.8214130123829	-133.302766812998	
1164800000	-12.7231259049945	-117.571996749424	-0.267088671925943	-35.090643259366	-0.284553618526801	-35.2148675701861	-12.8162180402655	-133.295170174797	
1168000000	-12.6841896550375	-117.652296404426	-0.278379116622717	-35.280088592082	-0.287105048620731	-35.231220863625	-12.7009596086911	-133.090547566159	
1171200000	-12.6726270010618	-117.513789030081	-0.273517234238932	-35.3796425706353	-0.292761620031091	-35.3650654085223	-12.7431623504058	-133.281642726277	
1174400000	-12.5631713155483	-118.003422614593	-0.289530281976799	-35.5367654725994	-0.291621792801268	-35.4973446492876	-12.6492776369235	-133.279254387523	
1177600000	-12.594136733584	-117.760951689049	-0.286116815684405	-35.5463924670593	-0.292669313512284	-35.630314421832	-12.6037376760504	-134.005084717366	
1180800000	-12.6072634693857	-117.874252812089	-0.278364406717561	-35.7205806921801	-0.290946862811759	-35.6153458306353	-12.5871497415119	-133.288678178492	
1184000000	-12.59087587993	-117.614592193598	-0.274929940890034	-35.7407515157102	-0.284736218358585	-35.7144931289898	-12.5860842370797	-133.728743479535	
1187200000	-12.5394354079417	-118.158685670208	-0.282705761565807	-35.9719767496074	-0.294632655252883	-35.9778977946119	-12.5951066957263	-133.843040232549	
1190400000	-12.5391918805246	-117.861901886991	-0.285113402667675	-36.0393277157836	-0.284048547352558	-35.9609655727052	-12.5613602824958	-134.503894679025	
1193600000	-12.4129094484298	-117.967113736295	-0.271242347826132	-36.0844434613233	-0.277007849549765	-36.0383734590942	-12.5053307567039	-134.116166947198	
1196800000	-12.5469894308196	-118.668608599501	-0.281204905492126	-36.0770259621944	-0.309237188066002	-36.1723363213657	-12.4699410775838	-134.599530444666	
