!Keysight Technologies N9950B: A.12.38
!Date: Thursday, 18 May 2023 16:45:51
!Timezone: (UTC-06:00) Central Time (US & Canada)
!Model: N9950B
!Serial: MY61131330
!GPS Latitude: 
!GPS Longitude: 
!GPS TimeStamp: 0001-01-01 00:00:00Z
!GPS Seconds Since Last Read: 0
!CHECKSUM:0041092214
!Correction: S11(ON U)S21(ON U)S12(ON U)S22(ON U)
!S2P File: Measurements:S11,S21,S12,S22:
# Hz S DB R 50
800000000	-51.1357443049235	37.8035787978186	-0.0112094407243662	-14.6798616949368	-0.037587928392257	-14.6811996828927	-58.2617811497679	62.0010096561516	
803200000	-57.4307673617961	-12.0120134386584	0.00021842535435467	-14.6727424231052	-0.0276675576336129	-14.8096939907083	-57.1043428788225	118.557716837555	
806400000	-59.8697803598238	177.933429318701	-0.0201882986040647	-14.679943393026	-0.0227382845811037	-14.8483627121168	-53.9888552289885	38.2400720992181	
809600000	-49.5803093858794	6.54503384225838	0.0106220319432021	-14.8468825104345	-0.00773011930231924	-14.8667379646541	-52.6301038647055	-33.5857634540439	
812800000	-60.7642414073603	-28.0346784232378	-0.00899862650890325	-14.9987585504956	-0.0177310701094881	-14.9068085062867	-56.2407681367604	13.3525265271715	
816000000	-59.0545413215412	-153.469983405194	-0.00561772428050062	-15.0176321059504	-0.0267258195466318	-14.9875852029245	-58.9502798818053	-6.66822620221396	
819200000	-61.4589055885379	23.7148586825118	-0.0123563928372469	-15.0866156546348	-0.0223893551065248	-15.0255575946651	-61.2558443564192	-36.9763743653715	
822400000	-59.1022869999919	97.4492304955051	-0.0115145759792804	-15.1251981606301	-0.0308623015702952	-14.9865668772681	-49.51303337583	28.6261271236987	
825600000	-52.1214691059921	-24.7230638238982	-0.011959109447749	-15.1040719134674	-0.0288478768376502	-15.1038400875159	-48.54338517924	9.42667184726082	
828800000	-54.4016974555656	16.1936258688667	-0.00936717401683335	-15.1602982606794	-0.0127031985342702	-15.1190664767206	-61.9864785137463	32.8551365787493	
832000000	-58.3187449184062	-18.7989957099152	-0.0126169958246062	-15.2793078360802	-0.0197832099782793	-15.3144404261995	-53.6879971373912	-5.27303710853832	
835200000	-56.5801260766844	162.384006333833	-0.0194724903577842	-15.3776513672579	-0.0333737797720842	-15.3062755891267	-55.4736314316539	-19.095647975793	
838400000	-62.9118665123747	174.343514838777	-0.00728553417188021	-15.4099143227355	-0.031066456080064	-15.3967302937062	-56.6138742361156	52.6404593515516	
841600000	-55.4156234300942	108.90910744539	-0.0192837797238192	-15.4458835612869	-0.0240980070985972	-15.4034936485015	-56.6238269471249	73.3022655627689	
844800000	-56.2811987048177	-39.3361120079451	-0.0159970249131368	-15.5312820304106	-0.0180059271571825	-15.5415407737511	-70.9714074663994	-24.8217068803297	
848000000	-53.1966352590914	79.8487263818322	-0.00531228646553556	-15.5932575893149	-0.0232645146842341	-15.658004927859	-66.5325128219599	-70.807947110059	
851200000	-60.5588452506696	39.0205146412621	-0.0119204402067898	-15.5928555550241	-0.0212154969216548	-15.6158820042715	-57.6265530924196	70.2170417371897	
854400000	-63.5045453261519	79.2489985077317	-0.00347497852594317	-15.5941227671551	-0.0166606067521525	-15.7101848313285	-74.5770675886358	11.6078109597213	
857600000	-60.3174758556449	-19.0054417192132	-0.00239139998816087	-15.7406951172333	-0.0203790216539899	-15.7419099638477	-59.9465553762984	58.6882874846233	
860800000	-54.0008808120862	143.712559863118	-0.0110830311778273	-15.8379914767961	-0.025235134473127	-15.7720516545183	-62.9154104109583	69.8940354287311	
864000000	-60.9114195951474	-177.393706526277	-0.0100897624964109	-15.8040105779028	-0.00916452013911967	-15.8849838481927	-55.7812898032069	0.860115307471483	
867200000	-59.0411821210078	-44.7490201832399	-0.00873267083511011	-16.0403506524896	-0.0311552494581706	-15.9793221326732	-63.682573026065	67.5555643358642	
870400000	-58.5751814816888	36.7472252778111	-0.00847310922073775	-15.8907082042867	-0.026468868254273	-16.0384546168229	-56.4821266970236	99.4171244025666	
873600000	-62.9899569368435	14.4575498032616	-0.00847255577373118	-15.9736066208851	-0.034208546189149	-16.0335976067293	-56.2457894618936	-1.59763173578162	
876800000	-55.9633636426488	177.432690482663	-0.0284520605887724	-16.095834224689	-0.0261346432000333	-16.0657849698722	-56.8059605854664	61.011926540575	
880000000	-65.8841166639125	65.7105882733764	-0.0120401857752322	-16.1384577725895	-0.0273902520707641	-16.1291661504586	-51.3495251040064	27.3155036168934	
883200000	-62.8663717529023	-80.7991861810841	-0.018993670813216	-16.3057734614101	-0.0346577954691394	-16.1329704949656	-48.873137137722	37.1512287017771	
886400000	-63.2253826176924	-161.336720842287	-0.017067334857081	-16.226248064183	-0.00975538624540159	-16.3049810742472	-50.9309257067297	-2.78246837473469	
889600000	-50.96518611665	-37.5264161777756	0.000610334688322087	-16.3007717753418	-0.030338785931966	-16.3024459721823	-54.8847130036606	64.4230282000815	
892800000	-52.0781262981322	72.3237530806805	-0.0202620163605906	-16.4498552076897	-0.0178485316860055	-16.411906623297	-57.5317087701217	13.9750186654474	
896000000	-56.4775218169292	-36.843081011967	-0.00829700332027737	-16.5277264423674	-0.0201853319797733	-16.4611662245996	-51.8241775197889	0.00481946976768461	
899200000	-56.8983627149659	119.866947952076	-0.00938970068725082	-16.4913644637751	-0.031337711855726	-16.4903364224858	-53.4192797767276	57.9446350149575	
902400000	-58.6177570465182	97.6996486736608	-0.0153776119920304	-16.6266447733472	-0.0193805502382747	-16.5836838907958	-60.4008993095179	-70.6052875454288	
905600000	-55.3436383913179	14.8465395497207	-0.00728254997047974	-16.6449181436702	-0.0252363819987445	-16.6658037999973	-65.0729995029189	-38.7191442537705	
908800000	-50.3224955952427	40.2004693824442	-0.00442823709858884	-16.7153566150463	-0.0189288655548926	-16.5631386404981	-53.6515450755097	16.826838104693	
912000000	-53.3368552653068	22.255512162422	-0.011629850619796	-16.6914630662278	-0.0277012335140692	-16.722295390808	-50.7725855000914	-30.1596765661574	
915200000	-58.6176267587927	32.3894372695492	-0.0165793423812746	-16.75464955948	-0.0123811914868293	-16.7920792363402	-49.6864179369705	26.8842580764138	
918400000	-55.8591695914567	-6.03648174162716	-0.00930644166338212	-16.8772778801794	-0.0343124609016286	-16.7773992122237	-61.2556120768573	26.3596853954553	
921600000	-52.7149247152879	65.9592514649861	-0.0117014182927709	-16.8610729081769	-0.0213023530388965	-16.9580766012618	-54.5262379773854	38.8077099193412	
924800000	-58.2957326880561	60.4608596575261	0.00227270381881115	-16.9779556777438	-0.0344146311126415	-16.9294347211492	-46.6629860208535	-17.0682897156765	
928000000	-62.2149376356229	154.737900672374	-0.0281259090598553	-16.9908460862015	-0.0247114316047204	-17.0909775346717	-53.4906585214971	8.32282048208006	
931200000	-50.6120687135183	53.9983885196656	-0.0104481025287197	-17.085225239968	-0.0208615618392656	-17.0672150622961	-55.2357331084681	13.6439658488942	
934400000	-54.726603161576	38.2868648578831	-0.00352662364351278	-17.003570323192	-0.0251351979956973	-17.2229439916079	-66.519766007159	44.7154032652986	
937600000	-58.3036276342729	-135.039825068537	-0.0093511439393274	-17.1459806154603	-0.00191042077237684	-17.2134575398231	-54.5520618294914	-67.4341722266649	
940800000	-55.6856421149708	89.6339049643987	-0.00504525509093431	-17.244725021809	-0.0142712350042249	-17.3197409141771	-55.530667530993	33.8953760738253	
944000000	-57.3779369735248	61.2931028880247	-0.00114859674213752	-17.3164384308391	-0.0249095178552872	-17.2755473643448	-59.4763261173574	45.5165547455854	
947200000	-55.4202537749671	63.8592073174696	-0.0170656778744371	-17.3912565888208	-0.0250299514202611	-17.3871774317099	-54.5573605075171	70.3271100404447	
950400000	-52.0527264645717	51.4339074887635	-0.011729936958826	-17.388850280357	-0.0301977433504158	-17.4155490772665	-51.1780863318078	48.9914533010496	
953600000	-55.5251500412398	44.3595143532552	-0.0207809322596421	-17.5130036708845	-0.047424279166794	-17.4313247433049	-52.7465542456301	-35.2198586015842	
956800000	-67.4377739635338	18.9556448490501	-0.0201946377205456	-17.5645875287772	-0.0308058368759605	-17.5539112578673	-53.1393370365029	47.1698404825153	
960000000	-66.0303291209603	-51.540465279122	-0.00131248237621137	-17.6070772061287	-0.0350227205754228	-17.6068438739541	-62.2981994061227	16.6661385036006	
963200000	-55.710588442364	53.660724910923	-0.022731972900155	-17.5922531902334	-0.0379677965074226	-17.6733683540517	-50.6468306853216	20.1775913242753	
966400000	-58.7460879980985	140.327639590514	-0.015332692426483	-17.6639418519427	-0.0242914119573912	-17.7217955851039	-52.4534756701321	-43.6436366963319	
969600000	-54.8144275610803	138.670059983169	-0.00715091155530897	-17.8437367555742	-0.0132128230884792	-17.7758670444276	-62.1142179673221	-10.7960426492985	
972800000	-58.0518688987694	71.3756047115448	-0.00817442409620689	-17.826072491471	-0.0186422162156129	-17.897397034003	-54.8174245461717	59.8274924506635	
976000000	-54.2192736977785	60.000028166669	-0.0183933746435547	-17.9295286426673	-0.040732663400816	-17.943824455124	-52.5048326671757	54.4407299550791	
979200000	-58.021078997441	60.5600069224844	-0.0218174848244245	-17.9440741544901	-0.0142396812818433	-17.9355271410483	-54.8421822296918	27.4873366479113	
982400000	-64.3469620448526	-9.58675037538164	-0.019608977733	-18.0041476962786	-0.040931345185968	-18.0378662984803	-57.6335257791077	30.1533796932322	
985600000	-56.594330736953	52.3565069568272	-0.0200763647324061	-18.1204767823649	-0.0293365747832993	-18.0851899394565	-55.7117002149106	17.8688359691748	
988800000	-58.1646811418772	121.831402840655	-0.0148971669211586	-18.1734701549485	-0.02380452152199	-18.1444240882498	-59.4710312346029	118.246404096499	
992000000	-56.8792197136361	71.834199452216	-0.00962037711963059	-18.1840261599941	-0.0240630319989912	-18.2142507341763	-61.5044267310425	-22.1864477968624	
995200000	-56.1906535784719	-71.4602622670845	-0.0277872385426765	-18.2746424544802	-0.0283280260864343	-18.2663880389713	-60.7429023657973	-60.2204187723114	
998400000	-58.3616587380257	6.24531536973726	-0.0129447652998866	-18.3340605049863	-0.0227478688700774	-18.1576948871745	-56.4603333510729	-10.9803779986274	
1001600000	-54.6468172521038	59.3573332911324	-0.000295782957812575	-18.4254026314579	-0.0337955326139949	-18.3362058981094	-50.2460110103837	-4.98213160593962	
1004800000	-54.5819843977665	44.9644285794293	-0.00800372400823716	-18.4667319690217	-0.0158272182210322	-18.4119681603383	-55.3698140354053	-48.0971738258927	
1008000000	-64.0944343013931	130.178770983694	-0.0123140471189985	-18.5576214580505	-0.0324041707409354	-18.3362227211016	-55.0361896848755	-3.95008185955443	
1011200000	-65.9129949227409	15.9031839846354	-0.0111877060708859	-18.5781304554361	-0.0293832173025732	-18.5358325467398	-58.1166963665159	32.2333793741638	
1014400000	-56.8745672342665	149.173697381194	-0.0120164786532112	-18.5667297713521	-0.0308768372591417	-18.5106106573311	-49.8874819045843	-32.9169888882169	
1017600000	-55.1645150507083	-0.528417677542496	-0.0264571372168977	-18.6990349267157	-0.0175690180063301	-18.674480665789	-55.6192755359195	8.41245905327072	
1020800000	-62.6063895394288	33.3219009575068	-0.0201520107295921	-18.66284103166	-0.0329321150312022	-18.6954696321143	-52.9905724426535	-5.3065971215923	
1024000000	-64.1200901655771	-120.035461055782	-0.00616337724930961	-18.7517108983178	-0.0293745332343344	-18.7751634335206	-52.9291489777398	-20.3793439749226	
1027200000	-57.1896343935229	-163.102681402769	0.00247871887030263	-18.8253335524691	-0.032784725900905	-18.8818802103805	-50.5180406315794	34.7919580483654	
1030400000	-59.4024350721194	101.515721511058	-0.0123105076531835	-18.8187590055449	-0.0160576665421184	-18.8504158369232	-51.3588421446581	44.6154196958324	
1033600000	-61.9903315005578	80.3578684648647	-0.00680246817724751	-18.9791901398425	-0.035977030775373	-18.9318647377178	-51.4750869906173	-16.5373809678982	
1036800000	-61.6181039671225	84.5210103929411	-0.00398618751572071	-18.989004118773	-0.0265528548346515	-18.9911252152051	-52.9288260175455	18.2049163008173	
1040000000	-55.1692901268672	67.4411208779247	-0.0153534408989471	-19.0438394915503	-0.0318556770944928	-19.0491753404096	-57.7051364757942	28.8283180580749	
1043200000	-53.8051151980781	40.9451288784879	-0.000404182892739814	-19.1476023282547	-0.0318493584864889	-19.1112175041602	-47.4257267812202	-3.69771013474661	
1046400000	-54.2765715841155	81.3240092483215	-0.0132263292029816	-19.2265901777486	-0.0180717779383249	-19.1788918196063	-54.1640678735812	-55.5410094683426	
1049600000	-51.2343918959826	-28.7350076007256	-0.0148083664085642	-19.3136549794085	-0.032689236112325	-19.2469971021817	-52.9179376603689	-8.37269331518194	
1052800000	-56.5646226227885	25.764951882764	-0.0172497974152204	-19.3585428952964	-0.0495625302315663	-19.2647262891632	-55.6823789233207	37.3288731874499	
1056000000	-53.9509950644198	28.9716519325069	-0.0195664704120832	-19.4383801773159	-0.0326501829250919	-19.3641254260627	-54.0756612297742	-3.61712117652402	
1059200000	-54.6119617402706	55.2476883320885	-0.0270851384525309	-19.3975635437092	-0.0123875744034133	-19.3572231205763	-50.2294422208723	-22.8931716583956	
1062400000	-53.5477201016493	10.7280980664238	-0.0209737709474638	-19.5082794743156	-0.028291148375084	-19.3313869033009	-51.3314150317772	-6.38941711972708	
1065600000	-58.2898131202797	53.9301275397198	-0.0118205442932086	-19.4826213338803	-0.032162652532182	-19.4834840641185	-50.2670698149107	-34.9870461334639	
1068800000	-57.5835661883618	-10.785205960173	-0.0150046787711106	-19.5907906163645	-0.0152141713441349	-19.6126655008705	-55.0503462075235	-35.2429159767449	
1072000000	-52.5416965997513	71.2111201778999	-0.0253295200155411	-19.6998722238195	-0.0293020448453934	-19.7150411832142	-60.3514640345686	95.0398604204832	
1075200000	-55.04311559359	13.3558588969631	-0.0146902841162982	-19.6679300962005	-0.0321336381171408	-19.6278284050968	-49.1261984429672	-31.2780870157199	
1078400000	-57.536543519121	34.1209474361135	-0.0212360242528481	-19.7424629803683	-0.0224002149661979	-19.805674791586	-56.383166909895	0.650497564937038	
1081600000	-63.5566062015439	48.9492556014902	-0.0259867206487831	-19.8466252395222	-0.0342242857987605	-19.8104008357942	-47.5716186028065	-27.4155265460384	
1084800000	-47.9928146840581	48.667744028584	-0.0177424103254374	-19.8357791888278	-0.0238776677003897	-19.9817305424242	-50.2168000594003	13.1420282880559	
1088000000	-60.765065220341	40.0983945701087	-0.0165646371963418	-19.8926392858128	-0.0213195257132605	-20.014658407754	-58.8621963837591	-33.3460991322353	
1091200000	-60.7758145904505	-130.61927583456	-0.0170215777891374	-19.9944972546572	-0.0422711580825827	-19.8645391705263	-51.2422802476961	25.4057569818959	
1094400000	-51.6859085510439	28.8658584783235	-0.0206314375565725	-20.0896387012404	-0.0339436234532667	-20.0165937222258	-56.5002090577582	9.691286902702	
1097600000	-61.1779418199522	-25.4846850383452	-0.0108863811579607	-20.1531752284124	-0.0333762524889853	-20.0376353330119	-49.498691212523	38.3044129904172	
1100800000	-58.7211555296796	91.5194362547776	-0.0206072199049076	-20.2217472910256	-0.0308603749105162	-20.0888696178436	-58.4077407768682	37.4694564966023	
1104000000	-52.6642400103074	44.9407671829949	-0.0224284356724367	-20.1297436700397	-0.0357983013237587	-20.2738840449566	-50.8713768015422	2.00243920343039	
1107200000	-53.5084652041971	62.4171915795981	-0.0121438009963326	-20.265487188571	-0.022712181121792	-20.2960362513361	-51.6919851898153	59.6376706526234	
1110400000	-55.5704940088044	81.4637660416121	-0.0202665129807234	-20.4885525448218	-0.0278051129239127	-20.3167475148895	-53.1880340077072	-1.244370779212	
1113600000	-58.7607876623559	60.862704899198	-0.0102477717659378	-20.5148765296528	-0.0333149378347502	-20.4032004844593	-53.7299156940482	7.82919750440052	
1116800000	-51.7700193654343	25.3385351185479	-0.0163262480527175	-20.4323688098859	-0.0272061876425628	-20.4115787756951	-50.2664854292923	6.35243247548776	
1120000000	-58.5071003432402	170.738481810643	-0.00636074139055745	-20.5732753589738	-0.0257118091066558	-20.4681481207371	-53.684162772001	29.3571687611318	
1123200000	-61.5198715459574	50.3150311320329	-0.031766303043829	-20.56527541911	-0.0302035161219508	-20.579932813999	-51.3145107551772	11.2206744991625	
1126400000	-57.4112702630259	-11.5120290178833	-0.0268734815310718	-20.5301726101014	-0.0305018592521597	-20.6619362265791	-66.8505570059913	32.8945866767109	
1129600000	-57.0567630462429	18.3538286881923	-0.00898113956470726	-20.7135647588512	-0.0313391933291952	-20.6468960306171	-49.9974602915467	21.704103094139	
1132800000	-53.5968108588889	50.3307555537273	-0.0210990633756737	-20.8528563898263	-0.0357193863687545	-20.7569460515291	-54.6780071364647	70.9307892950777	
1136000000	-52.9446618737406	28.5277372931051	-0.0233326021126712	-20.7839794965502	-0.0225119509530186	-20.7516651691518	-50.903617397197	17.725790270941	
1139200000	-55.3385961450934	62.8372605769511	-0.0217076210004211	-20.9185433270757	-0.0328318820351283	-20.8866030374254	-51.2729486449375	7.2154416761261	
1142400000	-51.11344928055	69.6793916529318	-0.0169395886221358	-20.8361221432807	-0.020360699776472	-20.9934094380436	-48.9108818852157	56.3438562643096	
1145600000	-55.0344746389796	31.658464827157	-0.0030480713059324	-21.0081947538576	-0.0310797042943412	-20.963501827115	-51.1614644615822	10.3498702594556	
1148800000	-61.4783454336529	4.33686407403609	-0.0209717273596874	-21.0504101132813	-0.026341745854547	-21.0198748086824	-54.3796000519186	13.6495135587031	
1152000000	-60.7998009190404	96.1140318281825	-0.0171555143205122	-21.1092230741772	-0.0204190433833148	-21.2504576074975	-50.4593837581315	21.2775244943567	
1155200000	-54.7977082654881	59.0137525966194	-0.00833038846990191	-21.0461401617736	-0.031612808974336	-21.1669844583538	-50.7118396439372	20.3949335360239	
1158400000	-61.7762782443495	32.291110546887	-0.0166957114686441	-21.3703137670381	-0.027627281133443	-21.2472491437227	-54.532796666615	51.9994029896936	
1161600000	-54.2248232665111	80.6663952105421	-0.013188855182844	-21.3523731970992	-0.0338074400701281	-21.2146585014878	-50.2209172062558	48.5133674902019	
1164800000	-57.2199199792009	95.6586171075323	-0.00653734389674111	-21.2975952059006	-0.0272556508123671	-21.3419426396383	-49.250630013203	43.3884825388161	
1168000000	-57.9840114164394	80.6582576014687	-0.00874206192602196	-21.424856863056	-0.0257528965798814	-21.4209104881886	-52.6599774877265	2.93404195665658	
1171200000	-57.0684800151902	62.0327262399238	-0.0145306634426578	-21.5532657698213	-0.0343001293485843	-21.4398503067347	-50.2813199131344	22.9344280476958	
1174400000	-61.1296961748004	168.738710006758	-0.0214918590157765	-21.5391425765878	-0.0430910923387488	-21.4565078763928	-51.0021111448483	1.70016924339625	
1177600000	-57.142586488157	16.7311620380434	-0.0155309094877597	-21.5546733908226	-0.0404362141459827	-21.5559205439908	-57.2689784558623	49.9329431176786	
1180800000	-54.4058986714433	76.6379068214327	-0.0301323962468773	-21.6132570755967	-0.0301077072161244	-21.676141753963	-50.8519645888671	-17.0156383076655	
1184000000	-52.2117735139892	42.7507523867205	-0.0171076806572986	-21.7357764457209	-0.0248800624312579	-21.6750858490609	-53.7755812734825	-6.24043389430748	
1187200000	-55.5743916444342	83.6192962759699	-0.0306084828041993	-21.8140357117932	-0.0405332308039134	-21.7306847566227	-50.2287113755691	8.87471247636521	
1190400000	-51.7451584979718	41.9293556538795	-0.02603096584012	-21.8471509743135	-0.0151292080799584	-21.7946548645937	-52.4119068459523	62.8036117726578	
1193600000	-57.1823337540691	-21.2386881501034	-0.00907788225113185	-21.8636760876843	-0.0276825357208751	-21.8602884885924	-51.6949832312797	23.8776131725211	
