!Keysight Technologies N9950B: A.12.38
!Date: Thursday, 18 May 2023 16:50:16
!Timezone: (UTC-06:00) Central Time (US & Canada)
!Model: N9950B
!Serial: MY61131330
!GPS Latitude: 
!GPS Longitude: 
!GPS TimeStamp: 0001-01-01 00:00:00Z
!GPS Seconds Since Last Read: 0
!CHECKSUM:0952326884
!Correction: S11(ON U)S21(ON U)S12(ON U)S22(ON U)
!S2P File: Measurements:S11,S21,S12,S22:
# Hz S DB R 50
800000000	-14.572343720976	-111.544866277087	-0.185328102639932	-25.7727854802713	-0.196742642841415	-25.8470579260304	-14.5735298447989	-120.021583757834	
803200000	-14.4514379138374	-112.001167199476	-0.186417518187533	-25.9267320787715	-0.216442376898254	-25.9971386920631	-14.5086638765176	-120.483708248083	
806400000	-14.4066229623778	-112.689942366632	-0.172794734060897	-26.010356163737	-0.193990326048724	-26.083670040807	-14.5023999774799	-120.099283393975	
809600000	-14.400645659026	-111.260348100488	-0.176242552409913	-26.1609168808883	-0.179805691988361	-26.1070376325064	-14.3613108741932	-119.576852028036	
812800000	-14.336481694034	-112.387663199241	-0.200615190313767	-26.3057041811769	-0.198575180862973	-26.2805772092118	-14.4101093778346	-120.093940073234	
816000000	-14.2768881219622	-113.154546984583	-0.186757800366406	-26.3888628035808	-0.191192504488047	-26.3759760153397	-14.347010880727	-120.393874091128	
819200000	-14.3076276063365	-112.707295593523	-0.183529474484723	-26.4532707209539	-0.196882091055288	-26.4864642048819	-14.2848351311698	-120.531439988547	
822400000	-14.3406584789316	-112.786333999478	-0.205100783396774	-26.5351149972116	-0.204380334061058	-26.4548188551408	-14.3944988342787	-120.161619044436	
825600000	-14.1788987020626	-112.076930607996	-0.189490865788488	-26.6049931578035	-0.200926482472593	-26.5871389065227	-14.3516085216697	-119.833845988106	
828800000	-14.2378743053369	-112.561062130626	-0.183697083968922	-26.7595340161089	-0.194821112980134	-26.7003047066739	-14.2397021828618	-120.896027986483	
832000000	-14.170364325183	-112.820832713005	-0.204180151735236	-26.8842567915751	-0.195549692422149	-26.843772016923	-14.1958354246699	-120.570462836235	
835200000	-14.1766137675628	-113.587868915218	-0.19776031752607	-26.992780346721	-0.205853510763308	-26.952523631827	-14.1601691226366	-120.805674127443	
838400000	-14.1569471638253	-113.509292898839	-0.208998800403619	-27.0246507934955	-0.21337844937215	-26.8881710770271	-14.1790270699176	-121.42507420721	
841600000	-14.1636381807114	-113.619355253592	-0.195060504463762	-27.1012845220957	-0.207636655236824	-27.0697946457116	-14.1862732590971	-121.560894038116	
844800000	-14.0122907131593	-113.141471395022	-0.210552549090288	-27.3000257523512	-0.208386401773876	-27.2005753508471	-14.1072214229346	-121.500081020652	
848000000	-14.1106579946493	-113.622488103272	-0.183715346688613	-27.3325993694883	-0.226211459520776	-27.4401932709525	-14.074760066308	-121.771313515419	
851200000	-14.0646816539633	-113.467751262593	-0.21514854244596	-27.4873990750541	-0.201266997654877	-27.3895419285103	-14.047620718244	-122.008696111712	
854400000	-14.0427598191195	-113.652497058345	-0.212827219854423	-27.488741678602	-0.208302253185574	-27.4975509090225	-13.9873749378895	-122.003449961168	
857600000	-13.9709576486698	-113.530659245433	-0.205878627971086	-27.6526946124565	-0.20163375411819	-27.6740374169946	-14.031892846606	-122.085792105601	
860800000	-14.0082261210443	-114.493019915807	-0.202930631320005	-27.6745023268688	-0.21819698280046	-27.7044536877078	-13.9734622881725	-122.482582441359	
864000000	-13.912433644005	-114.138073667596	-0.204722055555419	-27.802289083805	-0.212354079781914	-27.7967507775212	-13.9539254428782	-121.979316233048	
867200000	-13.8554387298994	-113.828884334896	-0.212177412613002	-28.0012419927383	-0.218679477358163	-27.953870948281	-13.9108678157486	-122.294958318905	
870400000	-13.9053664328849	-113.900882435427	-0.218212670481817	-28.0124540581985	-0.213105109465886	-28.0757537557476	-13.9437454423658	-122.92994001959	
873600000	-13.8749851198151	-114.018517939013	-0.207196810312276	-28.1495875037698	-0.221686214386203	-28.1062856473849	-13.8658483654006	-122.243459700964	
876800000	-13.8180884617862	-114.8810536611	-0.235212927127003	-28.1674232567806	-0.215162040508897	-28.1604298787457	-13.8727116216659	-122.676328305164	
880000000	-13.8358246511715	-114.243460144598	-0.208928723573261	-28.2959952436288	-0.220658757428894	-28.3204038611883	-13.859725835701	-122.374400234737	
883200000	-13.7433413869016	-114.139071952877	-0.208105342645635	-28.4160564901568	-0.224804504544922	-28.3835362156656	-13.9183095147951	-122.405549318071	
886400000	-13.7515898278725	-114.665342092704	-0.23253231626276	-28.4969092569224	-0.214925361814468	-28.5118494234828	-13.7812171521096	-122.245624983452	
889600000	-13.6519312948458	-113.916628104441	-0.203918382129938	-28.6629740070441	-0.220696633518432	-28.6262223913799	-13.7869658959763	-123.123849455139	
892800000	-13.8120070167276	-114.376904187853	-0.226209511354827	-28.6521560580762	-0.218242130579466	-28.6927536897878	-13.7185947437166	-123.02908636288	
896000000	-13.6417800079773	-114.249169807462	-0.204841296749619	-28.8145546849849	-0.213058305198412	-28.7774199744544	-13.6911386237816	-122.653390469108	
899200000	-13.7037111222054	-115.095682576622	-0.212441106034446	-28.7756108705924	-0.239903018296518	-28.8677512142358	-13.7373776625697	-123.472090132983	
902400000	-13.6672362536764	-114.937840333272	-0.228064287438258	-29.0515593288777	-0.226275610333307	-28.9763989921117	-13.5787701698459	-123.390901595967	
905600000	-13.5978711172756	-114.454159476632	-0.228773999437455	-29.1358249803097	-0.229230027998754	-29.0638826465741	-13.582558889315	-123.741754292278	
908800000	-13.6361205169979	-114.317356412424	-0.221173249611363	-29.2415997134763	-0.22589026400972	-29.2259598220136	-13.620038164685	-123.599606985253	
912000000	-13.5374930004854	-114.394907057521	-0.215246573210834	-29.2923143325448	-0.223004913050212	-29.2420216965835	-13.5258239260022	-123.105316383435	
915200000	-13.5575850425499	-114.765627778675	-0.239226761894429	-29.4071428252378	-0.234987782138583	-29.349780743897	-13.6292327398803	-123.451593044345	
918400000	-13.4676734918547	-114.688550154599	-0.21437868045356	-29.4679401800933	-0.234001348320467	-29.4787289672088	-13.4939236264502	-124.073303667452	
921600000	-13.5282007430449	-114.999279463506	-0.23691172498509	-29.6008792565621	-0.242527703006797	-29.5509893754739	-13.5326661040206	-124.087410206022	
924800000	-13.4668187476275	-115.074164241753	-0.228535898632458	-29.7852094702919	-0.244563414161187	-29.7208390738645	-13.454117475219	-123.268058442153	
928000000	-13.404371943249	-115.840619837946	-0.253521742553452	-29.7945118887115	-0.240378375783478	-29.8557148023973	-13.4454089921487	-124.18421045018	
931200000	-13.4558109757657	-115.330721890688	-0.231846189762703	-29.9058846325222	-0.241968923275262	-29.8985004558442	-13.4080784461745	-124.402523127282	
934400000	-13.3962370295108	-115.444393406727	-0.246433687258229	-29.9560349758022	-0.244943935923011	-30.052629329238	-13.3807496410367	-124.687987991164	
937600000	-13.2339086888612	-116.187506662097	-0.253759730973348	-30.1135779162297	-0.237082177647	-30.1546020284101	-13.2312402429059	-124.623714103322	
940800000	-13.3190461736943	-115.883335325058	-0.237987205564658	-30.2165230746205	-0.23314584838421	-30.1943163652407	-13.3442893643601	-124.867445230699	
944000000	-13.3097392411122	-115.883048433283	-0.235365638965185	-30.2807532647884	-0.253907131472189	-30.268974179457	-13.2699568386616	-125.190860893961	
947200000	-13.2842702651066	-115.900567101523	-0.250562518851641	-30.2809024186474	-0.251556737229291	-30.44249550902	-13.3070927073166	-125.544375968114	
950400000	-13.2930752394313	-115.738014804261	-0.24335350279567	-30.3976103311793	-0.259862811679217	-30.4669827374333	-13.2992476142921	-125.221348737576	
953600000	-13.1813204561042	-115.998134036416	-0.262155880900638	-30.6029217320729	-0.267030000358801	-30.6490997863649	-13.1422111367019	-124.952669622936	
956800000	-13.14114262904	-116.328019159522	-0.263169749794358	-30.7176515460593	-0.262585286951274	-30.7696458461161	-13.221062036929	-125.523399302782	
960000000	-13.0540313207695	-116.387851984292	-0.242218915247034	-30.8781517459176	-0.253384567966019	-30.7325172828865	-13.1338198438515	-125.568280958766	
963200000	-13.1288773788838	-116.239784738962	-0.268313731142279	-30.8285226739267	-0.264876412904735	-30.8245091348214	-13.1666035006419	-125.43528490919	
966400000	-13.0348477600151	-116.66971669571	-0.258311733073815	-30.9088850195485	-0.259764068067701	-31.0610001742545	-13.0097835742403	-125.389490155034	
969600000	-13.0297226235484	-116.926844187088	-0.247927965444751	-31.0447157074155	-0.256585420040579	-31.1738589063317	-13.0153201460768	-126.133492877437	
972800000	-13.0256907068593	-116.835281084441	-0.250670483298174	-31.1765787753886	-0.248075078810282	-31.1677682067633	-13.0468653669474	-126.201254620427	
976000000	-13.0013611697675	-116.602308002145	-0.242266538423332	-31.3133718313842	-0.268559928609731	-31.3293387549922	-13.0521881779918	-126.380169587108	
979200000	-12.9501412218002	-116.772823701398	-0.264785691681331	-31.3138143192888	-0.272568113897996	-31.3587790539687	-12.9854997988254	-126.177407020724	
982400000	-12.8959808251291	-116.854008547466	-0.252858484761394	-31.4614924193301	-0.281854940524937	-31.5410204128931	-12.9206674200517	-126.555256555086	
985600000	-12.9168395130765	-116.942548212383	-0.2589499770527	-31.6255013378936	-0.278433062032474	-31.6242222749183	-12.9233553478879	-126.474788252411	
988800000	-12.8866991868797	-117.609990592082	-0.278574327315651	-31.5904508865513	-0.27079292852691	-31.6550504012235	-12.8662742608339	-127.046156726251	
992000000	-12.8513684174739	-117.278253719965	-0.269094609808325	-31.8888135839961	-0.272391370859421	-31.9422755901399	-12.8101229700229	-126.824966539252	
995200000	-12.737210248367	-117.118347882278	-0.28757834403033	-31.9157329415054	-0.276992185900096	-31.944423027515	-12.7631233358766	-126.92694545905	
998400000	-12.750574660999	-117.141196230758	-0.258283086269532	-32.0863963837846	-0.295657183939657	-31.9474347701459	-12.8094772524543	-126.600923493174	
1001600000	-12.7977903232218	-117.19742238713	-0.261495713683186	-32.1740287904445	-0.270867351047668	-32.1055882504401	-12.7828586537209	-126.742691613442	
1004800000	-12.7793462199503	-117.240663340943	-0.272193669551198	-32.2235381240343	-0.268194170588691	-32.2069390174937	-12.6993175392905	-127.296271707001	
1008000000	-12.6843024575276	-117.675336100362	-0.273633765490952	-32.357918518592	-0.284047757612507	-32.2287892030455	-12.7138442072866	-127.186002921375	
1011200000	-12.6785938074285	-117.541778646352	-0.273373298723464	-32.4353553590628	-0.272596932139092	-32.3302929293174	-12.6947108377481	-127.542407863145	
1014400000	-12.6752202176887	-118.096900112934	-0.278118318737016	-32.5135646327523	-0.283553161630838	-32.5054976312243	-12.6302798730508	-127.034119825722	
1017600000	-12.6260335146304	-117.358753372068	-0.28156892335753	-32.7132681914047	-0.27221047670498	-32.6663214220209	-12.6775568879099	-127.711245400394	
1020800000	-12.6277918987109	-117.690152715307	-0.278257855939135	-32.6756103509357	-0.295497735760922	-32.7193435618109	-12.6432625381535	-127.518968344092	
1024000000	-12.5551088736331	-118.0689389834	-0.283052180404326	-32.7618872554407	-0.293396077775543	-32.8165045435808	-12.5671972639335	-127.670843455349	
1027200000	-12.5370670167775	-118.244597671196	-0.275922054410347	-32.8181154393673	-0.293361837947806	-32.917576479491	-12.6376409097487	-128.063733891416	
1030400000	-12.5706308900059	-118.248540564532	-0.277619914582418	-32.9400283847454	-0.282404600930495	-32.9084507402223	-12.621033341262	-128.065082058076	
1033600000	-12.5210837013791	-118.134829671088	-0.270534843381408	-33.1466774116922	-0.2967792003889	-33.1180926937993	-12.5270539445772	-127.993439453201	
1036800000	-12.5410517988861	-118.271258069117	-0.277967218395199	-33.2116317260362	-0.30172635921862	-33.2560143851713	-12.5812505787177	-128.268792363574	
1040000000	-12.5479674303832	-118.263529120068	-0.284182573524202	-33.1699966748956	-0.287282100064545	-33.2717174906579	-12.5327441770212	-128.669572673435	
1043200000	-12.5025717828917	-117.921279257722	-0.270135125415952	-33.337495041831	-0.294338130634931	-33.3320863471395	-12.5055771737291	-127.869214414652	
1046400000	-12.5026863271393	-118.523469049604	-0.289815417169851	-33.5941103121788	-0.288529656683326	-33.5277625018804	-12.431613964498	-128.808316649906	
1049600000	-12.3712332123726	-117.842500559386	-0.298208712895197	-33.5554445710597	-0.290618499369359	-33.6542345383016	-12.4647479960705	-128.712202306998	
1052800000	-12.4454497042089	-118.226508546122	-0.286724422506149	-33.7264727992941	-0.309246661600237	-33.6052433358157	-12.4566043894863	-129.087406774184	
1056000000	-12.4325659328735	-118.215851051094	-0.296699926689579	-33.856877357121	-0.290454600076807	-33.72169832782	-12.4140681500243	-129.018075234102	
1059200000	-12.4346409899657	-118.386922981049	-0.291996694499376	-33.7849665971954	-0.299767169746572	-33.7733777141898	-12.4129375019585	-128.845505353224	
1062400000	-12.3728128932141	-118.267634064604	-0.272007764694978	-33.9652722523276	-0.301869504315627	-33.8456350762854	-12.4108934369398	-128.923185253313	
1065600000	-12.3305627095391	-118.540653622152	-0.291540262680156	-34.0702309762428	-0.298732082656552	-34.0965070174635	-12.3338126811665	-129.109535970986	
1068800000	-12.3028047044972	-118.618233684809	-0.299898467496789	-34.1102916892806	-0.295958912872332	-34.0860757094438	-12.3136459459924	-129.234508147487	
1072000000	-12.384386872552	-118.916398601421	-0.296713872567602	-34.2513675600401	-0.307004102529211	-34.2165736538065	-12.3640131108012	-130.097550950714	
1075200000	-12.2957363530519	-118.536496316385	-0.30819970279147	-34.4039246652409	-0.321787376045185	-34.2576883471344	-12.2866120475848	-129.23117352331	
1078400000	-12.2759861725292	-118.875880764382	-0.290186199422091	-34.3284479846223	-0.300967602101987	-34.4313649595847	-12.3028433496155	-129.718752987261	
1081600000	-12.2510719165699	-118.994863123163	-0.290402297014374	-34.5134160380327	-0.315698264813987	-34.5628259967537	-12.2642449313219	-129.415954438998	
1084800000	-12.3493248675124	-118.734203300691	-0.290361814983988	-34.5680937381024	-0.314235358855209	-34.6566530207996	-12.3247439567185	-129.920554565176	
1088000000	-12.2204266413898	-119.344748997536	-0.296239227617995	-34.6937427420396	-0.299469197763143	-34.7798302999115	-12.2216589232022	-130.277866572195	
1091200000	-12.145951493851	-119.613059677498	-0.305492275334322	-34.7593036371921	-0.320412884837205	-34.7066312856747	-12.2760781121866	-130.227844782847	
1094400000	-12.2295555726308	-119.106844318267	-0.317647041368735	-34.9527051900568	-0.312491516766994	-34.8519596383014	-12.2270868149645	-130.490026875997	
1097600000	-12.1416690202137	-119.486554069146	-0.299859148864463	-34.9309120413136	-0.327072593088445	-34.9663549807651	-12.2428591313866	-130.440069656442	
1100800000	-12.1632968791661	-119.746293040697	-0.316149257356768	-35.0770514859388	-0.324098520463091	-35.0557018852768	-12.1842506981682	-130.910663912382	
1104000000	-12.1586817473117	-119.713329490217	-0.311305607960557	-35.3056275202357	-0.313526148866093	-35.1167891023191	-12.2027785262027	-130.521868397951	
1107200000	-12.1724665698738	-119.745126568506	-0.311334863893573	-35.2288674152361	-0.314523631172748	-35.2541806172298	-12.1745133603012	-131.022286179515	
1110400000	-12.1318362481683	-119.960179365318	-0.32247799409797	-35.4298138066458	-0.335546443373752	-35.3355820323707	-12.1463602400304	-130.754421994411	
1113600000	-12.0853709238442	-119.970689709248	-0.3279352586802	-35.4225181566613	-0.319698981396263	-35.4825222241756	-12.0877651664016	-131.079677423986	
1116800000	-12.0745580531386	-119.632966223458	-0.313049920395663	-35.5594462909525	-0.31876782785451	-35.4574371980895	-12.1101297835247	-130.735453594037	
1120000000	-11.9858701219889	-120.548746117189	-0.321801633201861	-35.6215408343513	-0.329117644186294	-35.7018220998055	-12.0733419117423	-131.505060462264	
1123200000	-12.0123446652003	-120.336190948848	-0.326421074868202	-35.73826112865	-0.319599817377745	-35.8002785275138	-12.0676767970757	-131.173762657009	
1126400000	-11.9321854694103	-120.230503207234	-0.337366648206925	-35.7936327968141	-0.341108228633169	-35.9087020251963	-11.9909328217929	-131.693958556046	
1129600000	-11.9407201859221	-120.230765251176	-0.327157771640303	-35.9194672296174	-0.334958611678907	-35.8515511248742	-12.0477818571641	-131.277332709516	
1132800000	-11.9813245042218	-120.421029196506	-0.320847134968849	-36.0840504917403	-0.333203372738926	-36.0159806543809	-11.998580699003	-132.204145717462	
1136000000	-11.9375994914421	-120.390755866572	-0.324862066012647	-36.090769262358	-0.324900983852944	-36.1196918095977	-11.9707226908664	-131.576751519491	
1139200000	-11.9443136306325	-120.79139398409	-0.334008269663785	-36.2051161150743	-0.338276494470636	-36.2759953120835	-11.9549215860663	-131.724832234415	
1142400000	-11.9649022410051	-120.836494651954	-0.342731143200988	-36.3306953186922	-0.326394997509203	-36.303708760162	-11.9860158809143	-132.272710293775	
1145600000	-11.8405058038898	-120.668011458181	-0.319690178793968	-36.4770304297023	-0.334641867188449	-36.4895452477574	-11.9038604727255	-132.16847234928	
1148800000	-11.8052760333738	-120.836166132953	-0.331256082975608	-36.5209796257008	-0.344143608644666	-36.6141597885316	-11.8463574303645	-132.37046284599	
1152000000	-11.8022237922066	-121.289044193141	-0.341757608903947	-36.6104981568113	-0.338771029248073	-36.7783258274452	-11.8792699466059	-132.302771093132	
1155200000	-11.8032082416895	-121.289142422954	-0.31953200346858	-36.8131423790971	-0.340846663997524	-36.8062151476837	-11.8346622357183	-132.397982950998	
1158400000	-11.7508162992065	-121.400853847863	-0.340313787621596	-36.9476171907333	-0.352627701027589	-36.8063413440069	-11.8036835323235	-132.891248143743	
1161600000	-11.7732254959515	-121.796400493066	-0.334602950343469	-37.0072454586502	-0.346830286365842	-36.9197009824049	-11.8037947307166	-132.854600954379	
1164800000	-11.7265907307069	-121.728683742438	-0.326904691612798	-37.051109310559	-0.345857111115686	-37.0535299037811	-11.7801826737416	-132.800517903997	
1168000000	-11.697803697938	-121.813752624632	-0.344521876722018	-37.1617386574915	-0.345025680934179	-37.2322062939239	-11.7011503920243	-132.867324952199	
1171200000	-11.685021120843	-121.733924473099	-0.353554767482266	-37.3214518620412	-0.361987536352991	-37.2988279212416	-11.7458576656527	-132.898336839268	
1174400000	-11.616380460284	-122.079243273405	-0.373173195061389	-37.3903793687883	-0.369086582095261	-37.4011493632163	-11.6560645412323	-132.904327754515	
1177600000	-11.6081894596595	-121.944718688112	-0.35656604237569	-37.5250698898652	-0.363733170783948	-37.4543155492769	-11.631473288636	-133.363108517462	
1180800000	-11.6213949174808	-122.125350959034	-0.349246068019456	-37.6263543353782	-0.355886986993342	-37.5360283558484	-11.5937431157247	-132.987543055203	
1184000000	-11.6042891932112	-121.845987474153	-0.348668880884049	-37.6798059991975	-0.353052427300286	-37.7494174276726	-11.5798164147779	-133.435689204334	
1187200000	-11.5736154883722	-122.343298990333	-0.362739867538075	-37.8824642949399	-0.364217992527764	-37.8153418855348	-11.5725293538714	-133.395092283545	
1190400000	-11.5810237462827	-122.091358178242	-0.359014272184768	-37.9537733577595	-0.358342927282447	-37.8410822052574	-11.5615376275146	-134.040806916294	
1193600000	-11.4617280381578	-122.1002750243	-0.355304040965189	-37.981175950323	-0.353781445300888	-38.038303375829	-11.5278854773525	-133.784471392862	
1196800000	-11.5565746371321	-122.837579049491	-0.364780584327829	-37.9948916985369	-0.357195386205174	-38.1791850265063	-11.4303973132466	-134.105241991458	
