!Keysight Technologies N9950B: A.12.38
!Date: Thursday, 18 May 2023 17:07:59
!Timezone: (UTC-06:00) Central Time (US & Canada)
!Model: N9950B
!Serial: MY61131330
!GPS Latitude: 
!GPS Longitude: 
!GPS TimeStamp: 0001-01-01 00:00:00Z
!GPS Seconds Since Last Read: 0
!CHECKSUM:1787427054
!Correction: S11(ON U)S21(ON U)S12(ON U)S22(ON U)
!S2P File: Measurements:S11,S21,S12,S22:
# Hz S DB R 50
160000000	-69.3790627282218	90.2338622972213	-0.0134455433736265	-25.8605390452482	-0.00435447951594021	-25.8253477461367	-49.9463957680446	68.1547306275335	
160640000	-51.5538798758916	19.0193555654599	-0.0112843078611366	-25.9160647170235	-0.00674157977545064	-25.8831455921215	-50.4200614906938	24.3485549920878	
161280000	-50.1947472271208	39.2478300607289	-0.00531214779965513	-26.0202771632457	-0.015607732042519	-26.0670294840277	-52.017584803273	26.8740740821228	
161920000	-60.9800778742364	21.5876941114589	-0.00829516981097659	-26.0738540751833	-0.0136408131586785	-26.0835421533692	-53.3483818565456	86.3444779847803	
162560000	-59.310802066231	-26.7691221492046	-0.0169894494762191	-26.3435280033026	-0.00604434815386078	-26.183317948631	-52.7748350640277	46.641725540202	
163200000	-57.9570707352951	6.2710647896967	-0.00966729551806459	-26.3839019431436	-0.0218781457062653	-26.3953885558406	-53.6635250541961	80.5644372332424	
163840000	-54.7855421529185	7.13500659661014	-0.0253335991217481	-26.3933051626399	-0.0246651299202839	-26.4223503856561	-50.5681749639189	16.0592852161204	
164480000	-55.3266944656855	58.7021619282502	-0.0341431901296986	-26.5137370092959	-0.0131882874573123	-26.6188305173814	-51.6153883583119	41.8545513472698	
165120000	-50.3374635695263	13.1108350717466	-0.00104234914802853	-26.6327253452548	-0.0154389701589402	-26.6225614513303	-50.6588609845923	28.8158260569455	
165760000	-59.6613361290644	-0.873073420980014	-0.0112656520650272	-26.7277349361086	-0.0185690693036118	-26.7938380141245	-57.7279224251928	20.144146974246	
166400000	-55.4343283395876	46.7576944296958	-0.0169013452274361	-26.8036570123129	-0.0086421240031765	-26.7477504669292	-52.5243916316187	42.9883737150636	
167040000	-51.2983176657419	41.2761580422711	-0.0122104485578169	-26.9213293871262	-0.0182624607058651	-27.0531442105719	-53.7327428171157	28.4203380664287	
167680000	-55.4488898085214	-7.91171964401356	-0.0143099468921231	-27.0795681788905	-0.0118959955141745	-27.0414259148716	-54.2467547480731	10.2390916950676	
168320000	-57.9505713457135	2.27918081960405	-0.0177463075698915	-27.1273383844555	-0.0159314548331064	-27.1218501591428	-58.4032272388719	107.132634663241	
168960000	-49.5905180169505	34.8630867325801	-0.0317205788964493	-27.2531900996057	-0.0127628161911148	-27.2172176842876	-51.6194240450607	34.3187935267596	
169600000	-52.9493075177195	24.523131733937	-0.00312430322240491	-27.4043480360481	-0.0251883826527544	-27.2116126889008	-69.7165722114949	36.9137658587829	
170240000	-58.9831665802287	67.2718385016128	-0.0151304841197153	-27.4178277030424	-0.00609208048595614	-27.4479851547147	-55.3450516143242	52.4996617706867	
170880000	-72.7591371150939	117.492179611807	-0.0152235171928236	-27.4437633662637	-0.018910486151436	-27.4536876238439	-62.5308091211999	50.0523882734704	
171520000	-59.8263645277083	31.6649432543489	0.00117957202413453	-27.714745821203	-0.0104526961632554	-27.7050455039046	-49.4120840216255	51.4924799624259	
172160000	-50.5053308265585	10.8274351464476	-0.0292436554640067	-27.7509997309963	-0.00617284141013278	-27.6747284244032	-52.7621118901685	69.9051676467798	
172800000	-54.9064743325781	-22.3901302938412	-0.0106012211559025	-27.8535178759338	-0.0348710812124752	-27.8129161931927	-50.2385226021812	-3.77223638290121	
173440000	-49.3565475822318	12.4612006188643	-0.00183361835999302	-27.9701678334037	-0.0028588902609512	-28.053352268616	-65.0051963138971	44.1375347259559	
174080000	-51.701996133603	-12.4763697943946	-0.00968185574867507	-28.018861175019	-0.0154091543048157	-28.0048142175855	-52.4900164068451	-7.51297023059726	
174720000	-57.0483359488639	15.0832835328283	-0.00381596884677909	-28.0848688720504	-0.0194680071108488	-28.2415120213491	-55.6768282468154	48.3804738655879	
175360000	-54.7348568401106	30.6638306375165	-0.00694694834657133	-28.2743613861036	-0.0127218807886156	-28.2599648223023	-49.5030233111976	49.3885783313012	
176000000	-51.3210274054911	22.7361555114137	-0.0202068586098318	-28.3176436507884	-0.0151283888265131	-28.3285115674413	-57.9974303171554	-10.6957949779766	
176640000	-53.4069307510411	57.9771727251058	-0.0217787692644277	-28.5408695497208	-0.0140455148853398	-28.5001610995529	-53.5649733808583	70.9984128077527	
177280000	-59.0770160232664	-6.26617547074578	-0.00716156945350831	-28.5712275150431	-0.0201505971391866	-28.5693756807989	-48.3413527680765	14.2187134096008	
177920000	-50.4824183672651	11.0013065082731	-0.00861351768607067	-28.6774172105893	-0.0176866914473498	-28.6696442811793	-51.3722779826522	52.9313916684508	
178560000	-56.8002224077195	42.2206317392069	-0.00580836645120779	-28.6861250728868	-0.0174065804528619	-28.7351403275954	-52.0538047174282	67.2761543906493	
179200000	-52.4652275287075	39.6563617880836	-0.0134089494604736	-28.9582206542712	-0.0250082433967079	-28.9611332229142	-51.4169407908921	15.0781224594522	
179840000	-60.165975882041	-39.7761512783035	-0.0281304789602586	-29.0224322330461	-0.0215722452714432	-29.0313327445985	-68.1203085914669	-115.170050244516	
180480000	-54.5544934766001	32.8959281378765	-0.00492981484543082	-29.1278791579875	-0.0222916021305008	-28.9830042056511	-51.894392975304	9.89421863269945	
181120000	-52.35610726398	-1.22812394873975	-0.00281895243977905	-29.2630870817948	-0.0244459621772481	-29.2137273838599	-52.2355632852382	-2.91100631546587	
181760000	-54.7461774786567	9.14169334508485	-0.0130562134267073	-29.3194403519132	-0.016012257105129	-29.2503347104755	-59.7821972909836	71.1344997845727	
182400000	-55.3149283525164	32.4732560564085	-0.00502761049058875	-29.461509138404	-0.0187251215983131	-29.3938940513126	-51.5129447765307	-25.1927133882404	
183040000	-56.3748286803141	14.1935678379363	-0.0125847385844969	-29.5107988819048	-0.0113513383939885	-29.5630446989338	-53.0014607221677	6.77820911142564	
183680000	-50.3586765384024	5.52704400624098	-0.0147910747587581	-29.5298599390349	-0.0106178653164578	-29.6008665875501	-54.7823422466549	-52.7476829161227	
184320000	-48.9922912220347	3.80905366221202	-0.012769982822462	-29.6824712463535	-0.0234522625576148	-29.7117034657917	-54.4614498376559	6.09085620333568	
184960000	-51.5756279037469	27.2230858956738	-0.0310140686658128	-29.8412754634891	-0.0200768372199328	-29.847088611076	-51.7100234865584	5.15209837628528	
185600000	-47.8437686197962	26.7756843078702	-0.0178721718391222	-29.8092200901799	-0.0180597872338101	-29.8682887179219	-47.6156242302213	53.1364301155384	
186240000	-61.3258465726712	-1.92395570870451	-0.0263592148279303	-29.9669543408048	-0.0217744624789672	-30.0276988002949	-51.6150610932834	46.6530881280786	
186880000	-57.6262928260722	31.4758965725109	-0.0195879700486594	-30.1470646021106	-0.0209953420382601	-30.2131924185537	-48.4228402449444	15.4510596051315	
187520000	-79.0703411863093	-135.71945376547	-0.015045895999057	-30.3006668465417	-0.0100198485307474	-30.287733131465	-52.6250413082894	-26.7737461300609	
188160000	-48.1055963796891	19.1528131595723	-0.0124886878524053	-30.2393870531341	-0.00365290856405824	-30.2624926579438	-49.0693314117497	7.89902986206164	
188800000	-51.2250728702988	-25.9884299594638	-0.0216042263727961	-30.4409123765637	-0.0178598101241372	-30.4847657658109	-60.206171150619	61.5180672157862	
189440000	-51.1264732243087	17.1834490973854	-0.0202877853052734	-30.5776411909787	-0.0097850975972907	-30.6297090753394	-51.6392440553357	32.4875636120832	
190080000	-53.0908174210609	20.3748614124044	-0.0181552086345586	-30.6395659598319	-0.0158894959646864	-30.550346705939	-51.0705221599021	-7.06759296906044	
190720000	-53.8019197146601	-32.1122355291286	-0.0122165522919231	-30.7126526547848	-0.0159490486072615	-30.7578418520113	-50.9811105562914	43.0078587991381	
191360000	-50.8393885912619	23.774335139069	-0.0126882083505087	-30.9174528894442	-0.0261646793897279	-30.8691284016726	-66.9829416995976	-126.631072212316	
192000000	-53.8565844080412	-7.70735392925371	-0.0208519975080724	-30.9686436487178	-0.0100612076870757	-30.9331554712768	-51.5136975423908	-3.10880371159387	
192640000	-54.4640172421484	-25.8857473689631	-0.012964447779981	-31.0812329031315	-0.00741750030503596	-31.0792840223063	-52.9952234836703	-33.1565048556758	
193280000	-48.7342825721964	26.6761928004151	-0.0111375215085715	-31.1336702888142	-0.0250310499697054	-31.1310749830181	-52.4654997934431	-17.6466027561214	
193920000	-49.2222334333869	32.8028505919501	-0.015614739141996	-31.3161868873642	-0.01644270073592	-31.3096262460945	-55.7472814107858	-2.5363861723338	
194560000	-46.9363187444518	25.1751921056381	-0.00128020815687981	-31.3113284438948	-0.00836809804913867	-31.4106171276135	-56.5959312962586	30.9816313962249	
195200000	-53.036304221596	-26.2015575637992	-0.012700593570128	-31.4692457718033	-0.00712704387240194	-31.4090787564975	-56.0403803493569	42.5967027297257	
195840000	-50.2942589520152	-9.37275832347525	-0.00195453357949245	-31.5146277825852	-0.00855243193001606	-31.610323087758	-54.1629260271045	-8.91780583233795	
196480000	-53.0300838576885	-7.33515205930618	-0.0205687215932825	-31.5413024461785	-0.0144031838715043	-31.6957300867999	-62.1319655823144	1.74375773009964	
197120000	-52.1540391642433	-2.66466154679812	0.00228925720796875	-31.7444688441808	-0.0175600767184734	-31.8329713224855	-51.4067701977221	8.82306780915146	
197760000	-62.1817292163639	114.508529571362	-0.00993488835664981	-31.8399265152381	-0.00258142812374726	-31.9008802503671	-66.5090939669554	18.542941449713	
198400000	-54.1536377122067	42.7977163306216	-0.0179667046632608	-32.0224805217368	-0.0281397511361323	-31.989696682771	-64.7068344049308	72.3118591134328	
199040000	-53.8890391512183	17.1887250969232	-0.00811320503735458	-32.0697639876068	-0.0103082286392664	-32.1276721241297	-59.2802806779966	52.4026242909317	
199680000	-53.479521668045	9.4642349076949	-0.0233124047307827	-32.1785062355956	-0.0343639348137311	-32.2233418784893	-51.7474370849039	-6.06386797781985	
200320000	-50.7494835079613	21.5194933272382	-0.0254529472303263	-32.2750444477069	-0.0103409655349573	-32.2019562924468	-52.9916748129285	38.3385753139875	
200960000	-55.2229493898937	34.3066833132127	-0.00329314944613529	-32.3185815811002	-0.00633140749729166	-32.358989544017	-52.3744651105406	46.8134485307998	
201600000	-52.2811094581278	12.6574308874723	-0.00914179321603495	-32.5746194107283	-0.0187229377174629	-32.4196203405331	-53.3555564907047	66.1139468565229	
202240000	-56.1337511832061	59.0044804233004	-0.0120878984130432	-32.6183952009801	-0.0118308599026275	-32.6814618759005	-55.8918723491302	31.124896583142	
202880000	-53.0537244022646	29.3547443655311	-0.0212882138829206	-32.6975159995437	-0.00899436103290564	-32.7286902349184	-54.58254246277	34.2548649008224	
203520000	-50.369454356997	14.0787262142663	-0.00713624721327688	-32.7674523565836	-0.0186974752840053	-32.734507682051	-46.086017648676	71.5394882270528	
204160000	-51.0930971833983	-22.2637453130737	-0.0128911722357263	-32.949849165798	-0.0102379884678757	-32.9150042475329	-49.5786952563891	52.8342285218587	
204800000	-52.6843321018444	31.2884100855504	-0.0182372520111795	-33.0148176863347	-0.0128475594077234	-33.0250091371324	-52.0370919796345	5.0586981238072	
205440000	-59.5867591241301	-46.398543981855	0.000414521452370536	-33.2216038390851	-0.0284969705990187	-33.0382455839029	-49.0740918452658	19.8048756374496	
206080000	-50.6111562785628	-13.853305709891	0.00169970322904267	-33.2457855864739	-0.0196865103457681	-33.2241875216643	-48.3261861605316	6.99904773381292	
206720000	-59.6168589475547	-0.95234712211388	-0.0160206832267173	-33.340887125638	-0.0335248605112761	-33.2063407528933	-58.7036552260166	-1.88194009423876	
207360000	-54.5399160396282	-9.19837231807331	-0.0138284287140101	-33.4600871551184	-0.0230631755131884	-33.4377965005734	-57.9627364420849	-37.3625164130091	
208000000	-52.2616348404825	-50.5936910029574	-0.0296686751787581	-33.4833418330116	-0.0310650918339468	-33.5200301543475	-61.7529127194711	35.972510797307	
208640000	-60.2050290950341	-22.9959143312533	-0.0234112141272899	-33.5694094559089	-0.0266500019166523	-33.488667409175	-58.5114430092173	10.2591609353124	
209280000	-48.5138931394249	22.5290485155054	-0.016551359303041	-33.7723398616622	-0.00899684837379633	-33.7870784264945	-53.7532792661414	53.9414040863764	
209920000	-57.0112082497931	-2.62435906742175	-0.0184200471610181	-33.8684605079399	-0.0153892599538759	-33.8432095235784	-52.2501829749569	14.0237688686711	
210560000	-53.8060160413274	9.31727892709106	-0.00829297572209071	-34.0374303861486	-0.0221582590828777	-33.8957231349388	-57.0626964296461	-0.557633484560579	
211200000	-51.3175620262256	-29.3702504283853	-0.0122200135864001	-33.9948703146804	-0.0151590834902839	-34.0050689013639	-50.3228108932167	1.67068950614867	
211840000	-50.261742382734	-14.7087801588043	-0.0144096464821839	-34.0191946568483	-0.0133696278611824	-34.1104746637489	-50.6372606847696	39.7962846864821	
212480000	-51.2550079595792	-4.19402084475355	-0.0256489995938224	-34.2381256374869	-0.0188318469159946	-34.1344372812128	-53.6768687191134	-32.2352318668587	
213120000	-55.5373964855716	3.54580762680353	-0.0186620642371195	-34.2551178643662	-0.0160065036442256	-34.2795556780748	-47.427664341135	39.2877477403945	
213760000	-52.3427482881096	-27.7095643557487	-0.0139318863292068	-34.4249227518089	-0.0229331700098364	-34.4461145648354	-49.3121532507434	30.7551882810253	
214400000	-52.2042330595076	-1.18499757201018	-0.0260852503683089	-34.5903901623565	-0.0330690524708213	-34.5464849564151	-58.6313832557306	5.25878777434876	
215040000	-64.5917170076554	-8.79584876756445	-0.0120036661697659	-34.6179654738552	-0.00821401285770838	-34.6775646604238	-49.0541999157837	0.718864191979626	
215680000	-51.8712985608302	46.2267706086007	-0.0108442549884617	-34.7138816991963	-0.0253086593831672	-34.6734097004931	-51.8148211183982	58.6707023229879	
216320000	-48.5031567478512	25.8874502047839	-0.00461367193345166	-34.9387889172735	-0.031838590562203	-34.8468795290966	-51.5228472260299	1.96797458512468	
216960000	-51.4518372403115	-6.60224760170234	-0.0159930197455306	-34.961062599538	-0.00631961536834219	-35.0498516657374	-52.9162226691331	11.1953916010886	
217600000	-50.6851965424178	5.8042153243836	-0.00442396550667532	-35.1150471386335	-0.0223037421483208	-35.1074091927334	-57.0099265767198	52.5267498969712	
218240000	-53.5057753057798	20.2415698466974	-0.0249767372729106	-35.1691358998146	-0.0236942437586389	-35.140303085312	-52.9269205064778	-10.5601227862341	
218880000	-56.0885082917801	-25.2520333959483	-0.014093913979292	-35.2000424786481	-0.0119329771375935	-35.3689034574883	-51.4267728767987	60.6109513258637	
219520000	-51.9000895557362	6.28354784461551	-0.0185542600998264	-35.359969294862	-0.0123435574195779	-35.4020229787556	-53.1793886036337	1.69479451473635	
220160000	-47.7390831821748	24.6438297090041	-0.0160626629011011	-35.5286780103689	-0.0222574860993523	-35.5037554047837	-53.2104135195845	16.6426473816655	
220800000	-49.3142007963058	12.8851037401932	-0.00568592264662591	-35.6027032839976	-0.0192393859491405	-35.5747677032425	-53.8898630780794	-26.1489272791718	
221440000	-52.6029592686708	-8.49514059820151	-0.00562226263605084	-35.6823603458331	-0.0177026838743818	-35.6503725505977	-53.9263573596312	17.9208335818864	
222080000	-50.2052606815669	3.04093553606879	-0.0244099699041881	-35.7081566999428	-0.0102318653034897	-35.7856444760179	-50.643894836121	35.3911962660264	
222720000	-48.7067069276935	5.6807841859531	-0.00986683680772026	-35.8900876955993	-0.0357952066587641	-35.7511571141767	-58.7058525703555	52.4127600190586	
223360000	-51.8063990310011	-0.471649450286216	-0.00678902520779536	-35.979153634152	-0.0110565658283166	-35.932544544545	-54.6897834592062	-25.6573009800699	
224000000	-53.6224692179229	10.1726983562926	-0.015044326803446	-36.0602838688303	-0.0160121767096654	-36.1971583940398	-52.6631919056043	-18.8646324568043	
224640000	-54.6842241961802	-11.6204250965539	-0.0276979098744052	-36.1719292029621	-0.0180303373644422	-36.217867203898	-65.0668057979112	31.4153548883428	
225280000	-54.9098094932634	-17.5991448044108	-0.00454588293965957	-36.3431725888876	-0.0203891594034957	-36.2836527836597	-58.5059624816434	-16.7199124843194	
225920000	-63.5715178660489	35.1561253984781	0.00792344523067562	-36.2652046399522	-0.0224023682644623	-36.4410637027863	-52.7255303049266	-11.278310575052	
226560000	-51.7890905780541	-10.7048881842137	-0.019110265688714	-36.4609954658268	-0.0189419720322073	-36.5043747858023	-50.0378364076429	14.8890692391015	
227200000	-52.7466647384433	9.44481737582761	-0.0234510122242245	-36.6180720578497	-0.0176358943805342	-36.6917460942477	-63.821226558971	85.3300379634129	
227840000	-58.4734824403114	34.8400470851765	-0.0309065394336329	-36.673568255031	-0.02720882261105	-36.6502762351237	-55.8044752076214	33.2521446149572	
228480000	-52.0080823100892	-12.4024633353238	-0.00620576523583537	-36.8635115840369	-0.0287662384536968	-36.721557117453	-58.0694069799902	-25.5821680765376	
229120000	-47.853231667389	-9.12642157613601	-0.0213242255602578	-36.8997885207733	-0.0203247397323066	-36.8473204820882	-54.3014705145501	6.17799828483061	
229760000	-56.9966562370337	103.220116841778	-0.0201662314763578	-36.9690190613634	-0.0174028283034937	-37.0047048919802	-50.1271367987442	38.5557465926351	
230400000	-55.4269874877008	16.6514512594072	-0.0162514131422213	-37.1796583990175	-0.0139664660458464	-37.0591193041787	-62.589363901674	10.5082867837727	
231040000	-50.1927005283857	1.00767356947891	-0.0166802806278664	-37.1708796720308	-0.0237588384450734	-37.1933328310296	-51.7086829260435	-31.2587494940826	
231680000	-51.0807653044671	12.144927606479	-0.0128515747743101	-37.2742894663321	-0.0246064636291135	-37.4686807104556	-48.9717326300527	2.77984383238836	
232320000	-55.9547121135509	15.0859142978241	-0.0149702642450363	-37.4646908993671	-0.0266695690075812	-37.3608638080762	-54.6535644159738	-47.9484721961281	
232960000	-60.2149008232885	-26.4522511330522	-0.0239969638940746	-37.5231661402192	-0.00568817304319121	-37.4949839149987	-50.6212719896297	-31.437040128091	
233600000	-52.2647057208595	-14.7299254026677	-0.014567730035457	-37.6377322493785	-0.0119054799108904	-37.5502377849282	-52.0830340629861	41.1295778441145	
234240000	-56.7481053730081	-6.19929268228842	-0.0165322495312322	-37.7714624783155	-0.0183348056161643	-37.7737994305076	-50.1851367319395	33.042858296976	
234880000	-50.3539197042813	-23.992647814269	-0.0146013878644694	-37.788894855192	-0.0157329023349871	-37.890788354807	-49.6214765881465	17.3756855573582	
235520000	-54.4366490133634	3.53472626885984	-0.0228059430221029	-37.9048341806503	-0.0279791185484949	-37.9550625907935	-48.6656902168026	-14.5095846402762	
236160000	-53.5890615014676	-29.8535461132012	-0.00810577265690099	-38.0257813422244	-0.0054418885143514	-38.0290781052878	-55.9760128712388	55.3794955087947	
236800000	-55.3288416017948	22.6375151816593	-0.023798845907761	-38.1520277216711	-0.0207031614362912	-38.1595926312459	-50.1914616490769	3.14223267904134	
237440000	-64.9431825842026	97.5790943028959	-0.0155640159442144	-38.2359773994019	-0.0262516998798467	-38.3103868381867	-50.9700424763254	24.9906236277998	
238080000	-49.1271318195965	14.3695220080736	-0.0214329531012828	-38.2129400626133	-0.0178714205975689	-38.3770842803849	-48.1989339699346	8.76720450799175	
238720000	-50.0646402935779	-1.98764322361362	-0.0133790176977738	-38.4634148192209	-0.0030292454562644	-38.4207906873798	-53.6368606026731	-32.0566712919174	
