!Keysight Technologies N9950B: A.12.38
!Date: Thursday, 18 May 2023 16:46:47
!Timezone: (UTC-06:00) Central Time (US & Canada)
!Model: N9950B
!Serial: MY61131330
!GPS Latitude: 
!GPS Longitude: 
!GPS TimeStamp: 0001-01-01 00:00:00Z
!GPS Seconds Since Last Read: 0
!CHECKSUM:0837449297
!Correction: S11(ON U)S21(ON U)S12(ON U)S22(ON U)
!S2P File: Measurements:S11,S21,S12,S22:
# Hz S DB R 50
800000000	-20.8439963676535	-102.136077248116	-0.0450389685931117	-20.0824715133484	-0.0605456685415921	-20.1270633528254	-20.7906502795219	-116.370265110599	
803200000	-20.5912279324419	-102.850257775867	-0.0308380691199994	-20.1406618565287	-0.0683577257393945	-20.1653602285735	-20.7463601250868	-117.40830631209	
806400000	-20.5927232721366	-104.104506035362	-0.0362001067421069	-20.1768616765336	-0.0515208750665195	-20.2416067082823	-20.7379860227369	-116.382664701371	
809600000	-20.5855412060267	-100.943990153809	-0.0310503903967141	-20.28137452857	-0.0577277868016512	-20.3018679284047	-20.5482478502043	-115.365636572245	
812800000	-20.4508679351425	-102.665317697474	-0.0393582052170321	-20.4327089794734	-0.0746288826648906	-20.3774184643207	-20.6151319235779	-116.013734486327	
816000000	-20.4330169515944	-104.067561488067	-0.0528799698998646	-20.5547019917752	-0.0663099292253849	-20.5141674090058	-20.5376813359992	-116.591984281585	
819200000	-20.5208884935314	-103.303111704091	-0.0676390360345636	-20.5799694350604	-0.0569700378218214	-20.6135053194634	-20.4531905218715	-116.679567852639	
822400000	-20.5608101327756	-103.640833514678	-0.0621790967704773	-20.6228905635012	-0.065477904309422	-20.5522420087802	-20.7274403825713	-115.843541510106	
825600000	-20.3388194804858	-102.24996166286	-0.0597875431971233	-20.7081457815178	-0.0639889523265258	-20.6335918850501	-20.5877934914118	-115.326970461493	
828800000	-20.4527497951346	-102.622971971805	-0.0513575512166279	-20.8022914680625	-0.0537235293479232	-20.7892637334532	-20.4247313574479	-117.193898712978	
832000000	-20.304973794517	-102.915545622648	-0.0646108825727164	-20.8753495418663	-0.0610022502979318	-20.9191921285729	-20.3861968618538	-116.398922496062	
835200000	-20.3452777412865	-104.918883045075	-0.0434943164316995	-21.0275035748963	-0.0648108040522368	-21.002323000365	-20.361298465109	-116.571236229009	
838400000	-20.3130331566171	-104.322355021871	-0.0525382574722343	-21.0142480110041	-0.0751158232474424	-20.9591651318742	-20.4071973269702	-117.690384889957	
841600000	-20.3743759689798	-104.331559513476	-0.057974187677953	-21.0131664988172	-0.0619192479949252	-21.0816187987593	-20.4206612485705	-118.068466196418	
844800000	-20.1339869585158	-103.289122263932	-0.0546037177648143	-21.2504248421452	-0.0713514505177826	-21.127924028931	-20.308518710111	-117.248327799825	
848000000	-20.3708914953732	-104.158244305921	-0.0426243839651299	-21.2944107253777	-0.0577048417532569	-21.3438322308509	-20.1884978350473	-118.014673884273	
851200000	-20.2134469526377	-103.880994840674	-0.0536625383200901	-21.3635250899294	-0.0584830880652173	-21.3605327783481	-20.3246463987547	-118.25655976956	
854400000	-20.1919934376699	-103.885194395837	-0.0360541957292354	-21.3744224738895	-0.0615147540601185	-21.4136964128013	-20.1901902583723	-118.462762546579	
857600000	-20.1200353671255	-103.761490844559	-0.0716192483712363	-21.5222929133087	-0.0592330046570606	-21.5412983620998	-20.2704464077795	-118.234131492459	
860800000	-20.1716105185236	-105.471278093146	-0.0466237818109467	-21.5119379568584	-0.0814979862512137	-21.5475592944695	-20.1857934635653	-118.531300650537	
864000000	-20.0543065881908	-104.906374993938	-0.0555844857782655	-21.6827699028351	-0.0638716642045973	-21.5676240087699	-20.1404808258794	-117.613348786797	
867200000	-19.9730310347353	-103.851907597694	-0.0519135302302095	-21.7571470725104	-0.0777433455507567	-21.7645265400884	-20.074590706383	-118.664220365672	
870400000	-20.0935430887371	-103.730376284194	-0.054763140693641	-21.6981690581549	-0.0699685769624307	-21.7849362747642	-20.1525019610612	-119.281766431537	
873600000	-20.0266288397731	-104.133954510055	-0.0452554761836458	-21.9205500726985	-0.066870906863296	-21.8756264689646	-20.0279665034933	-118.020063842381	
876800000	-19.9077807806935	-105.694801155617	-0.0623042292154398	-21.9644645274285	-0.063389038950599	-21.937198106527	-20.0657382876804	-118.893957345942	
880000000	-20.0135937658742	-104.344548885625	-0.0575534440461585	-21.9968732039562	-0.0709684389416701	-22.0245690981415	-20.1192692662788	-118.294406144726	
883200000	-19.8538764538983	-104.282278607045	-0.065983187596055	-22.1292566585063	-0.0770656003203888	-22.0529775400803	-20.1957534737495	-118.203538784712	
886400000	-19.8487303624206	-105.189224153617	-0.0687400531794341	-22.128178177086	-0.0670020072821197	-22.270461200748	-19.9799559537875	-118.140629243152	
889600000	-19.6794384126989	-103.41758988043	-0.0598867312349931	-22.384247179477	-0.0773001952463664	-22.2595536984445	-20.0247221460712	-119.6122170383	
892800000	-20.0359963545516	-104.353647063928	-0.0638841359051529	-22.3919238168681	-0.0553266269760736	-22.3337972767932	-19.9146377337858	-119.211237112596	
896000000	-19.7496633525756	-103.865111194858	-0.0533062682019527	-22.4344320034286	-0.060312213586606	-22.4986854047759	-19.8820315377988	-118.419568184092	
899200000	-19.8876787668116	-105.788797175512	-0.0548925196367234	-22.467994036449	-0.0662272927362961	-22.5262868653546	-19.9332897497882	-119.758168191142	
902400000	-19.8062107583578	-105.057842771254	-0.0584183161282371	-22.7297514153139	-0.058055252246994	-22.6203470715988	-19.6528822715904	-119.705774917517	
905600000	-19.7208142201131	-104.186911918433	-0.0593472428851376	-22.7346859670662	-0.0741624416701956	-22.6380433919643	-19.7102276769977	-119.989453369313	
908800000	-19.8560785069586	-103.585757219212	-0.0713853630946	-22.7816968692969	-0.0715904000359044	-22.6680549973677	-19.8417519558283	-119.482461342155	
912000000	-19.7124098745931	-103.820371821475	-0.0539866027978534	-22.7918412474702	-0.061307741572746	-22.8125694735883	-19.6572690767471	-118.854366379227	
915200000	-19.6965358275357	-104.442053417608	-0.057034131124587	-22.9357560770523	-0.0710756325483189	-22.8726274983441	-19.8597199090295	-118.996066145108	
918400000	-19.5805543720839	-104.259359550331	-0.0566048026595543	-23.0295675757056	-0.0860362528953218	-22.9918279590529	-19.669383139709	-120.301808107747	
921600000	-19.7458889739505	-104.829435966073	-0.0512207604255107	-23.0689045654867	-0.0719224474239808	-23.025641289581	-19.7013127285444	-119.968065806396	
924800000	-19.5955958423876	-104.712622635169	-0.0534480321372478	-23.1613477012683	-0.084975518199308	-23.1647864584814	-19.5698991470951	-118.350438366024	
928000000	-19.5262487551899	-105.90883264801	-0.079463472035866	-23.17334747727	-0.0820385185904167	-23.2910229233077	-19.6045477379068	-120.106436436335	
931200000	-19.7011619251542	-104.694673109966	-0.0634354216700971	-23.2438148739492	-0.074599937064736	-23.3486676443085	-19.5496994293665	-120.306579084074	
934400000	-19.5829694272655	-104.667154470148	-0.0676791127259901	-23.3988598022275	-0.0823565791806505	-23.4399643879099	-19.507282993911	-120.747718271643	
937600000	-19.2811699231654	-105.913319941297	-0.0613805184039902	-23.4924662288712	-0.0834294663158895	-23.5457545381956	-19.3329867898027	-120.635497494803	
940800000	-19.4883714210272	-105.426639004309	-0.0508219624096906	-23.5348167050569	-0.0655558912007174	-23.6255496700373	-19.4907812477929	-121.025474290774	
944000000	-19.4869474724142	-105.485374505674	-0.0642960149410712	-23.6588141341644	-0.085327103837637	-23.5880076938894	-19.4022883280146	-121.467446480266	
947200000	-19.4608090995711	-105.451307615156	-0.0588165059543224	-23.6791525855241	-0.0673928599582991	-23.6583744125297	-19.4855834124472	-122.116292674113	
950400000	-19.4506495682532	-105.12487994704	-0.064342437792744	-23.7664658614874	-0.0771789307996736	-23.7349095030415	-19.5127212621386	-121.283524436182	
953600000	-19.3238597989481	-105.231144632284	-0.0799095566119518	-23.9066923434756	-0.0889525633262632	-23.8551224663688	-19.2396327589682	-120.418583349134	
956800000	-19.2320585233503	-105.787334065333	-0.0778997999584981	-23.9833887051343	-0.0919811830745911	-23.942898454768	-19.4314832174552	-121.638852388316	
960000000	-19.0731611562128	-105.71987126341	-0.0445672553966469	-24.1166431962688	-0.0870438338600376	-23.9878992540918	-19.2121067556504	-121.661200229761	
963200000	-19.2535994269249	-105.42983576514	-0.0889898668626116	-24.0279362679534	-0.0931375758445378	-24.0326666295214	-19.3329299826103	-121.378247343756	
966400000	-19.167159442783	-106.399644261182	-0.0765666843255206	-24.1849772369063	-0.0749777687344558	-24.2277525300698	-19.0546418541586	-120.763951080455	
969600000	-19.149889944203	-106.611634358668	-0.0719345033732916	-24.2049099997067	-0.0841782173963441	-24.2860777786804	-19.1134734606789	-122.170472407309	
972800000	-19.1450616069422	-106.020346429704	-0.0733461948450065	-24.4401513993699	-0.0685140698814017	-24.3164596248331	-19.2480340495039	-122.353303976547	
976000000	-19.1294465736478	-105.629491356252	-0.0745601547293647	-24.3715446302651	-0.0861229335145825	-24.4530442156612	-19.2114397852391	-122.729616477574	
979200000	-19.0436072759184	-105.95524386386	-0.064747211438982	-24.531155463405	-0.084319603125879	-24.4883096092413	-19.1421479356786	-121.932434406719	
982400000	-18.9978876576509	-105.836271263185	-0.0777042654980008	-24.542528513454	-0.0966055140922712	-24.5759339414272	-19.0231154460552	-122.561259258955	
985600000	-19.0155142561293	-105.925834225503	-0.0655975577977925	-24.6683799254091	-0.0877612889424369	-24.7033055486295	-19.0593063697102	-122.498823387331	
988800000	-18.981822299118	-107.041332816865	-0.0831422385000589	-24.6945404994742	-0.084764742643182	-24.7916878422675	-18.989917340272	-123.514008669073	
992000000	-18.9309557741604	-106.173117326589	-0.0779625738079857	-24.8669223370335	-0.0757245986817008	-24.8419251990815	-18.8517903730634	-122.57927383646	
995200000	-18.7434043067988	-105.882729493155	-0.0783822278483669	-24.9678028610508	-0.0783908846305773	-24.8698312279942	-18.8170358597222	-122.954570891285	
998400000	-18.7792433505216	-105.658728803862	-0.0635761488000515	-25.0054658050339	-0.085604260482699	-24.8981003363625	-18.8565457355015	-122.338981821567	
1001600000	-18.9172739839312	-105.979839793513	-0.0664664600233277	-25.0950279072154	-0.0695757559743689	-25.0133064564499	-18.8786326856903	-122.250111572552	
1004800000	-18.8546583986023	-105.782817340545	-0.0598518645045436	-25.1808678170045	-0.0773434838974234	-25.1389176665338	-18.7612803120281	-122.967045670332	
1008000000	-18.73370453621	-106.603055438707	-0.073306625783783	-25.2695427502482	-0.0845252140844284	-25.1576093579329	-18.8340024267711	-123.155091213865	
1011200000	-18.7119631698138	-106.230394182485	-0.0642950863263867	-25.363319399236	-0.0758964897169116	-25.2004829863997	-18.779100912818	-123.437838285318	
1014400000	-18.7188735150725	-107.290180083815	-0.065586831816588	-25.4039644676758	-0.0974746297889079	-25.4031377279829	-18.7079692091647	-122.352499812365	
1017600000	-18.6502872600093	-105.831051860393	-0.0785795322621455	-25.5205596881587	-0.0675779381610761	-25.4931343866253	-18.7830947866315	-123.734936924167	
1020800000	-18.6330489051349	-106.410805685166	-0.0718005774749328	-25.5530921608691	-0.0949187342529105	-25.5203688372944	-18.7268687908619	-123.323799834122	
1024000000	-18.5538123303272	-106.892345189564	-0.0700280588551233	-25.6598868564399	-0.106367593478484	-25.6841480257523	-18.6791044247982	-123.222577738941	
1027200000	-18.5254897973675	-107.355112156023	-0.0721153423079228	-25.6965101306982	-0.0840187331992009	-25.6830295898823	-18.7804854754458	-123.795083252611	
1030400000	-18.645731254847	-106.969179251782	-0.0765134449242042	-25.7412757040176	-0.0808048138054975	-25.6944910604723	-18.771978745822	-123.915579331852	
1033600000	-18.5703821773525	-106.968148337116	-0.07758696178924	-25.9390584605988	-0.0870137393920036	-25.8671743828896	-18.6133563239834	-123.504669061966	
1036800000	-18.5969418562009	-107.069147743858	-0.0749248176743577	-25.9470912413693	-0.0834107455554759	-25.9307767567096	-18.6828783044992	-123.918048939909	
1040000000	-18.6274669786351	-106.947333104912	-0.0766488166582976	-26.0650353789823	-0.0873808814862817	-26.0276269028897	-18.6202228678576	-124.862340844234	
1043200000	-18.5550066069388	-106.191125010258	-0.0776768765307549	-26.1051310119868	-0.0827683161288316	-25.9971198608307	-18.5989601817817	-122.799660748358	
1046400000	-18.5455281411776	-107.084612944699	-0.069335026161797	-26.2588425210561	-0.080248578863352	-26.1123448774968	-18.4567072321639	-124.221027869423	
1049600000	-18.2989605721939	-105.994620260028	-0.0844763775564536	-26.2424014386335	-0.0864528453056313	-26.3349951823473	-18.5390469198152	-124.503112610092	
1052800000	-18.4953409752737	-106.397503309219	-0.0828819653418033	-26.3691465715693	-0.096781475500569	-26.2842603728958	-18.5352262317722	-124.977420403805	
1056000000	-18.4610394693975	-106.386692685367	-0.0853687296492602	-26.4745771299176	-0.0894164258982347	-26.37152661743	-18.5021603652124	-124.437313204677	
1059200000	-18.4962750297139	-106.742220852021	-0.0795937839627793	-26.470557002682	-0.0871199523022873	-26.3741347102774	-18.4617587297989	-124.27773050098	
1062400000	-18.3976676392071	-106.354599818169	-0.0641001206581093	-26.6029067869889	-0.0890234803542548	-26.4429050730059	-18.4601956278668	-124.457570395339	
1065600000	-18.3354596379444	-106.816760460738	-0.0689984724639871	-26.590661827231	-0.0845539558193952	-26.6591967171113	-18.3594308022974	-124.447256405758	
1068800000	-18.2880972366102	-106.725165948847	-0.0809336126761828	-26.8208353362074	-0.0794868817702457	-26.7272571371989	-18.3616274260184	-125.052658645009	
1072000000	-18.437180955359	-107.311827602924	-0.0921986076088914	-26.8472151129407	-0.088628328048808	-26.7741825505114	-18.4215039829943	-126.309658847254	
1075200000	-18.2984599920037	-106.481203850607	-0.0837368959830326	-26.9002485430201	-0.114746938673012	-26.8025202343817	-18.3246073069043	-124.698197281978	
1078400000	-18.2826587203811	-107.248540983057	-0.0644015475616229	-26.9251831282841	-0.0937375054639755	-26.8348810673563	-18.3448681982829	-125.227978869407	
1081600000	-18.2672984024676	-107.237636284396	-0.0842238507196851	-27.0288292009764	-0.0974714386544172	-27.0891094794743	-18.2910017604407	-124.432449253908	
1084800000	-18.457946545264	-106.453281041718	-0.078145754149729	-27.0186462074075	-0.0859936184879719	-27.1228751845963	-18.411993707469	-125.475269215725	
1088000000	-18.2198103164707	-107.691861347674	-0.0702932078302176	-27.1863654453364	-0.0935095889652015	-27.1960827540052	-18.2488858898282	-125.957423976769	
1091200000	-18.1169860425061	-107.949791632148	-0.0788518143874348	-27.2198701470941	-0.0931575160165837	-27.2351824409293	-18.3204376729683	-126.194056678395	
1094400000	-18.2436663070763	-107.04090916975	-0.0857440335812087	-27.3598678973492	-0.0978025627023451	-27.2878857270172	-18.3002589837284	-126.29209612679	
1097600000	-18.0916661244399	-107.622678013679	-0.0621141998783842	-27.4140907647103	-0.114213961958693	-27.3916609163501	-18.3876028722169	-126.233968364467	
1100800000	-18.1910382620527	-108.055439160553	-0.0968078374893545	-27.5290437068328	-0.103584632699465	-27.408815689958	-18.2379691704299	-126.869331141593	
1104000000	-18.2045089668997	-107.458069477484	-0.0756513733459326	-27.6237050707226	-0.0954053100023595	-27.5842142344657	-18.2721482404066	-126.116163862005	
1107200000	-18.2246782189204	-107.658556081748	-0.0809205630620607	-27.5493590641953	-0.0726688564907098	-27.7111907990354	-18.2463077017126	-127.072106864804	
1110400000	-18.1493447567621	-108.328978741885	-0.0982095197406126	-27.8083064566474	-0.102645602805992	-27.742829734101	-18.1670010269635	-126.455770123236	
1113600000	-18.0756817655784	-108.095167063982	-0.0875879241024381	-27.8945177577738	-0.0972923812835725	-27.8598623279108	-18.1278075069007	-126.666979924231	
1116800000	-18.1165636577176	-107.337499179927	-0.0881381226191522	-27.8955290022581	-0.0977384132476688	-27.7715162891	-18.1600721231078	-126.338019330386	
1120000000	-17.9233887559337	-108.786501801518	-0.0752970775050574	-27.9127050094528	-0.0915056676820181	-27.9476886429432	-18.106570269849	-127.350120920599	
1123200000	-18.0128388682823	-108.42291599682	-0.0849934918029495	-28.0631666946372	-0.0928930390891163	-28.0553751901773	-18.1238636644034	-126.722898809204	
1126400000	-17.8850432175972	-107.835223283502	-0.0954041474087758	-28.0250336612635	-0.104024877082861	-28.2471891096107	-17.9795511171277	-127.705963014847	
1129600000	-17.9300143632838	-107.977483953305	-0.0786575235142176	-28.2072876553719	-0.0993599582940188	-28.074638724606	-18.1529496614225	-127.032205294216	
1132800000	-17.9779485967676	-108.2180917493	-0.0796430444690915	-28.3255278838452	-0.106269964011574	-28.2024918198809	-18.0638522535715	-128.315717578945	
1136000000	-17.9200330528691	-107.836948226392	-0.0784885552302126	-28.3020253716173	-0.0892880326632091	-28.3709288894975	-18.0462732951305	-127.054844015642	
1139200000	-17.9504206530593	-108.527440954962	-0.0956608099989103	-28.405919794714	-0.0911095161756661	-28.433045595399	-17.989362560631	-127.277880695147	
1142400000	-17.9645418299901	-108.439773707171	-0.0868094419283681	-28.5071347237419	-0.0960766766120139	-28.4965594197215	-18.0714490412902	-128.254496774788	
1145600000	-17.7941469701435	-108.235676317167	-0.0766618690423695	-28.6363571780707	-0.0963007108323677	-28.501308919207	-17.942234311394	-127.761380081215	
1148800000	-17.7194561721939	-108.636749759843	-0.0848091076807805	-28.7454256792739	-0.100375558366675	-28.6740001095159	-17.863860675743	-128.064766844249	
1152000000	-17.7660568648842	-108.92272640357	-0.100178045896866	-28.7644246639087	-0.099605547495698	-28.8213837047249	-17.9357636864277	-127.757399734277	
1155200000	-17.8047644123082	-108.744236945552	-0.0762963114280548	-28.8732766370092	-0.11312688055116	-28.8545993045288	-17.9285866329389	-127.964226621035	
1158400000	-17.6752190421233	-108.902254434689	-0.0856399615987599	-29.0120129645998	-0.109808124669573	-28.9046330671336	-17.8226474533987	-128.831894973076	
1161600000	-17.7511953395638	-109.352635830399	-0.0786171041723907	-29.0847895120726	-0.109585788718814	-29.0171193483149	-17.8777769375055	-128.808801506002	
1164800000	-17.6969374432344	-109.46482084407	-0.0872929219468998	-29.1021372903479	-0.101542820100145	-29.054448965458	-17.8870159853091	-128.49653478939	
1168000000	-17.6354235361126	-109.262982587669	-0.0809838766845449	-29.1013646285976	-0.0918094461647707	-29.1050088807896	-17.69306675912	-128.275292855399	
1171200000	-17.6440476570565	-109.14662572959	-0.0874804336360389	-29.2412904955262	-0.0998007968698259	-29.2096700695718	-17.7767698719095	-128.512135043483	
1174400000	-17.4833992492994	-109.7366941448	-0.0905931015740704	-29.3700040115235	-0.114505815708722	-29.3522750642295	-17.6478706639107	-128.397627318286	
1177600000	-17.5164378868879	-109.293358485768	-0.0963971225553815	-29.4775367930382	-0.121462440963845	-29.4336371436786	-17.6053590564209	-129.366705891625	
1180800000	-17.5963945207939	-109.344757871178	-0.103425724105952	-29.5155329849486	-0.0986076734969052	-29.4775511924012	-17.5555415495727	-128.217195564056	
1184000000	-17.5694667164319	-108.637192379034	-0.0980328725610808	-29.4945324676404	-0.0938996712071794	-29.5754395280257	-17.5632684861353	-129.007810658253	
1187200000	-17.4977918361107	-109.681537094649	-0.106516488933944	-29.6997854067857	-0.118408384084109	-29.5837936451441	-17.6020410558945	-128.586444050097	
1190400000	-17.5338814140926	-108.911322917221	-0.0946380523521307	-29.7774256981803	-0.0970529598459323	-29.7031090447613	-17.5669637352764	-130.149498227968	
