!Keysight Technologies N9950B: A.12.38
!Date: Thursday, 18 May 2023 16:47:53
!Timezone: (UTC-06:00) Central Time (US & Canada)
!Model: N9950B
!Serial: MY61131330
!GPS Latitude: 
!GPS Longitude: 
!GPS TimeStamp: 0001-01-01 00:00:00Z
!GPS Seconds Since Last Read: 0
!CHECKSUM:1823022656
!Correction: S11(ON U)S21(ON U)S12(ON U)S22(ON U)
!S2P File: Measurements:S11,S21,S12,S22:
# Hz S DB R 50
800000000	-14.3046053599263	-112.482047510842	-0.260862752822076	-26.0581006692323	-0.26998491061928	-26.0478543700428	-14.2854412626568	-124.44511324082	
803200000	-14.1892438854892	-112.937734833959	-0.260673537957384	-26.177670286776	-0.275939320828221	-26.2789837570785	-14.2044308468271	-124.978081056097	
806400000	-14.1522282529615	-113.506135156057	-0.263571208519631	-26.2102932158188	-0.269159336923488	-26.2746834173608	-14.2085990153825	-124.408830033655	
809600000	-14.1175337504384	-112.107647303424	-0.235935146322028	-26.4337157212288	-0.26905350011084	-26.402124528674	-14.1046126917894	-123.899278984642	
812800000	-14.0691379477822	-113.129161754498	-0.270354141259315	-26.5843825057213	-0.282130339312273	-26.4867589406449	-14.1330584024524	-124.44876176168	
816000000	-14.0081961102277	-113.865082452796	-0.27386744774223	-26.6385374300389	-0.279053756328327	-26.6025306347169	-14.0670890911111	-124.663185305678	
819200000	-14.0425986096289	-113.407642512097	-0.283954136017901	-26.703171219124	-0.27498925606531	-26.7048846822086	-14.0316371541888	-124.888750550512	
822400000	-14.0651785490438	-113.632455378663	-0.272701525687739	-26.8731009938635	-0.290996095584723	-26.7343959598452	-14.1369553578337	-124.637948692036	
825600000	-13.9321757501388	-112.759716888954	-0.281124377171793	-26.8854350310898	-0.268471434428793	-26.85679292668	-14.0594856065846	-124.390930711525	
828800000	-13.9825982949077	-113.25604816094	-0.272551541359682	-27.0418923077639	-0.269223030532722	-26.9566414853977	-13.9636592577979	-125.323380292729	
832000000	-13.8987921705989	-113.402958290999	-0.285026212060234	-27.0800140968353	-0.269872836186171	-27.1891898944691	-13.9388569113709	-125.169825257504	
835200000	-13.9054244646239	-114.255253514196	-0.274344368421104	-27.1548354404222	-0.296971571684605	-27.169005325037	-13.9138464360454	-125.200595082834	
838400000	-13.8701562296009	-114.201707065076	-0.284428939148677	-27.2662395930353	-0.297494247012227	-27.2095370887325	-13.9364944744026	-125.848287069094	
841600000	-13.8956955963428	-114.224688831635	-0.27985437526988	-27.330171283675	-0.291380133358371	-27.3057125749649	-13.9390474944708	-126.099675058332	
844800000	-13.7387997573077	-113.775229121019	-0.285197561609432	-27.6213557426447	-0.276394266952752	-27.4627759360782	-13.8114036005309	-125.885895604173	
848000000	-13.8590355072724	-114.223005515915	-0.27346256829045	-27.6086698002246	-0.299167785106716	-27.6704547909643	-13.786951880706	-126.238210437725	
851200000	-13.8037466424929	-114.117309053919	-0.296128354132597	-27.639933381945	-0.303972179570331	-27.6881187284347	-13.8346301834579	-126.349253045685	
854400000	-13.7650951514478	-114.279217222449	-0.275991677507	-27.7125460877292	-0.293936153513245	-27.7258795705431	-13.7368362423199	-126.497989418627	
857600000	-13.7096514237015	-113.994878011799	-0.29513285921594	-27.9170257073674	-0.286679687606514	-27.8849617554263	-13.7601117127063	-126.641900464964	
860800000	-13.7372038770296	-115.03445887848	-0.292033234612777	-27.8707810485659	-0.302720066238935	-27.8954695781176	-13.7135695522828	-126.837894006942	
864000000	-13.6608937019043	-114.697178763546	-0.296453617452607	-28.0781832839742	-0.298237384407503	-28.0655473801179	-13.69585499286	-126.582523644244	
867200000	-13.625141649751	-114.359718314396	-0.308262276278923	-28.246715004205	-0.305889125199926	-28.1418566268889	-13.6147138447773	-126.883174438277	
870400000	-13.6488780990022	-114.298701501291	-0.299136466678511	-28.1893498969608	-0.302911420151684	-28.2952510346397	-13.6560527823267	-127.464608773575	
873600000	-13.6011660799383	-114.325596435481	-0.289420681348476	-28.3713447658146	-0.30009158891062	-28.3618741927413	-13.6257845606631	-126.800836161782	
876800000	-13.5483032500989	-115.257705225408	-0.309718578197068	-28.414635501136	-0.300992918132057	-28.3939709953474	-13.605678519499	-127.263661995092	
880000000	-13.5735458781979	-114.651023568441	-0.292109217017409	-28.4599436555796	-0.302304964597533	-28.5004163386481	-13.6342031493187	-126.930164972199	
883200000	-13.4869170616012	-114.457582226828	-0.304666060668505	-28.6552063508235	-0.308047230851855	-28.6191874304106	-13.6652183690253	-127.182835759802	
886400000	-13.4797119698167	-115.114787024174	-0.316255024258142	-28.7473925382948	-0.28621259009646	-28.7502694590171	-13.5252843439052	-127.027113514957	
889600000	-13.3807131077876	-114.304426236143	-0.295084083004853	-28.8681659997211	-0.30427765515464	-28.8466293376159	-13.5296733125888	-127.810246943186	
892800000	-13.5324428625004	-114.944347073516	-0.304663289766169	-29.0414095780788	-0.311491757896169	-28.9695746404695	-13.4992547340884	-127.880666990481	
896000000	-13.3963024390038	-114.785582343445	-0.309526982187926	-29.0323105789214	-0.307134338477387	-29.1039343692019	-13.4375994678468	-127.374741442988	
899200000	-13.454590934634	-115.520268508398	-0.304350799284076	-29.0291635058456	-0.309670584303922	-29.1433014338446	-13.4663670270019	-128.234746313268	
902400000	-13.3898041839642	-115.220511415069	-0.307820481075318	-29.2503455790203	-0.322348352516849	-29.2735212464128	-13.3414209299868	-128.203228239959	
905600000	-13.3082570241165	-114.845370201274	-0.303967155620981	-29.4136935243217	-0.320498906367846	-29.3445937326398	-13.3400983497903	-128.412832760521	
908800000	-13.3806189693815	-114.690790459662	-0.296551864590901	-29.4105948077665	-0.312653359909395	-29.3742699288938	-13.3872626340203	-128.236312734641	
912000000	-13.3011210762703	-114.755284394946	-0.312703988340883	-29.5730235767298	-0.312844695831392	-29.541349190627	-13.2945501046649	-127.942473416961	
915200000	-13.2888466122154	-115.087132651717	-0.310433131591118	-29.6359697842436	-0.325711959226237	-29.5362531965256	-13.4045313385206	-128.21842726407	
918400000	-13.2130930300148	-114.992942293711	-0.313795480575577	-29.6689917321402	-0.338152736346755	-29.6799875963098	-13.2804420611396	-128.785267001685	
921600000	-13.3013126650882	-115.36808559961	-0.31089952039514	-29.7693525940716	-0.322475597838061	-29.8161483449702	-13.2890932187984	-128.980702100214	
924800000	-13.2068545412003	-115.273561925347	-0.319982469006579	-30.0063493151908	-0.336901452046774	-29.8945320816979	-13.2226812149595	-128.105495105652	
928000000	-13.1592047888328	-115.942252929994	-0.328402602070231	-29.9234781813944	-0.341888959538402	-30.0493148626303	-13.2228160247683	-128.926688214166	
931200000	-13.2295286395536	-115.541600935567	-0.325499581587385	-30.1069046815572	-0.338638561577308	-30.1446989167601	-13.1725225796631	-129.187016232737	
934400000	-13.156171291019	-115.702966266069	-0.329615444804314	-30.2065776015474	-0.337128630424876	-30.1820333289933	-13.159773575217	-129.480558183891	
937600000	-12.9830321166396	-116.281943424032	-0.322762660187031	-30.3592387576988	-0.336178009167404	-30.3571582194459	-13.0204888874604	-129.449723634838	
940800000	-13.0839189755183	-116.051878249466	-0.321164724278245	-30.3981097208224	-0.328073597951866	-30.3670807176867	-13.1310994446827	-129.642228543581	
944000000	-13.08511415954	-116.101971154755	-0.334760555904806	-30.517380451364	-0.342662282703986	-30.4575800112609	-13.0551357284423	-129.919155990021	
947200000	-13.0639734482966	-116.112471777192	-0.33909687405736	-30.5811479282878	-0.348302085523335	-30.5184796788714	-13.0671517140188	-130.233861118296	
950400000	-13.0520219539085	-115.920974721055	-0.336818576911314	-30.6409180103019	-0.34953848340076	-30.6722768896998	-13.087458251559	-129.973628853615	
953600000	-12.9587970072994	-116.154275671747	-0.341449968787253	-30.8914121471983	-0.353304004471937	-30.7701089526716	-12.929395581785	-129.736318294077	
956800000	-12.9208778515324	-116.348721360452	-0.359868090721991	-30.9199301405849	-0.348415656911462	-30.9619075107443	-13.003676596751	-130.325438627374	
960000000	-12.8438304790057	-116.558299701135	-0.341353323541388	-31.0968127091648	-0.362902063535101	-31.0143766272916	-12.9142922995151	-130.344930999133	
963200000	-12.8999588284209	-116.422783172554	-0.359389799260639	-31.0537352375114	-0.363633036367152	-31.0211678559469	-12.9685175895575	-130.203910348483	
966400000	-12.8289838867424	-116.854863622462	-0.349502241989595	-31.2506933446258	-0.348945852623328	-31.2686027952993	-12.8001567907514	-130.160649420468	
969600000	-12.8037811956573	-117.269988652799	-0.328778935072102	-31.3635995956566	-0.354498235564983	-31.2788748351994	-12.806479773148	-130.760537344437	
972800000	-12.8126081754696	-116.914453188246	-0.348037494288392	-31.4068253600349	-0.345556684769481	-31.4416788549873	-12.8457748857164	-131.106574157081	
976000000	-12.820742700333	-116.778148204742	-0.354353186723187	-31.4987803817868	-0.351533019582093	-31.5513724182735	-12.8459504625388	-131.200534771425	
979200000	-12.7324042902975	-116.926110414387	-0.352370989803158	-31.5723412228603	-0.353577877368476	-31.727713601894	-12.792306568307	-131.153272414518	
982400000	-12.6823316414448	-117.045194018412	-0.350220103897702	-31.7177778299352	-0.369201876049477	-31.8139702310703	-12.7456008329584	-131.344312280614	
985600000	-12.7178283052129	-117.010613066387	-0.360319872590905	-31.7884432204267	-0.36661442814543	-31.8658004400409	-12.7170953886728	-131.357080087291	
988800000	-12.6621179740475	-117.718295754696	-0.359070154536444	-31.9151762226538	-0.372546632140788	-31.8779621414301	-12.6700625009384	-131.840939402444	
992000000	-12.6303639000453	-117.233525997391	-0.343136982251176	-31.9999216418046	-0.367882542484898	-32.0433354835026	-12.6042722223067	-131.599185938217	
995200000	-12.5216455741905	-117.243300105345	-0.363889258501692	-32.1822191209876	-0.372806600548172	-32.1326743710246	-12.5867060967408	-131.721071644835	
998400000	-12.5532515529136	-117.119189137246	-0.354203090381949	-32.2310494048673	-0.379523479201447	-32.1752389595834	-12.6002239182804	-131.544402514604	
1001600000	-12.5937277677562	-117.258190242835	-0.361123490778925	-32.4035243808961	-0.361005839804816	-32.3240947575579	-12.5869289002592	-131.681405439039	
1004800000	-12.5571930346598	-117.224658643247	-0.36289696971742	-32.3469022382882	-0.362649842905257	-32.4708084499155	-12.5133215109497	-132.040728884743	
1008000000	-12.4896491844379	-117.749871224777	-0.368810074618173	-32.6215867379318	-0.375621023776646	-32.4494810806123	-12.5415833754136	-132.074573396297	
1011200000	-12.4767736590275	-117.47076690918	-0.368997531199319	-32.6073910461529	-0.369467257726529	-32.6097569645186	-12.5120562546151	-132.466388460927	
1014400000	-12.4658265483605	-118.126822970213	-0.366337844945377	-32.657562243916	-0.380721111089606	-32.6820351400502	-12.4387847971996	-131.880188048953	
1017600000	-12.4345113012555	-117.389962351565	-0.370750324792964	-32.7970575130564	-0.367658837928928	-32.8514244012687	-12.4921495158638	-132.604518368143	
1020800000	-12.4231578713122	-117.763628662059	-0.368559145944964	-32.8775761668015	-0.375320639986862	-32.926663837787	-12.4504419141102	-132.421802590964	
1024000000	-12.364911373131	-118.07678970197	-0.377886432614622	-33.0155728225368	-0.390268828934492	-33.0551827712152	-12.3975965319995	-132.500916745293	
1027200000	-12.3525356220901	-118.225651639808	-0.374938526098925	-33.0120496302468	-0.386297920050643	-33.1309305344469	-12.4666723032283	-132.989300709898	
1030400000	-12.3948019019148	-118.251921210996	-0.379048642787405	-33.0782550397742	-0.384779141353678	-33.1232175908619	-12.4318207917053	-132.924756086975	
1033600000	-12.3512612477058	-118.120523789018	-0.3829202798542	-33.2801073354933	-0.382814976122097	-33.2642776361433	-12.349284059113	-132.738489452	
1036800000	-12.347921070067	-118.268822483562	-0.380656953778672	-33.3533046392177	-0.379207439183871	-33.4389705316617	-12.3702646704431	-133.23656546766	
1040000000	-12.353750343529	-118.24089068446	-0.383836965551148	-33.451589921856	-0.381347658726044	-33.4314161103316	-12.3329038826775	-133.642408639129	
1043200000	-12.3085677013365	-117.931765284957	-0.378044374778795	-33.5743057491838	-0.377831269919379	-33.524286978914	-12.3121397866321	-132.831611597381	
1046400000	-12.2915822241122	-118.445461228524	-0.382393450450109	-33.7607348272977	-0.387634436010431	-33.641591557511	-12.2487174983876	-133.492735083511	
1049600000	-12.1761974193311	-117.880784883164	-0.383178217531552	-33.7962851771173	-0.403155045767963	-33.7784216725323	-12.3107949034029	-133.626515415796	
1052800000	-12.2427151685617	-118.059100897133	-0.381472658371043	-33.8290144510308	-0.419888215879756	-33.8784191888174	-12.287519959867	-134.089204636368	
1056000000	-12.2277135974879	-118.176384110026	-0.381689037962624	-34.0015890338563	-0.398557698730679	-33.9292343773013	-12.2498732496692	-133.865818327931	
1059200000	-12.2299208401039	-118.330959159376	-0.390937659745863	-34.0357286818843	-0.403487463953656	-34.027096469333	-12.2430840075894	-133.869870119236	
1062400000	-12.1920863955348	-118.275760802982	-0.380643489892367	-34.2201448426229	-0.387140244705218	-34.0604824876334	-12.191751330128	-133.821468298243	
1065600000	-12.1564378210481	-118.42732031508	-0.394198045962933	-34.1884279995994	-0.399265205210082	-34.2634270599618	-12.147198700541	-134.028905241072	
1068800000	-12.1132601182195	-118.510272170634	-0.412022983682932	-34.3232495962306	-0.381692399872198	-34.3633144979861	-12.1160435420849	-134.282001610888	
1072000000	-12.1995965892574	-118.79981785327	-0.406871591507261	-34.4142426150047	-0.400365007237389	-34.3566176990197	-12.1725312249579	-135.02302972399	
1075200000	-12.0783116013602	-118.383298086251	-0.39174221581846	-34.5863353312383	-0.411765312783742	-34.4354280801968	-12.1137824118937	-134.162923007879	
1078400000	-12.0820881085485	-118.841298545674	-0.401140616047653	-34.5553934008163	-0.401926777574275	-34.5294830793878	-12.0974068033341	-134.583092150506	
1081600000	-12.0787114738191	-118.842843253298	-0.402041244855251	-34.7074267112324	-0.418532530836447	-34.6924516496972	-12.0913074892398	-134.290815228312	
1084800000	-12.1523131925455	-118.675240436939	-0.386008095591547	-34.8270376228645	-0.412253359185901	-34.8244652655226	-12.1361495626304	-134.89310239559	
1088000000	-12.0063788390905	-119.152175458584	-0.388025346096371	-34.8231733272716	-0.402250813545541	-34.8837678725321	-12.0244681582733	-135.233015728986	
1091200000	-11.9559125453293	-119.330231043146	-0.405708403852032	-34.8816932743477	-0.421941524454907	-34.8571261093815	-12.079009063073	-135.35017907704	
1094400000	-12.0334327359978	-118.78308872356	-0.406613746486712	-35.0626871826008	-0.411924540261276	-35.0097877135175	-12.0510780598521	-135.438930749503	
1097600000	-11.9403394398362	-119.294817453045	-0.394598517301349	-35.0914924313702	-0.426185867205921	-35.0853076240568	-12.0708595780421	-135.503887533851	
1100800000	-11.975785360625	-119.516082065563	-0.421247694015948	-35.2924276080177	-0.42326121819303	-35.1518383888305	-11.9964145713073	-135.816668393936	
1104000000	-11.9546454981533	-119.247760100576	-0.403218633568547	-35.4105787128314	-0.422590130287878	-35.3118394644512	-12.0200435329161	-135.57818588496	
1107200000	-11.9716178751425	-119.471989317706	-0.409489019093015	-35.3522937845133	-0.397921935892124	-35.4840085856189	-11.9777482569953	-136.128217401773	
1110400000	-11.9318607989025	-119.755597023199	-0.411000387612864	-35.6016458582645	-0.430077502911805	-35.4463047020687	-11.9604902655709	-135.862896060274	
1113600000	-11.8826471855699	-119.745382888041	-0.410553340950981	-35.6689819267792	-0.423656735678393	-35.6718575950174	-11.9104735522227	-136.125290872477	
1116800000	-11.8718255977617	-119.313627179121	-0.415386204121421	-35.7466021521953	-0.425763988608538	-35.6762639266693	-11.9209648053781	-135.914737838269	
1120000000	-11.7913402703979	-120.24236010255	-0.421505990795867	-35.8136938741106	-0.423604195403399	-35.8714689213881	-11.8649083541992	-136.450273124016	
1123200000	-11.8171990047996	-119.937343587509	-0.434747813111263	-35.8526754771349	-0.424452011655351	-35.9245419765018	-11.8697357272755	-136.260235309474	
1126400000	-11.7402749605339	-119.953938859829	-0.437745586246824	-35.9678879881213	-0.43420625745442	-36.0740763340651	-11.802466820026	-136.715588884941	
1129600000	-11.7496060260342	-119.962399309231	-0.42007747729823	-36.0960305832591	-0.436723378183671	-36.0316550599216	-11.8664280314422	-136.492808159622	
1132800000	-11.8078065052287	-120.070330596848	-0.431460333314975	-36.2457358496128	-0.448252620829771	-36.1781116899832	-11.8230567221708	-137.390932833715	
1136000000	-11.7413926087469	-120.073302461595	-0.422827085653258	-36.2979112471623	-0.429572288191901	-36.2486595700847	-11.7932921442817	-136.684770360989	
1139200000	-11.7391793196364	-120.432581947778	-0.43856483237874	-36.3895389949178	-0.437100308138613	-36.4327564976336	-11.7595728432971	-136.937496363913	
1142400000	-11.7582487357832	-120.470029488716	-0.428995985609682	-36.5162715094147	-0.426890020359966	-36.5203423851151	-11.7796054061025	-137.522934604418	
1145600000	-11.6413002000146	-120.313798287315	-0.422211656543623	-36.6653900460842	-0.439702597268996	-36.6480510689108	-11.7319277982719	-137.193649903824	
1148800000	-11.6283226515572	-120.387372943666	-0.450851629668203	-36.675688149554	-0.452355032827078	-36.7605044580526	-11.6770631868509	-137.411150995081	
1152000000	-11.6243627571324	-120.843746328379	-0.456478498198076	-36.8302873371127	-0.440788387253322	-36.8886517650932	-11.7062400052499	-137.464794697633	
1155200000	-11.6161275800113	-120.670516826567	-0.42710735607779	-36.8930389184929	-0.444173231617375	-36.9398163570638	-11.6794378456537	-137.606259526605	
1158400000	-11.5583642695714	-120.929450855726	-0.42729420618312	-37.1532314907389	-0.44603295214546	-36.9950578331399	-11.6325916917967	-138.003930785627	
1161600000	-11.6074988776926	-121.177390553698	-0.447318215843931	-37.1494133737765	-0.462426609385028	-37.1271867304155	-11.6383379497955	-138.107842975829	
1164800000	-11.5469904985969	-121.295773013103	-0.448588574093617	-37.2082625022799	-0.452215414316578	-37.2532942851307	-11.6172706135756	-138.05930643083	
1168000000	-11.5000416035196	-121.194032841823	-0.435339298638775	-37.2449660090558	-0.440621379637728	-37.3516558829178	-11.5209765049211	-137.960422373555	
1171200000	-11.513263368882	-121.146550589222	-0.455786640415683	-37.4456597453687	-0.472803307260122	-37.3757151104629	-11.5790655731911	-138.013803830787	
1174400000	-11.4045453967738	-121.561785000122	-0.447779891215283	-37.5418539509738	-0.460274655923036	-37.5695424036719	-11.4937982698861	-138.154210817754	
1177600000	-11.4313798424847	-121.378441425822	-0.450867797146581	-37.6151755099514	-0.469124217471656	-37.6971518356365	-11.4660406519912	-138.735304122559	
1180800000	-11.4339833296498	-121.531597697522	-0.45328018176053	-37.8364056369033	-0.456181440435339	-37.6666913880693	-11.428422199862	-138.171352088577	
1184000000	-11.4327032604875	-121.199375991203	-0.452087157291308	-37.815059950519	-0.445541165991661	-37.8554544150108	-11.4048410633996	-138.641043942525	
1187200000	-11.4138741311413	-121.616176972228	-0.475844731207563	-37.9129200721774	-0.471816886880899	-37.9496682877631	-11.4229079874774	-138.675271927872	
1190400000	-11.3979238880086	-121.428686585825	-0.461801445186757	-38.0352190871927	-0.449887012919746	-38.0362380552607	-11.3803273320367	-139.355477089811	
1193600000	-11.3138426142827	-121.604477225493	-0.466360477782747	-38.2052631349756	-0.469845332606688	-38.1211218206149	-11.3901918601521	-139.053500980051	
1196800000	-11.3955477610533	-122.17792768393	-0.461105646515238	-38.0897981915549	-0.469384430166866	-38.2831960948016	-11.3055567607171	-139.392592458887	
