!Keysight Technologies N9950B: A.12.38
!Date: Thursday, 18 May 2023 17:10:08
!Timezone: (UTC-06:00) Central Time (US & Canada)
!Model: N9950B
!Serial: MY61131330
!GPS Latitude: 
!GPS Longitude: 
!GPS TimeStamp: 0001-01-01 00:00:00Z
!GPS Seconds Since Last Read: 0
!CHECKSUM:0272693462
!Correction: S11(ON U)S21(ON U)S12(ON U)S22(ON U)
!S2P File: Measurements:S11,S21,S12,S22:
# Hz S DB R 50
160000000	-67.5305956056642	38.9940421030718	-0.00428042362413129	-3.04564527517125	-0.033822583085944	-2.98223529264435	-51.1738252082086	119.157075026177	
160640000	-51.8148069173879	15.1729014980673	-0.00904925722874245	-3.00293541843322	-0.0175588648872906	-2.89462861350967	-49.8491962082537	68.0147137916469	
161280000	-50.3549216627402	29.5879530818006	-0.0075443853322464	-2.95876776212171	-0.0183770224907777	-2.96610721015277	-50.9861397827494	71.3824451779046	
161920000	-58.5438987863659	24.0784973957962	-0.00905346095649328	-2.91709170577252	0.00114653516789844	-2.97356154953951	-52.3019415553041	118.409561652266	
162560000	-61.4900915994587	-7.69911173206091	-0.0085522829148418	-3.04782363453206	-0.00500002161881611	-3.0012252648057	-52.3918514403951	92.0054246544969	
163200000	-57.07396291353	3.43453773509548	0.00566206483795601	-2.94032345376327	-0.031447308756248	-3.00055730950868	-52.3660124943335	115.802419459165	
163840000	-57.8343288087084	3.82120820524454	-0.00734969079159877	-2.9663401838295	-0.0193207214308208	-2.98113804582755	-51.8041534942207	68.1919086456394	
164480000	-56.0577270216523	53.5756640278975	-0.0196650470716065	-2.95191473468302	-0.0160958781210702	-3.06518784948773	-51.8273087579628	85.9205294998538	
165120000	-51.4445478022357	16.3068848379267	0.00440640774664109	-3.02909706954141	-0.0163765193606543	-2.94967306654102	-51.5259229337716	73.4137201304295	
165760000	-59.3273661933343	2.22849581122518	-0.0150503953739547	-3.03313338646898	-0.00636249650557616	-3.046187808468	-54.8473091138856	80.411322272578	
166400000	-56.6440461142167	44.9057909696089	0.00157284107208351	-3.18211605401696	-0.0264300178103163	-3.04045828382039	-52.1322239014609	80.8388012373091	
167040000	-51.3414693992899	34.8974548304432	-0.00536735142160652	-2.95716796439614	-0.0306903459845219	-3.11632667782803	-53.1140319979788	83.463438719073	
167680000	-54.5254565688872	0.149190251729756	0.00251823681319993	-3.10747933428545	-0.0242525820959138	-3.13643659225955	-55.7295629099102	67.0759625101668	
168320000	-57.0033330307504	-0.611227124933509	-0.0199234755709507	-3.11913828149102	-0.0230038762078825	-3.10615390372478	-59.1355709913757	137.283006202273	
168960000	-49.6755348421941	32.0072298653253	-0.00937475882858672	-3.0451060920069	-0.031252938911858	-3.07527868453696	-52.2037352897336	76.7473444339502	
169600000	-53.0622481390804	12.3374305981103	-0.0137091583802203	-3.18333309067965	-0.0318094019195916	-2.96359543312206	-66.9499044223963	9.97458029551873	
170240000	-58.9613841846389	62.3994041259463	-0.00742490461904993	-3.10118011225386	-0.0303202183668782	-3.10944494660742	-56.0400509886841	104.82304135662	
170880000	-61.4593050807458	67.4012183491131	-0.0011833442306457	-3.04124254408419	-0.0228279031697804	-3.0334123414569	-61.4481305108727	112.795899029493	
171520000	-60.2521075678047	33.4973755392952	-0.00388553817667853	-3.11338644913636	-0.015131959951724	-3.07250473434766	-50.288467222559	93.8342526530771	
172160000	-51.9505601517352	8.95398177538822	-0.026083101322057	-3.14994846100382	-0.00869497456779185	-3.12534369109113	-52.9753921701584	112.086417794699	
172800000	-55.88255551597	-14.8318471126318	-0.00507457583323824	-3.17225731137301	-0.0312185692688524	-3.11496536595081	-50.3863370589389	47.0950032432708	
173440000	-50.2704071357449	8.78923091060642	-0.00139355422493388	-3.15099465728487	-0.00973107817788926	-3.22018220525736	-65.28456746958	91.1033594459663	
174080000	-51.457471017996	-7.44789205824545	-0.00524958114206552	-3.18566674874731	-0.0154636295950616	-3.08211041771514	-51.9467577700035	36.6468481808587	
174720000	-61.9687470328391	25.7717324272782	-0.00386066501704919	-3.19168315711755	-0.0231138300885967	-3.2690686503611	-57.6330076485699	77.4955422715398	
175360000	-55.3657748298754	22.6339118121549	-0.0167229186859269	-3.25738188460713	-0.0152159208140807	-3.13786088316973	-50.1970840889635	102.378292018808	
176000000	-50.3959820771158	23.0471351081455	-0.000325184567687257	-3.17737392527971	-0.0127853841483484	-3.32731319534227	-55.1135397968227	35.5476417657398	
176640000	-53.8755652925836	48.0616665839945	-0.0196598743578488	-3.30465123868757	-0.0205063430306512	-3.25339718905857	-54.9455277167907	119.582425672697	
177280000	-58.3165671515775	-21.824545855238	-0.00749092032161235	-3.29566787800072	-0.0335297542232408	-3.2782696557022	-47.861660519718	69.0535141382516	
177920000	-50.77971159912	9.85905966472694	-0.00188103668613325	-3.25836955422276	-0.0239893182958963	-3.28653699582776	-51.2652090980072	110.016985443209	
178560000	-58.0255998641851	50.0487975731772	-0.0159066568864039	-3.13787356166445	-0.0147388047665432	-3.12056958704845	-52.0617073402961	116.682704673619	
179200000	-52.6540515855954	40.9564253504726	-0.00589017916273221	-3.36774660949417	-0.0162555069280177	-3.3556863004981	-51.0077415643819	65.5402522681194	
179840000	-58.8802113619968	-26.9356784018765	-0.0232055570565233	-3.3033093247212	-0.0228278052252988	-3.30139007178136	-70.8649487486541	-64.6208439779169	
180480000	-53.528793014414	24.6840531015819	0.00575386064941152	-3.3673037783695	-0.0194332517629081	-3.19827690288846	-52.3272991437002	58.3853891138354	
181120000	-52.1631761616886	-0.135947311744041	-0.0148001591162848	-3.28541743789829	-0.028095201882867	-3.29560113699576	-50.0795268672417	53.408176215249	
181760000	-54.6420701275933	19.5433016844917	-0.0131347478185179	-3.36521402907105	-0.0246285434530182	-3.27491792904311	-57.9439843401486	128.973711530202	
182400000	-55.5087477877444	21.9352279734697	-0.0101302218441786	-3.29931533397071	-0.0134470373970432	-3.38516430285308	-52.7354229878444	19.8089746094826	
183040000	-56.3004719035979	16.5587532767652	-0.0179830296159613	-3.23990230404613	-0.0109245354612845	-3.33556584930353	-55.396385590494	66.3144188584691	
183680000	-49.6396900437746	2.75219720444876	-0.00758800229040479	-3.3489069913112	-0.0154459804585973	-3.41783226427953	-53.3495232851064	-0.207483118930454	
184320000	-49.2408465791722	2.06148502981637	-0.0143085322582354	-3.38588917791719	-0.0340238382111833	-3.36054697596443	-56.0213801839961	56.5840496879987	
184960000	-51.0728775456026	20.9168004815969	-0.0219938422812437	-3.38847065636594	-0.0196936616440855	-3.39239544564664	-52.7333320859046	64.0537744690432	
185600000	-48.9485421213389	24.6748500884053	-0.00836895517191033	-3.33121231036581	-0.0348692640164264	-3.2859713492416	-48.8145439609666	104.129015383996	
186240000	-61.1413583544323	4.7117733963222	-0.012314124553675	-3.42098102616122	-0.025957171396089	-3.40349771213131	-53.8016078071458	102.698145504536	
186880000	-54.1956614325403	31.5355166274317	-0.0160177307128616	-3.35401575477367	-0.0220623378510492	-3.47518493628598	-48.8107788020755	66.7242049664643	
187520000	-66.2144029582202	136.172047144755	-0.0100588566484868	-3.5180591612488	-0.0153375449373522	-3.38185875722565	-52.8682037756407	25.8354663599749	
188160000	-48.5783067377655	18.7584922169489	-0.0141366038833138	-3.47843899459884	-0.0116070688310475	-3.38029961196789	-49.2630165485011	63.4852131116222	
188800000	-50.673483470139	-20.3125800070158	-0.0224682584019792	-3.39963131743146	-0.0213927194587312	-3.41091070123255	-62.2387131950075	100.674765622232	
189440000	-51.4770224662513	15.7672246140686	-0.027686632707618	-3.47677392448738	-0.0119448286925347	-3.49639388755425	-53.0302631202743	87.1594162807438	
190080000	-53.6468291395102	25.2317713075191	-0.0210640030495753	-3.55241454485457	-0.0126980943596158	-3.4220824705797	-52.2182162617404	41.2539368426578	
190720000	-52.9808975841951	-33.4758433714748	-0.0146565093991361	-3.47811197463963	-0.00920430932975511	-3.50812502752957	-50.6521324641293	101.909834328477	
191360000	-51.6319381882245	17.2890502540039	-0.00448943557914497	-3.58639265421239	-0.0349518111876164	-3.52410682489552	-64.2117394322424	-39.7141951826094	
192000000	-54.6857709787894	-11.3209561493185	-0.0114019664220335	-3.44873948166192	-0.0172243718814184	-3.4456077745812	-51.6016253234969	43.0291662529092	
192640000	-55.1320963539312	-19.4867772245871	-0.0218031006503821	-3.54855030461646	-0.0112901525231646	-3.57836290203439	-53.3529967817016	29.5486386982405	
193280000	-48.864794488709	30.2991054018222	-0.00738651345744016	-3.54006053774012	-0.0102080702800556	-3.44773098247221	-53.2264994267128	24.9627190603149	
193920000	-48.605058385023	26.5643305895131	-0.0148023940645801	-3.51311142022661	-0.0259586014824228	-3.51785737897341	-58.7262752112589	34.1818454997475	
194560000	-46.5019660732603	19.900885288724	0.0116103129986008	-3.52565469863445	-0.0123955702673137	-3.53114513899397	-57.9777396197062	78.5625091656856	
195200000	-53.4213726979698	-17.8453407622807	-0.00796333326958882	-3.58793405929851	-0.0226744495911211	-3.50769924924733	-56.2074229691597	103.84674243796	
195840000	-50.9466989559021	-4.50329661827263	-0.00705159633550634	-3.55713345948371	-0.0106834555236132	-3.58547430972706	-52.3647033031924	45.2369479169897	
196480000	-54.1913618642638	3.94488230230963	-0.0156259502338964	-3.51466427832133	-0.0251832920868743	-3.51366912077752	-65.4700842562467	45.7613247981225	
197120000	-52.3418778506744	0.403193585220812	0.0043008328753692	-3.63855531681883	-0.0153628671671053	-3.59432776368214	-51.2118286790196	65.9372813977957	
197760000	-62.7859457167326	131.815067400253	-0.00375513033789042	-3.54562789296762	-0.0178587856592517	-3.64834027128804	-69.3259247648179	79.2512861006857	
198400000	-53.7389697436347	42.6097311312765	-0.0166335028331679	-3.66263595654934	-0.0280570362709144	-3.56035757021532	-74.5147426736975	92.7250435563186	
199040000	-53.519333070441	13.8099839413753	0.00037008837702789	-3.65641441710467	-0.0137323467261387	-3.63547565439207	-61.7757803585473	121.781624463779	
199680000	-51.8059885674351	5.80029861856502	-0.00661761713749587	-3.64158058309053	-0.0201455935082895	-3.73209343584248	-50.7606956537006	60.3085779966656	
200320000	-51.0691039516118	24.5079356811545	-0.0257141676409338	-3.6102413557198	-0.0311193990666756	-3.64128811487361	-53.6543982031955	91.404719402486	
200960000	-55.5439744683006	19.8382976729972	-0.00982598553538306	-3.57446443216098	-0.00739414407098554	-3.61351231551766	-54.1365003273361	97.1369675746689	
201600000	-51.2701567452036	15.5321095372506	-0.0135632389907488	-3.67658990405633	-0.00738063132891887	-3.69900428073189	-51.590704046492	127.581492579439	
202240000	-54.7704413441222	59.0356004195538	-0.0105495048937584	-3.6839189111214	-0.0115737069317483	-3.72611979759302	-55.136570058687	103.466537222755	
202880000	-53.4089075460109	34.0762010235828	-0.00390596268903538	-3.69896138006712	-0.0197764944787744	-3.65033918920219	-53.3850192677201	84.6989083627554	
203520000	-51.4805610292329	16.2049109338693	0.00241962776803055	-3.74616177678733	-0.0238403358240538	-3.64705428772604	-46.1969286425455	132.536723465536	
204160000	-50.883974481039	-24.8895661307971	0.00469488479708288	-3.74483422177964	-0.0226895148771945	-3.77874075284872	-50.4689845729893	104.762867738315	
204800000	-50.7188020741571	34.3999695688061	-0.0172966019129554	-3.70066681168687	-0.022899708611171	-3.68004627728339	-53.7229262631966	65.1717318793737	
205440000	-61.9661304086947	-41.7495932452446	-0.000911455939566326	-3.84148354850356	-0.0177326555564716	-3.67080210774171	-50.1583251975673	83.2904106161795	
206080000	-50.9850401039278	-19.843124320675	-0.00804906038390093	-3.74889629197288	-0.0327754404944652	-3.79283225955133	-47.647675401059	59.2561930062875	
206720000	-57.831029335513	-13.3223297543262	-0.00276081848511796	-3.731755634674	-0.0298736383792193	-3.7718800930701	-55.2636450727621	54.5949332219548	
207360000	-53.648028840946	-17.8600824102696	-0.00855069557565468	-3.7624128220875	-0.0171327380233496	-3.75385405480666	-58.4601309586826	16.6610528902968	
208000000	-51.55740658821	-58.2507425801905	-0.0277080397332694	-3.73763582524044	-0.0424088873777268	-3.79529251150397	-63.7477712927121	69.3084156724995	
208640000	-60.426925778125	-42.2023750011819	-0.0162980461887568	-3.77550408014369	-0.0220584613039021	-3.75787959007465	-56.2562955199647	75.4267384061546	
209280000	-49.9708851932305	30.073249311317	-0.00423558108721503	-3.88449331445225	-0.0236735077212282	-3.82815632541873	-53.856509337646	109.061703120946	
209920000	-58.2271042503791	-12.8267283985351	-0.0108758872775093	-3.82470015559917	-0.0197082412774341	-3.81035933864257	-51.1030920500753	73.1487017766784	
210560000	-52.7389550514903	15.4039612150633	-0.0110918187042883	-3.92321770066025	-0.025608657546565	-3.81061846671828	-57.0800845871161	52.6441688937765	
211200000	-51.8027007490636	-30.630642220482	-0.0170482402348976	-3.82134764271573	-0.0189141153596863	-3.81580986888337	-50.5526345814279	61.9132493339383	
211840000	-50.2729258004397	-13.8111095827946	-0.0133982921278553	-3.81610357028051	-0.0240848682415042	-3.83949410138846	-51.1363874086171	93.6667572037222	
212480000	-51.698687137738	-0.447049770325055	-0.0153671098698652	-3.89454527707599	-0.025300024028602	-3.81554881545102	-52.1974750139674	32.4087490676198	
213120000	-55.8937142348109	5.74659768125865	-0.0147854450248682	-3.91822970933664	-0.0179358820394883	-3.82966017424304	-48.5868673995733	96.851580206765	
213760000	-53.0884567036881	-18.6121471232531	-0.00965937985562718	-3.86142100937671	-0.0207650574411003	-3.85254309204253	-50.053434054053	86.3739663104836	
214400000	-52.9798242588255	2.56611095152901	-0.0261362446224388	-3.9653360502975	-0.0248012794612908	-3.87962718780282	-55.8721254738044	66.0107282373009	
215040000	-64.8216849630163	-39.5741611985763	-0.00734042229544967	-3.94854285655063	-0.0194120729019629	-3.96512269165109	-48.800873478344	65.1800382306378	
215680000	-52.2682157152272	48.4935440203334	0.00976463315976329	-3.97358130588705	-0.0262371967883798	-3.83521431654745	-51.94314353554	111.517100799186	
216320000	-48.7344143955889	24.8362609511659	0.000275946241371536	-3.96158006991323	-0.0423661940070715	-3.98208918012209	-51.9229805691665	64.7524657234383	
216960000	-50.8152143110255	-7.30960990067913	-0.0185898406780739	-3.9557970618091	-0.00907720975118431	-3.95908580601785	-52.1396829894208	67.5394866085084	
217600000	-50.9841078126805	5.72736397221933	-0.00244956843621963	-4.12640133984469	-0.0233364384777826	-4.02747569825646	-57.539583650186	106.944494908157	
218240000	-52.8816562547315	14.9929154881973	-0.0263518430714347	-3.89956126811448	-0.0190393596857314	-3.93521789010613	-57.2194367100004	48.5747634389115	
218880000	-55.9588045979999	-32.5482833759979	-0.0161422662643507	-3.92605460756874	-0.0183929668245655	-4.01737947977836	-52.5390752816006	117.589579648192	
219520000	-52.3109858537096	4.47308472125452	-0.000345692261568978	-4.07093302613766	-0.0131238866008208	-4.06261729773953	-52.5423788724624	53.4994006699925	
220160000	-47.9384502501183	22.8573151780104	-0.011754526080277	-3.99020368695763	-0.0343191496174505	-4.03745862779136	-52.5832231297363	79.2656478270982	
220800000	-48.8532629877445	4.63919111100069	0.00364276495288086	-4.00010907819706	-0.0181815364462275	-4.01931513526834	-53.8043816292218	30.4869591177399	
221440000	-52.8628303155865	-0.617155154114584	-0.02397029863841	-4.02999926737127	-0.0242072756065332	-4.01205848195244	-53.552807185472	74.1440119521741	
222080000	-50.6622986908709	0.232590927745975	-0.0204051257791513	-4.01613526465521	-0.0327999538327594	-4.04857931562219	-51.4574491896203	97.1363362279775	
222720000	-49.2923768988452	9.96648367297433	-0.00194257719701945	-3.97816085311594	-0.0222764775435529	-3.95217365092944	-58.5987482639698	114.129185476644	
223360000	-52.2990872950737	-4.32231227726723	-0.0142424818188005	-4.09694797590537	-0.0154655144720545	-4.08024614763358	-58.8393587449822	38.9272761014798	
224000000	-53.2100856860062	10.8951247699986	-0.0191260824373214	-4.14480289481634	-0.0182472553608188	-4.13602625701541	-52.7070580823857	36.0835366632628	
224640000	-53.1571958408013	-10.3740187694633	-0.0139851161941524	-3.99721809951666	-0.0275736486670544	-4.05589278122954	-66.5217154641321	86.4181072888174	
225280000	-52.8609185097299	-13.9057686851432	0.00656568606985978	-4.19460841643148	-0.0246262286560841	-4.13099798159484	-59.7855423936351	55.7866140136748	
225920000	-61.335577476096	29.6557675304101	0.0188307593749423	-4.01293879699003	-0.02772654093189	-4.16449260711446	-53.0546344227784	65.7919759615938	
226560000	-51.1648868113342	-16.6271062757064	-0.00521699691832523	-4.11293443363101	-0.0181205256726592	-4.14409224434484	-51.6213925330027	78.610651462623	
227200000	-54.2847372904313	15.1556801074888	-0.0151190064091322	-4.1422361137035	-0.0100040164186347	-4.08634791289181	-62.0261412560805	165.565753151348	
227840000	-56.4244981253886	39.8137567300427	-0.0186134944495597	-4.10513327684088	-0.0330429298959204	-4.1072990161579	-55.8706320654734	111.954054330604	
228480000	-52.6150083665391	-12.8566948485046	-0.00873757385900402	-4.21522522184306	-0.036766482490385	-4.07724043303968	-57.4855966160302	44.1507416851752	
229120000	-46.6536434822501	-6.49200337695475	-0.0305623702932828	-4.20987909353931	-0.0145463019148989	-4.0729509437389	-56.6929157299544	60.0297667763432	
229760000	-58.8789492603729	99.6246966230494	-0.0204790334947136	-4.08727519327982	-0.015171014024558	-4.18682317192785	-49.6235935318711	102.152484120847	
230400000	-56.1308749686275	24.9858179039384	-0.0158307367190934	-4.15297289700253	-0.0287560587940922	-4.17362327115868	-61.0435468753578	85.3297967517376	
231040000	-50.5725302351558	-0.198850515729503	-0.014399140533105	-4.17447131248814	-0.029893395581934	-4.17486734366442	-50.3757306396762	38.0684096250398	
231680000	-51.3183394781083	11.2807972086856	-0.00552913313602789	-4.18586399542002	-0.0177575747633876	-4.21666606895491	-48.9318275706504	71.9765281494022	
232320000	-56.3023566323663	20.1472680896659	-0.0153457091236793	-4.26982169929998	-0.020110445505029	-4.22078514861402	-55.1151685933073	4.25171738216493	
232960000	-57.3596301680577	-35.2037620689071	-0.0198308959447508	-4.23868462070299	-0.0187063777542155	-4.18274179671831	-50.1584164992707	39.4254577107051	
233600000	-51.5732176365395	-7.31580545342945	-0.0127249041828081	-4.30785993597785	-0.0219759550032156	-4.17239272220658	-51.2905054029049	105.549198996084	
234240000	-55.5649219473841	-4.65358303370258	-0.0145436210868547	-4.3110993417149	-0.01393207954967	-4.31015873411654	-49.6522884172216	105.108381767105	
234880000	-50.4002645191451	-18.6993068296937	-0.00605548108678082	-4.19152350972439	-0.0164767594705825	-4.26340499354945	-49.5172950568064	76.8189691775949	
235520000	-53.8617599448078	5.67041475963944	-0.0141361855808962	-4.23215084273668	-0.0211131379228901	-4.3023338860629	-49.4707079350257	52.1930309661955	
236160000	-54.2709256673652	-33.9906319230909	-0.0103762797471161	-4.19966053729153	-0.00943507421825251	-4.38756877900878	-54.258822165557	125.964858965816	
236800000	-54.8638113074345	19.4191858775885	-0.0170309981411993	-4.29211713725109	-0.0214292683340753	-4.27344106393229	-49.689238402217	70.733735360239	
237440000	-65.4778665953438	91.3510438239543	-0.0167914689126657	-4.30226597606966	-0.024966364876055	-4.24662614331646	-50.8151810137824	88.1913749116383	
238080000	-48.6077980392398	10.34944836143	-0.0114611365672453	-4.27702512321016	-0.0200503654618333	-4.24025090339541	-49.0283776977371	70.7482606470697	
238720000	-49.977253413096	-1.8670567752791	-0.0206927930620735	-4.32444593398819	-0.00861688186938365	-4.31122360252231	-53.3715276890804	35.8190200076815	
