!Keysight Technologies N9950B: A.12.38
!Date: Thursday, 18 May 2023 16:38:39
!Timezone: (UTC-06:00) Central Time (US & Canada)
!Model: N9950B
!Serial: MY61131330
!GPS Latitude: 
!GPS Longitude: 
!GPS TimeStamp: 0001-01-01 00:00:00Z
!GPS Seconds Since Last Read: 0
!CHECKSUM:1207914676
!Correction: S11(ON U)S21(ON U)S12(ON U)S22(ON U)
!S2P File: Measurements:S11,S21,S12,S22:
# Hz S DB R 50
800000000	-51.5032125817396	33.652871727278	0.00275144303583156	-30.2076191498297	-0.0125331848167187	-30.1639279506686	-59.3596793353078	48.9401358293504	
803200000	-55.8236469183394	-14.2634804987873	0.0106395526330025	-30.3288524485177	-0.0174419904739265	-30.3847043217271	-54.9709883834034	105.705658179097	
806400000	-68.2911979128532	-156.754516547222	-0.00401529686384215	-30.3378672576448	-0.0189438725092607	-30.4096824747402	-60.2618587824313	37.0061308741766	
809600000	-47.5459675072397	-0.220967533194659	0.0122978358189686	-30.4977293493457	-0.0167399337121766	-30.5543737901175	-55.2622108631074	-73.8005664048814	
812800000	-57.4616995883201	-32.8683591829412	-0.00402979380955436	-30.6803514195039	-0.0308862273752714	-30.6594205277053	-64.9111601640357	-33.088586970559	
816000000	-63.8748795164886	-131.503590499596	-0.00935262897315398	-30.7990315942181	-0.00188589757315549	-30.8056553834683	-71.8503257533934	3.16556418251476	
819200000	-61.7470414846427	-5.76148690734647	-0.0102231829511221	-30.9835208235265	-0.0178222828678214	-30.8572211689172	-71.2476567065609	-174.029706590761	
822400000	-57.3405891329033	48.6823412534982	-0.0131153379743334	-31.1068546329322	-0.0307273208703102	-30.9453165899089	-52.205748424677	-5.43024993525463	
825600000	-50.2924972358867	-25.0003342160384	-0.0076094809819968	-31.1075663627757	-0.0173336111220075	-31.1405328037512	-50.3917908642123	-18.187205757758	
828800000	-55.5709168004451	12.0852174034917	-0.00436445781674884	-31.2630985491345	-0.00628560675313301	-31.2238295946691	-64.0042526614043	75.0614770973957	
832000000	-55.8320149435956	1.85550941225062	-0.0128607761859044	-31.3605673269571	-0.00856099213815077	-31.4028856550447	-59.213945025834	-32.5154834894919	
835200000	-63.109398108317	168.907497202685	-0.00362293905129518	-31.6013386747341	-0.0305236125501836	-31.5370270071995	-54.8094962221289	-53.2785463926105	
838400000	-68.9806728730875	48.5697951337802	0.00497603674345607	-31.6467801917388	-0.0251304177116999	-31.6008002792047	-58.0497103661716	71.4557872788164	
841600000	-56.0292934710236	92.9496345234416	-0.0014397555022597	-31.7433942889765	-0.0113284051628317	-31.6900363963786	-54.5282230257331	74.6948758522886	
844800000	-53.1552798816947	-35.1028118159282	-0.00606292846359647	-31.8457913293688	-0.0167183862893531	-31.8307291558551	-73.4911233778523	-174.974849966037	
848000000	-55.0571824348401	65.4922435954331	0.0152468684396877	-32.0544354847018	-0.0203422388901422	-32.0788680222607	-62.5759767188937	143.033779933579	
851200000	-58.1232284731868	13.4284868074184	-0.00422695901535712	-32.2337368406668	-0.0160185814782884	-32.1587791196319	-54.9373601242495	65.5798871416559	
854400000	-61.0369624189856	25.7447924219278	-0.0127059684861499	-32.1947704806282	-0.0126780199474293	-32.2920522575302	-58.8318634789598	81.9385821197696	
857600000	-55.2821176233568	-4.26719200720643	-0.00864803668207398	-32.4127262591628	-0.0207141412860815	-32.3319931804496	-57.6139703001111	67.3581394548589	
860800000	-57.8100590117671	138.636100946755	0.00985562868489531	-32.4722439157742	-0.0210513355011181	-32.4929002505425	-57.4220334143892	85.8811802637887	
864000000	-68.4043651180326	155.938390611561	-0.0171976173359731	-32.5392894579765	-0.0142229136215094	-32.6101559063713	-57.6744213405481	2.41149386405305	
867200000	-55.6736240282419	-45.6292451844722	-0.019055946175697	-32.8344042069348	-0.0215102375624128	-32.7475617368372	-63.5602032496853	117.372042576781	
870400000	-56.2487296462933	11.105170940188	-0.00883556947297869	-32.8360307199951	-0.0111167486907048	-32.8775661567682	-54.4700416727513	93.7114722057242	
873600000	-60.6769155737771	4.02196519390004	0.00808252419255214	-32.9867912508304	-0.0170192406880072	-32.8941812674444	-60.5210396474158	-21.4119871228777	
876800000	-56.456553329264	-166.399470295706	-0.0173802069248409	-33.1111697352244	-0.00864746914642964	-33.0607146761904	-57.9943197931964	47.2993561771386	
880000000	-60.332882567401	6.9740437658394	-0.010534943003408	-33.2170262877773	-0.021996053375015	-33.2720627996933	-52.7675736675851	17.9895351252449	
883200000	-57.5110899076518	-56.5917865404409	-0.0173239087097565	-33.406888189507	-0.034045036396303	-33.2938857988515	-49.2205388760701	21.7668679326486	
886400000	-72.2409611556862	-125.87332303631	-0.00553294484312471	-33.3566791743279	-0.00581999298165565	-33.4416916156903	-53.9046485502193	-21.4069198523376	
889600000	-49.7250990799274	-44.1009303773377	0.00049538369179161	-33.5850926267806	-0.020015310654924	-33.5447515235191	-53.4939748181238	48.2630634332182	
892800000	-53.5828411389939	48.1149598602966	-0.0227438619539466	-33.72759287812	-0.0215420303557138	-33.7506810536117	-56.9536271241397	42.1477416914941	
896000000	-55.3914564227705	-31.8838051067341	0.00777562280549014	-33.8634365524966	-0.0158611863111091	-33.8058715026087	-54.5435155268666	-25.4443888623627	
899200000	-56.6527633326049	145.696767012117	0.00232311171237699	-33.8777114764487	-0.0183592449035108	-33.9536558686735	-54.0872806680015	40.7018387988721	
902400000	-61.731172071498	63.4307928502911	-0.00799675494564852	-34.1279490162009	-0.0110278467342471	-34.0884859860347	-62.7375463665082	-140.260071845678	
905600000	-54.2182765595348	-2.47748926522884	-0.00844555369215471	-34.1896498565382	-0.0174093526732107	-34.1662313337776	-65.8917236545576	102.01208325773	
908800000	-52.4352242833359	28.9037411576843	-0.000945707898115687	-34.2483644061032	-0.00827036674959331	-34.2825697512674	-57.1982015204318	-6.98654715196038	
912000000	-52.8824913253013	7.00162509828535	-0.00575304654407541	-34.3891991221118	-0.0049468140576502	-34.3480868910721	-52.4594919857409	-53.8920820898956	
915200000	-54.8845609730298	13.4776796875672	-0.00888292092339497	-34.5601536327542	-0.0181640093235823	-34.538317144824	-50.8674320582461	4.04023714536543	
918400000	-53.3789272708433	-15.5310609122414	-0.0128972048918789	-34.7295006363116	-0.0225231323968786	-34.6159593496048	-64.5447410446957	73.5869538137839	
921600000	-53.6516272337655	43.4350966418995	-0.00629935648872209	-34.8070704336803	-0.0259597269729664	-34.7630670189384	-57.0872253065153	26.9269735024611	
924800000	-57.0952220444834	26.0984107594428	-0.000829755432891891	-34.905425510902	-0.0343825271186724	-34.9142571901078	-48.251875599059	-52.3165759126564	
928000000	-62.5449908091426	-153.941215099135	-0.0184820908903366	-35.0264011150485	-0.0102552770298888	-35.0602424525548	-53.5062317599278	-8.31962725339408	
931200000	-52.153993789804	44.8111828191208	-0.0047700725879501	-35.1172705021632	-0.0162496128760601	-35.1480464770703	-59.9570744734688	2.88661460780653	
934400000	-53.7407498702971	32.5799183868301	-0.00134228863030984	-35.2406742997647	-0.0291753707708459	-35.2896255571932	-66.4736546547366	57.5845273943809	
937600000	-55.6294972093983	-117.397678734879	0.00650452128322381	-35.3684787553396	-0.0123741685862347	-35.4517776168675	-58.0928590614247	-115.371613308416	
940800000	-57.7126452288581	45.749057631216	-0.00462866626284806	-35.5631216961473	-0.00854562257867603	-35.5905922216921	-55.7933217199125	29.680316774098	
944000000	-54.9506124745029	40.0917480054732	0.00588211297933823	-35.5980766385379	-0.0184308735343103	-35.6096523325415	-60.0077930587817	64.2062146486554	
947200000	-55.6550220934715	44.6556661113738	-0.0222786767287354	-35.7283519644457	-0.0123183185785719	-35.6712246339993	-53.8103943240529	77.5352990573395	
950400000	-52.7380942847703	35.0007975413647	-0.00381461700607135	-35.8580585713426	-0.0153908466634824	-35.817047917318	-53.0811881315367	25.1894312400392	
953600000	-55.2539961988593	29.5332179556263	-0.013203890225165	-36.0335054259709	-0.0274306394627456	-35.964382023471	-54.8220428200757	-87.6536149293374	
956800000	-60.1273113142131	-30.4902790904894	-0.0103606560108408	-36.1176301091249	-0.0196158597956874	-36.1558808708448	-54.5521436374167	25.7974342086418	
960000000	-57.3596560571752	-60.2419934748226	0.00289268189137336	-36.2702943386001	-0.012228030175826	-36.1486163614936	-63.2654874175222	46.0272210346537	
963200000	-55.9149593968341	30.4377261833486	-0.0188807393175235	-36.2461749421142	-0.0230264923650027	-36.2917545418934	-55.0039879728625	5.0581354315422	
966400000	-65.3679601367632	123.484748255697	-0.0201683958706485	-36.4698271702576	-0.0192863158360978	-36.501903601622	-53.3349656164896	-84.3205994041154	
969600000	-62.2725590862193	140.501572872688	-0.000841288735668561	-36.6103535158725	-0.014627116574064	-36.6306339910826	-71.2292834236239	52.9785199926765	
972800000	-58.0903682749091	30.9950429315577	-0.001005340038378	-36.7256331805207	0.00474266357396797	-36.7351971495979	-54.1390653401433	55.7511401731694	
976000000	-55.1694440290911	24.7871838947891	-0.0110838945895963	-36.8405920261484	-0.0230342440021453	-36.8742600575478	-54.2366260115451	47.822513028532	
979200000	-59.8554356230091	22.7371763384879	-0.0160606103438504	-36.9607086379919	-0.01289603606547	-36.9636653296695	-62.9829128243959	27.9627058128703	
982400000	-58.8408873546555	-12.6386482346829	-0.00896369369220837	-37.0462850861496	-0.0283602608426307	-37.0849042298929	-63.5095393676908	47.4776501451627	
985600000	-57.0866550019972	15.8128168040499	-0.00637668451334524	-37.1770980233686	-0.0139294719281458	-37.2573642991347	-59.4757355461868	18.7834582995039	
988800000	-70.5080421041367	134.919681254368	-0.0144172257831935	-37.2416076465759	-0.0138085505182272	-37.3574374771817	-53.5151714217031	106.64322222267	
992000000	-60.3919068986815	10.0479744805907	0.00863219032909694	-37.502202734426	-0.00821926436335911	-37.4094706250413	-63.3874540980978	-149.118849247124	
995200000	-54.1738864636047	-65.6188702665323	-0.00190657471825746	-37.5738825769992	-0.0258214769969715	-37.5463327982079	-65.5590085732497	159.189472550803	
998400000	-54.2035745167721	-21.6696683338573	-0.0034617410062961	-37.6525276737948	-0.0170228281007395	-37.5479941832004	-66.5062493783109	-51.5993310183882	
1001600000	-55.0297460547176	26.6542150270838	-0.0025072129279715	-37.8054775604516	-0.0110278099082744	-37.777226673797	-54.3256896002683	-36.6006813164179	
1004800000	-55.4711495971415	22.5173097837778	-0.00809945882484436	-37.8644655214257	-0.00802117695092928	-37.9139518718349	-63.5589936721181	-122.520636362397	
1008000000	-60.0226865976929	-43.0215932126141	-0.000623876424737598	-38.09038072166	-0.0202669570212575	-37.9678300147861	-60.2407326771062	-10.415857641861	
1011200000	-56.4110885695505	-17.9543185213809	-0.00349150818626953	-38.1398115700224	-0.00189319851674346	-38.1767533492267	-63.6377181886678	71.7497447447491	
1014400000	-61.9450790168898	165.022315417878	-0.0112588984648904	-38.3383449337973	-0.0198333567365218	-38.2684823750557	-54.6966466625313	-77.5653093394301	
1017600000	-51.4558736021061	-15.1155711036026	-0.00928886490398675	-38.4305562799757	-0.0141471093567787	-38.4538749510281	-55.2121556261806	33.9878278202354	
1020800000	-56.7199625282264	-22.2119189786757	-0.00454343079785481	-38.5264353136423	-0.0245604045406868	-38.5629467136371	-61.7725656976	-2.96175853604339	
1024000000	-56.4473434958083	-71.407306369792	-0.00227678178915164	-38.6709421635993	-0.0287966345120173	-38.6430887677027	-59.4539037046256	-53.4870825448832	
1027200000	-56.2472088184357	-116.299753744067	0.00102566913097852	-38.6538192442174	-0.0158861278653848	-38.7720645968917	-52.6968865458321	19.1583212237178	
1030400000	-78.6632679160735	-36.5860905043755	-0.00719682559106542	-38.8150675173144	-0.0087928096752427	-38.8385869282721	-52.4066425417444	28.7674231722134	
1033600000	-62.1803982456349	-20.3820182234125	-0.00781450273954091	-38.9989120359173	-0.0250333616798988	-38.9895464988321	-56.386174129803	-50.4266631413519	
1036800000	-62.6132644018203	-4.2685973253648	-0.00647406370283682	-39.0767824103549	-0.0200047939465948	-39.1115184404218	-56.1450917986983	13.7618604951452	
1040000000	-56.8803308139281	28.725347583904	-0.00922217633991531	-39.2299468122658	-0.00883177590889016	-39.2439821940881	-58.9044781381856	76.6603695532765	
1043200000	-53.542337555332	6.67801355495562	0.00122822941333565	-39.3633403060516	-0.011944892630362	-39.2965596245407	-51.7986447905103	-48.7523790824907	
1046400000	-58.5571012090923	51.9796115651703	-0.00691711377484151	-39.5753791998284	-0.00743868946726227	-39.4675527278074	-56.4908153060327	-137.97824174842	
1049600000	-49.3153992892017	-47.2180670395661	-0.0209741744057681	-39.5325552169315	-0.0119221293437163	-39.6888247251033	-59.3594316796942	-8.91290525780476	
1052800000	-55.0307002828932	-21.2596385363932	-0.00276465920797869	-39.7658528748597	-0.0307547279862214	-39.6962663434903	-57.2167190395964	57.8219695378115	
1056000000	-53.6393779430232	0.286616322566527	0.00775349078138059	-39.8345312840894	-0.0132308894470296	-39.8097602565301	-63.8002212214934	-14.4813343075431	
1059200000	-54.1064310345233	16.3437985477604	-0.0163883394002511	-39.9742425202791	-0.0118574182456563	-39.8837718395508	-58.8735249023142	-42.0188581274584	
1062400000	-52.7049243661015	-2.71590096564871	-0.00418719986223589	-40.1835327027447	-0.0254959148008767	-39.9860492788088	-54.7038891614632	-33.1863221940079	
1065600000	-58.9430270607813	-13.2502518319996	-0.0104162437817849	-40.0845385451944	-0.0204579487043067	-40.1898139352687	-56.7113612460048	-91.3099682217473	
1068800000	-53.5942366764357	-34.7926977852503	-0.000545272136671262	-40.2754722647481	-0.00590466349679338	-40.3137830869512	-65.1873460966753	-106.978033147469	
1072000000	-55.2577562992672	31.2794238551841	-0.0148107900925651	-40.4930444647739	-0.0143037096757207	-40.4733153196398	-52.9496784929949	93.7429913737546	
1075200000	-51.7522222494697	-17.4507612702886	-0.0101066076813863	-40.5998148696754	-0.0301104427511869	-40.4922987036629	-55.3486711298359	-83.2323070789741	
1078400000	-58.0003912975291	-13.0061980250075	-0.0054189848959038	-40.6261125500788	-0.0244659157043832	-40.7182134978367	-63.3946710272566	27.7100804542771	
1081600000	-59.1004302107964	-23.1998094976418	-0.00329302009169907	-40.793270638509	-0.0273876634855767	-40.8453863547066	-51.5310234622538	-70.7713124461503	
1084800000	-48.5177536488415	30.2642945776423	-0.011078344224069	-40.9580489558144	-0.0113721197749404	-40.9450791166498	-53.5211956181285	6.84726674129514	
1088000000	-60.4613097606352	-18.7829454797269	-0.00537120254310537	-41.0790639537531	-0.0228210951947392	-41.0967427775975	-66.5165645872735	138.594404641947	
1091200000	-55.2764611021096	-105.397747344387	-0.00997396695287931	-41.1223027995725	-0.0241276238349649	-41.0524396168246	-55.8874289586356	27.9316165174695	
1094400000	-52.0535961087421	5.4116657081062	-0.00919265499501947	-41.3366853631715	-0.0237759293744825	-41.3080804116394	-64.0857581462819	69.2853899427383	
1097600000	-55.2335338344946	-56.0631537752732	-0.0120858197390592	-41.4565437518033	-0.0318524649671025	-41.4395956544899	-51.9073285715913	23.855721105629	
1100800000	-64.6163730020989	-6.36468426767717	-0.0154738955060563	-41.6446577927952	-0.0173539413400111	-41.483505691736	-57.6724200671753	72.3199282655197	
1104000000	-54.3584141767342	19.2404567831147	-0.0164266273280539	-41.6894853653791	-0.00781996690638742	-41.5551439199308	-54.8595454915257	-5.05277399256727	
1107200000	-53.4908211296224	35.9001943393212	-0.0117733834451066	-41.7551524518121	-0.014475918631766	-41.8172463885016	-54.9942574862025	43.6773069149363	
1110400000	-60.6768572085483	32.6739412488128	-0.0165036722799461	-41.9953050061832	-0.0246736500235402	-41.9032839376853	-57.6590532742686	-17.0421761874536	
1113600000	-62.4711715595005	-40.6894880502808	-0.0041460207424732	-42.073063269392	-0.0252016873841761	-42.0167779025479	-64.1711077653178	-4.32104723684649	
1116800000	-53.024106921155	-7.102520244632	-0.0213140851254947	-42.124814231457	-0.0134659404757671	-42.0511630242619	-56.2980888778884	-25.1891264619826	
1120000000	-56.8152744372858	-115.686740453433	0.00346874979618412	-42.2287032634718	-0.00939656672807405	-42.2173237173517	-58.5378220954222	35.1299409125456	
1123200000	-61.6090573877612	-23.6892484249191	-0.0128197720175585	-42.4098796336348	-0.0201054528234809	-42.3889978371882	-56.6613292453594	-3.28853368367489	
1126400000	-52.7652339335803	-45.1994161105041	-0.0139250324881202	-42.4386497768853	-0.0306023262569012	-42.5112573964043	-59.0343051819876	123.024718085975	
1129600000	-53.5083831909934	-35.4006941162043	-0.00136949448473826	-42.5972087314701	-0.0216672195250404	-42.5430147250506	-55.5178656693711	3.46491674602439	
1132800000	-54.0171692181455	-0.349525006853058	0.00394982872116352	-42.8085710766173	-0.0261734111549039	-42.6870457136688	-53.1651281714643	69.9991567586941	
1136000000	-54.2066477103406	-2.65466342558679	-0.0172329992440523	-42.7952848666117	-0.00520401173174813	-42.836887635847	-53.5457418346375	-27.4672578358685	
1139200000	-60.5720558881945	18.5133457835294	-0.0189150426187852	-42.9453719383758	-0.0215414727276496	-43.0108431451176	-58.8778677734193	-14.3140637248331	
1142400000	-54.2548715782847	33.5221548822552	-0.0203599518688685	-43.0561761034027	-0.00220942630816701	-43.1530642118405	-50.152907634515	35.3080742616699	
1145600000	-54.0930450035143	-7.26436373888351	0.00155026540726957	-43.2736629507843	-0.0104628404883276	-43.215590560361	-59.1237832230173	1.54683055589581	
1148800000	-55.7152395122293	-37.9804786950903	-0.0130838909420023	-43.3305241880706	-0.0169266215822002	-43.3927959587005	-62.6038835261534	6.6598841342646	
1152000000	-61.5028797682799	-31.0496936521892	-0.0222000338381721	-43.5114963801312	-0.0058407895228565	-43.5262634755046	-53.8764588971018	10.5283213466589	
1155200000	-59.8591314230467	32.4051225629108	-0.00518578997854877	-43.6331829609563	-0.0318979814611347	-43.5762279263383	-54.6018037595901	-7.38669669303406	
1158400000	-58.0247521684102	-32.4981774766107	0.00138718335168491	-43.8118954737538	-0.0175749553471161	-43.684399176134	-55.0129037257482	59.0099818794041	
1161600000	-64.3245713049335	49.3029408486574	0.00967281743729571	-43.9689050041284	-0.0196491776583661	-43.7897952534369	-51.4010773378021	24.0748202340844	
1164800000	-72.4337678646004	29.1528350653646	0.0137010100661983	-43.9033998461628	-0.0217653479013911	-43.9343524169109	-51.1367704993282	26.9994585230486	
1168000000	-66.763711414409	-33.5825859383239	0.0032128263104561	-44.016636049467	-0.0113238037075209	-44.0509480478889	-61.6308049998362	-26.4630985066494	
1171200000	-58.9236431928239	-9.23301442062377	-0.0153504281597303	-44.2036316153927	-0.019220037251699	-44.1847174614105	-52.4211534659971	5.90307066058509	
1174400000	-55.7971117515256	-96.8466915063468	-0.0148282948349949	-44.3037548991151	-0.0230542447307708	-44.3189926705618	-59.2968975789282	-20.1547906720168	
1177600000	-55.0667335435774	-35.0368296663886	0.00208968022663807	-44.4377733825157	-0.0197174318693479	-44.4914648277105	-58.0987258621608	87.0234522957729	
1180800000	-60.1547301801481	36.8017689964803	-0.00570794972234238	-44.5433147147541	-0.0178375854260053	-44.5073518266951	-57.5122357497645	-74.5819856060661	
1184000000	-53.0207751479037	1.67096308431604	-0.00281915690005104	-44.6860118240297	-0.0124944399905886	-44.6642967072727	-60.8521302199467	-17.8809780314287	
1187200000	-61.8063085349129	-4.82850957288928	-0.0200244996493558	-44.7501572810573	-0.0190778163358475	-44.8136828390234	-59.7528546069625	-17.2707008372568	
1190400000	-52.9815298881227	6.0581767971498	-0.000726849321102348	-44.8847413814046	-0.0129605611278332	-44.8746195360407	-53.4886147526457	67.9508916354246	
