!Created with skrf (http://scikit-rf.org).
# GHz S RI R 50.0 
!freq ReS11 ImS11 ReS21 ImS21 ReS12 ImS12 ReS22 ImS22
0.8 -0.03163440153 -0.1927993447 0.9348432422 -0.1575338393 0.9350295663 -0.1571048498 -0.005000023171 -0.1522589475
0.80064 -0.03193889931 -0.1929780394 0.9347603321 -0.1573973149 0.9341896772 -0.1575547606 -0.005370714236 -0.1523711085
0.80128 -0.03702789173 -0.1910769343 0.9347741604 -0.1578772664 0.9347953796 -0.1577672809 -0.0003925280762 -0.1517852396
0.80192 -0.0370484665 -0.1910299659 0.9347993731 -0.1578944027 0.9346953034 -0.1577264816 -3.309547901e-05 -0.1517816484
0.80256 -0.0370103009 -0.1913992316 0.9344725013 -0.1582941264 0.9340515137 -0.1582909375 6.311514881e-05 -0.1518588662
0.8032 -0.03739310801 -0.1914698631 0.9339854717 -0.1579783261 0.9341031909 -0.1580734551 0.000457088172 -0.1518495381
0.80384 -0.03723108396 -0.1916498989 0.9340701103 -0.158468172 0.9335997701 -0.1581575722 0.0001555141062 -0.1518759876
0.80448 -0.03748879209 -0.1917191148 0.9336366653 -0.1586629301 0.933375895 -0.1584096998 0.0003311838082 -0.1520832777
0.80512 -0.03752989322 -0.1922849119 0.9337431192 -0.1585586816 0.9338436127 -0.1590012014 0.0006535861176 -0.1519688517
0.80576 -0.03754824772 -0.1921282113 0.933537066 -0.1586673409 0.9337825179 -0.1580676436 0.0005616354756 -0.1522705108
0.8064 -0.03791054711 -0.1925916523 0.9336255193 -0.1584701091 0.9332450628 -0.1587026417 0.0006587573444 -0.152268216
0.80704 -0.03817113489 -0.1925418675 0.9332453609 -0.1585608423 0.9335045218 -0.1589375436 0.0006008695345 -0.152252391
0.80768 -0.03777469695 -0.1931933165 0.9332169294 -0.1587508917 0.9328736663 -0.1586290002 0.0007412310224 -0.1523741931
0.80832 -0.03826485202 -0.1934444755 0.9333926439 -0.1592124403 0.9337587953 -0.1590619534 0.0006075823912 -0.1521772444
0.80896 -0.03834003955 -0.193658337 0.9330865145 -0.158891052 0.9335146546 -0.1588100493 0.000929359463 -0.1523574442
0.8096 -0.03834667802 -0.1936360598 0.933160603 -0.158757925 0.9334281087 -0.1585712731 0.0009466775809 -0.1526341587
0.81024 -0.03808906302 -0.1936701983 0.9331400394 -0.1591969281 0.9328821898 -0.1588737518 0.0007346444763 -0.152911216
0.81088 -0.03879773989 -0.1940965652 0.9330230355 -0.1587962657 0.9329026341 -0.159572944 0.001129195909 -0.1524897516
0.81152 -0.03882466629 -0.194185093 0.9325771332 -0.1591321975 0.9327337146 -0.1592552364 0.001145763439 -0.1527838558
0.81216 -0.03885034844 -0.1944327652 0.9326674342 -0.1591359377 0.9326627254 -0.1594562978 0.001384260482 -0.1527927071
0.8128 -0.03881110996 -0.1947708875 0.9326515198 -0.1589834094 0.9326383471 -0.1593893766 0.001074980828 -0.152842775
0.81344 -0.03917147592 -0.1950124651 0.9323043823 -0.159470737 0.9323558807 -0.1594906002 0.002123859711 -0.1528011113
0.81408 -0.0390596576 -0.1952107698 0.9322244525 -0.1590422094 0.9323861003 -0.1595315188 0.001536645344 -0.1532203406
0.81472 -0.03911959007 -0.1951235384 0.9321327806 -0.1593165696 0.932117641 -0.1594673097 0.001701386878 -0.153287366
0.81536 -0.03915865347 -0.1950328201 0.9322100878 -0.1593877524 0.9317048788 -0.1599769145 0.001500391518 -0.1530306637
0.816 -0.03941706195 -0.1953808963 0.931994319 -0.1593734324 0.9319223762 -0.1596648246 0.001644213335 -0.1532846987
0.81664 -0.03927992284 -0.1955731213 0.9320896268 -0.1596187502 0.9316222072 -0.1596345007 0.001642445335 -0.1531915665
0.81728 -0.03958216682 -0.1958396584 0.9318948984 -0.1596217901 0.9315179586 -0.1596916169 0.001802942716 -0.1533761173
0.81792 -0.03950054571 -0.1958803535 0.9317390919 -0.1595131159 0.9315702915 -0.1597610414 0.002049379284 -0.1532950252
0.81856 -0.03921800852 -0.1959205568 0.9317004681 -0.1594695598 0.9320354462 -0.159996897 0.001277540927 -0.1535927355
0.8192 -0.03943831846 -0.1960574239 0.9312844276 -0.159833774 0.931278348 -0.159719795 0.001682264381 -0.1537599862
0.81984 -0.03950928152 -0.1965160221 0.931358397 -0.1597080082 0.9315722585 -0.1603257954 0.002046638867 -0.1534473598
0.82048 -0.03940539807 -0.1964938641 0.9314674735 -0.1601077169 0.9312116504 -0.1596903801 0.00171494612 -0.1542485207
0.82112 -0.03931538388 -0.1966365576 0.9310805798 -0.1597312838 0.9308437705 -0.1598863304 0.001440533088 -0.1540449262
0.82176 -0.03941527009 -0.1968165189 0.930800736 -0.1600161642 0.930796504 -0.1599252522 0.001973703969 -0.1539226621
0.8224 -0.03946019337 -0.196991235 0.9310202003 -0.1597663015 0.931060791 -0.1602637321 0.001526960405 -0.1538010836
0.82304 -0.03950948268 -0.19701612 0.9307417274 -0.1601426601 0.9309708476 -0.1601980776 0.001693178667 -0.1542448699
0.82368 -0.0395848453 -0.1973453313 0.9308524728 -0.1597864777 0.9307655096 -0.1600398272 0.00183539046 -0.1543832272
0.82432 -0.0396505259 -0.197515294 0.9302374125 -0.1602802575 0.930257678 -0.1604977995 0.001665222342 -0.1541026831
0.82496 -0.03961420804 -0.1976888925 0.9304782748 -0.1601911336 0.9302834272 -0.1603260487 0.001709752018 -0.1545462608
0.8256 -0.03967196494 -0.1976641268 0.9302530289 -0.1602104753 0.9304019809 -0.1606872976 0.001578106196 -0.1544252038
0.82624 -0.03978135437 -0.1979249418 0.9301762581 -0.1606820077 0.9300094843 -0.1597338617 0.001891349559 -0.1552412659
0.82688 -0.03960059956 -0.1982098669 0.9300328493 -0.1606154293 0.9298251867 -0.1605061591 0.001580419019 -0.1547709107
0.82752 -0.03985776007 -0.1982048154 0.9299108386 -0.1605319232 0.9298527837 -0.1606984884 0.002026722068 -0.154698506
0.82816 -0.04012038559 -0.1984979957 0.9294352531 -0.1608442068 0.9299774766 -0.1605971754 0.001810661866 -0.1546719074
0.8288 -0.03986661881 -0.198778823 0.929805696 -0.160713166 0.9297635555 -0.16108118 0.001762596425 -0.1550052017
0.82944 -0.03981749713 -0.198693946 0.9298241138 -0.1605078578 0.9291866422 -0.1607580036 0.002263780916 -0.1553252786
0.83008 -0.04027224332 -0.1992685497 0.9293949008 -0.161376372 0.9293718934 -0.1613413244 0.001841852674 -0.1552650481
0.83072 -0.04013331607 -0.1991987973 0.929199934 -0.1612912416 0.9292631745 -0.1613894254 0.001930193277 -0.1554075927
0.83136 -0.04050826281 -0.1999262869 0.9293758273 -0.1610844135 0.9291837215 -0.1610212475 0.002093527466 -0.1553855389
0.832 -0.04041301832 -0.1998479366 0.9292311072 -0.1613248438 0.9288417101 -0.1617214084 0.001788797555 -0.1553276926
0.83264 -0.04068030044 -0.199898541 0.9287362099 -0.161444515 0.9288856387 -0.1613740176 0.00205195439 -0.1555252224
0.83328 -0.04079306126 -0.1998752952 0.9288286567 -0.1610451043 0.9289001226 -0.161021769 0.002093394753 -0.1555743963
0.83392 -0.04050123692 -0.2003394514 0.9285013676 -0.1616151184 0.9288066626 -0.1608611047 0.002252134727 -0.1556115746
0.83456 -0.04069062695 -0.2002986819 0.9283716083 -0.1610337645 0.9287950397 -0.1617305577 0.002487513237 -0.1563024819
0.8352 -0.04092209414 -0.2006380409 0.9283862114 -0.1613979638 0.9282394052 -0.1613415331 0.002258612076 -0.1557985991
0.83584 -0.04110375419 -0.201007396 0.9283844233 -0.1612311304 0.9277466536 -0.1612918675 0.002452728339 -0.1560819745
0.83648 -0.04139336199 -0.2012674809 0.928260386 -0.161163643 0.9279755354 -0.1612942815 0.00269842986 -0.1559837759
0.83712 -0.0415979214 -0.2013930529 0.9280529022 -0.1616034359 0.9280934334 -0.1614381373 0.00257672579 -0.1557298005
0.83776 -0.04160837084 -0.2014557719 0.9277558923 -0.1615614593 0.9278137088 -0.1615159661 0.002786984434 -0.1565077752
0.8384 -0.04162474722 -0.2015165836 0.9279182553 -0.1615282893 0.9279684424 -0.1618598253 0.002503125696 -0.1563873738
0.83904 -0.04175389186 -0.2019145638 0.9278721213 -0.1619339436 0.9281129837 -0.1616511941 0.002810933162 -0.1563227326
0.83968 -0.04186025634 -0.2017891705 0.9276140928 -0.1618666798 0.9278610945 -0.1616960913 0.002933558542 -0.156385541
0.84032 -0.04200813919 -0.2017569095 0.9276021123 -0.1617995352 0.9272868037 -0.1615767032 0.003396633547 -0.1569176465
0.84096 -0.04224744439 -0.202483505 0.9274376035 -0.1618458778 0.9275355339 -0.1617563367 0.003597392933 -0.1570854634
0.8416 -0.04231467098 -0.2022486031 0.9271283746 -0.1621674746 0.9274249077 -0.1619962156 0.003344684606 -0.1568153501
0.84224 -0.04243033379 -0.2029900998 0.927244544 -0.1621625125 0.9280474186 -0.162118122 0.003516516183 -0.1569744945
0.84288 -0.04276080057 -0.2031002343 0.9270999432 -0.1621029675 0.9272216558 -0.16222018 0.003403156064 -0.1568763703
0.84352 -0.04308827221 -0.2030814439 0.9274784327 -0.1621924341 0.9270421863 -0.1619958133 0.003682342591 -0.1572157443
0.84416 -0.04268338531 -0.2031383812 0.9270208478 -0.1619492471 0.9266360998 -0.1620139182 0.003572592279 -0.1572592556
0.8448 -0.04304558411 -0.2038175315 0.9266628623 -0.1625440121 0.9266090989 -0.162128076 0.003945989069 -0.1570445001
0.84544 -0.04283489659 -0.2035626322 0.9267714024 -0.1626055986 0.9264910221 -0.1618093848 0.004319916479 -0.1571820676
0.84608 -0.04311805964 -0.2040243149 0.9267169237 -0.1624210775 0.9265813828 -0.1617469192 0.003925836179 -0.156986177
0.84672 -0.04339754581 -0.203986004 0.9265053868 -0.1628334373 0.926360786 -0.1621885449 0.003970055375 -0.157298252
0.84736 -0.04329910874 -0.2044136226 0.9263615012 -0.1623954326 0.9261775017 -0.1622861177 0.004421046004 -0.1574713141
0.848 -0.04347033426 -0.2043174654 0.9264703989 -0.1628856808 0.9262266755 -0.1626211554 0.004206533544 -0.1574829221
0.84864 -0.04365037382 -0.2045509517 0.9262930155 -0.1626089811 0.9259807467 -0.1628162861 0.00466227904 -0.1577861309
0.84928 -0.04357961938 -0.2050623894 0.9260965586 -0.1628704071 0.9261094332 -0.1627259254 0.004320775624 -0.1575787663
0.84992 -0.0436928533 -0.2049462795 0.9262275696 -0.1628492922 0.9252870679 -0.1628312469 0.004704670981 -0.1578965336
0.85056 -0.04371191189 -0.2051176727 0.9260343909 -0.1626651734 0.9257163405 -0.1625451744 0.004771600943 -0.1583799124
0.8512 -0.04408315197 -0.2054938227 0.92575109 -0.1626544297 0.9252648354 -0.1626070291 0.004753813148 -0.1576261669
0.85184 -0.04386476427 -0.2058147788 0.92560637 -0.1632739156 0.9252124429 -0.1627553552 0.004400899634 -0.1576559395
0.85248 -0.04397043213 -0.2060611993 0.9257747531 -0.1630322039 0.9256427288 -0.1626233459 0.004771822598 -0.157961756
0.85312 -0.04407517985 -0.2059652656 0.925403893 -0.1631228477 0.9252901077 -0.1627029777 0.004916773178 -0.1581133753
0.85376 -0.04409368709 -0.20620583 0.9254606366 -0.1634292454 0.9253172874 -0.1626692265 0.004866076633 -0.1579290479
0.8544 -0.04409196973 -0.2061442584 0.9253985882 -0.1634529829 0.9252607226 -0.1625654399 0.004644784145 -0.1585205495
0.85504 -0.04441101477 -0.2065433413 0.9253100157 -0.1632704735 0.9248194098 -0.16299133 0.005009680986 -0.1585541368
0.85568 -0.04412259161 -0.2067496777 0.9247673154 -0.1629271358 0.9249678254 -0.1626962423 0.005160046276 -0.1586840153
0.85632 -0.0442000106 -0.2070564181 0.9252430201 -0.1633285582 0.924689889 -0.1634481251 0.0049233092 -0.1587701738
0.85696 -0.04417413846 -0.2070181072 0.9245647192 -0.1632002741 0.9245719314 -0.1625648439 0.005157366395 -0.1585981101
0.8576 -0.04420928285 -0.2073660195 0.9248447418 -0.1634299606 0.9246699214 -0.1628606468 0.004900907632 -0.1587085128
0.85824 -0.04425485432 -0.2072012573 0.9246655107 -0.16352202 0.9243215322 -0.1632162631 0.005050837528 -0.158670634
0.85888 -0.04443887994 -0.2077435553 0.9244455695 -0.1633989215 0.924298048 -0.163396582 0.004963475745 -0.1586315781
0.85952 -0.04467844218 -0.2079669535 0.9245094061 -0.1636615098 0.9241240025 -0.1632691026 0.004934177734 -0.1589992344
0.86016 -0.04455814511 -0.2083281279 0.9244329929 -0.1637390703 0.9243989587 -0.1631291509 0.005152813159 -0.1587336361
0.8608 -0.04457120225 -0.2082722634 0.9243765473 -0.163654089 0.9240708947 -0.1633308828 0.005069610197 -0.1593022496
0.86144 -0.04486623779 -0.2086939663 0.9240785241 -0.1640728712 0.9241594672 -0.1632690132 0.005291560665 -0.1591115147
0.86208 -0.04490140826 -0.208906725 0.9241604805 -0.1642815769 0.923838079 -0.1634583473 0.005030809902 -0.1592908353
0.86272 -0.04486997798 -0.2087683827 0.9238467216 -0.1643909961 0.9231488109 -0.1632864922 0.005175709724 -0.1591839641
0.86336 -0.04507073388 -0.2089622319 0.9235717058 -0.1639403701 0.9229463935 -0.1632163525 0.005423746072 -0.159702003
0.864 -0.04520611465 -0.2094871104 0.9236981273 -0.163942799 0.923416853 -0.1635270715 0.005581150297 -0.1596763879
0.86464 -0.0454213731 -0.2094791234 0.9237298369 -0.1641822308 0.9236840606 -0.1630267501 0.005391716957 -0.1598326564
0.86528 -0.04537426308 -0.2095414698 0.9235425591 -0.1641758233 0.9229499698 -0.163174957 0.005600715987 -0.1598534137
0.86592 -0.04594920203 -0.209752053 0.9232557416 -0.1640848368 0.9230801463 -0.163494423 0.005492157303 -0.1599816233
0.86656 -0.0456241779 -0.2099287808 0.9231082201 -0.1640374064 0.9219364524 -0.1635671854 0.005655631889 -0.1599650681
0.8672 -0.04555850103 -0.2103574425 0.9229530096 -0.164107725 0.9229709506 -0.1636343747 0.005390065257 -0.1604044735
0.86784 -0.04586001486 -0.210399583 0.9227278829 -0.164628014 0.922713995 -0.1633267999 0.0052820337 -0.1603415906
0.86848 -0.04626809806 -0.2107085884 0.9232868552 -0.1642768532 0.922945559 -0.1639305651 0.005927413236 -0.1599114388
0.86912 -0.04602121562 -0.2101606876 0.9229077101 -0.1645543873 0.9223402143 -0.1638695151 0.005748162512 -0.1604421735
0.86976 -0.0464920029 -0.2107889652 0.9228499532 -0.16480726 0.9224320054 -0.1635949612 0.00612218352 -0.1605257243
0.8704 -0.0465724133 -0.2111039758 0.9227045178 -0.1647599638 0.9223393798 -0.1639810652 0.005907905288 -0.1605308205
0.87104 -0.04634833708 -0.2111025006 0.9223528504 -0.1647047549 0.9224839211 -0.1640717089 0.005952527747 -0.1608793885
0.87168 -0.0467598848 -0.2114971727 0.9223539829 -0.1646441668 0.9220380783 -0.1633943766 0.006045266055 -0.1607718468
0.87232 -0.04687291756 -0.2116317153 0.9221034646 -0.1647239178 0.9223104119 -0.1635352969 0.006230313331 -0.1609122902
0.87296 -0.04704551399 -0.2116700709 0.9223867655 -0.1648468822 0.9218161702 -0.1638100892 0.006092832424 -0.16076231
0.8736 -0.04726544395 -0.2116999924 0.9217717052 -0.16509296 0.9214801788 -0.1640079468 0.006459568162 -0.1612267345
0.87424 -0.04715606943 -0.2118432671 0.9217452407 -0.1646984518 0.9214919209 -0.1637454927 0.006835517939 -0.1613250822
0.87488 -0.04738000035 -0.2120727599 0.9213984013 -0.1644313186 0.9214983582 -0.1637532264 0.006861004513 -0.1614311188
0.87552 -0.04763323069 -0.2123125941 0.9216051698 -0.1646301299 0.921743989 -0.1637167484 0.007055564784 -0.1619279683
0.87616 -0.0482266359 -0.212783426 0.9215788245 -0.165103972 0.9216567278 -0.16452986 0.006813235581 -0.1616726369
0.8768 -0.04780737683 -0.2125195563 0.921426475 -0.1652296484 0.9212597013 -0.1636132449 0.007038074546 -0.1617171466
0.87744 -0.04821505025 -0.212971434 0.9215170145 -0.1651147157 0.9209877253 -0.1641179323 0.006995145697 -0.1614552587
0.87808 -0.04819801077 -0.2130729109 0.9214000702 -0.1650969088 0.9206317067 -0.1639333367 0.007447425276 -0.1617736965
0.87872 -0.04837992415 -0.21329844 0.9215257764 -0.1650784314 0.9212990999 -0.1635047793 0.007605306804 -0.1617756039
0.87936 -0.04870061576 -0.2135915011 0.9210935831 -0.165102452 0.9209517837 -0.1638852954 0.007487061899 -0.1620847583
0.88 -0.04867947847 -0.2134959102 0.9211030602 -0.1651764661 0.9210910201 -0.1639877707 0.007387675345 -0.1623655707
0.88064 -0.04866076261 -0.2139099538 0.9207343459 -0.1652650237 0.9208333492 -0.1642359346 0.007562545128 -0.1623349339
0.88128 -0.04895582423 -0.214090839 0.92099154 -0.1655341387 0.92073524 -0.1643261313 0.007302978542 -0.1623403877
0.88192 -0.04886434972 -0.2140538394 0.9209042788 -0.1652536392 0.9205000401 -0.1641224325 0.007760795765 -0.1627913862
0.88256 -0.0489628911 -0.2141554654 0.9207761288 -0.1655592173 0.9204981327 -0.164240405 0.007610274944 -0.1628131121
0.8832 -0.04899907857 -0.2143644094 0.9202941656 -0.1651772559 0.9201114178 -0.1646593511 0.007964862511 -0.1628203541
0.88384 -0.04917383566 -0.2148157358 0.9205514193 -0.1651404202 0.9199829698 -0.164359495 0.008053794503 -0.1628701538
0.88448 -0.04896182567 -0.2150151283 0.9203421474 -0.1655019671 0.9199873209 -0.1639181077 0.007984890603 -0.1628679186
0.88512 -0.04940919206 -0.2150301784 0.920348227 -0.1654025316 0.9196531177 -0.164093554 0.008241053671 -0.1629086733
0.88576 -0.04938695207 -0.2152042985 0.920137167 -0.1656475812 0.9202913642 -0.1639605612 0.008424390107 -0.1629836559
0.8864 -0.04948267713 -0.215735957 0.9204429388 -0.1653586924 0.9197937846 -0.1647235751 0.008181405254 -0.1631585062
0.88704 -0.04952783138 -0.2160077244 0.9201261401 -0.1652705371 0.9197509289 -0.1645073444 0.008827931248 -0.1631204039
0.88768 -0.04985246435 -0.2163336724 0.9199986458 -0.1659460068 0.9196133614 -0.1640805602 0.00823902525 -0.162923336
0.88832 -0.04987814277 -0.216315046 0.9197436571 -0.1652701646 0.9196745753 -0.1645949632 0.008847314864 -0.1631985009
0.88896 -0.05006989464 -0.2166943699 0.9201395512 -0.1658883393 0.9194380641 -0.1645150334 0.008745060302 -0.1630259603
0.8896 -0.05018651113 -0.2171673179 0.9197485447 -0.1657451987 0.9194406867 -0.1643615067 0.008801210672 -0.1631877571
0.89024 -0.05033111945 -0.2169861197 0.9195329547 -0.1657602042 0.9187793136 -0.1646198183 0.00920836255 -0.16333206
0.89088 -0.05005208403 -0.217211917 0.9196949005 -0.1658492833 0.9186940193 -0.1648466885 0.008598918095 -0.1633143425
0.89152 -0.0499037765 -0.2179836333 0.919504106 -0.165672183 0.9189683795 -0.1645662934 0.008650084957 -0.1634905636
0.89216 -0.05012243614 -0.2177195549 0.9192290902 -0.1656668782 0.9187157154 -0.1651448607 0.008916041814 -0.1635930985
0.8928 -0.05042885244 -0.2180758566 0.9191017747 -0.1656817943 0.9186422229 -0.1650247723 0.008786854334 -0.1634377688
0.89344 -0.05044583604 -0.2184368223 0.918934226 -0.1658791155 0.9185602665 -0.1650194824 0.008877559565 -0.1636051387
0.89408 -0.05031256378 -0.2186505497 0.9189294577 -0.1660065502 0.9186569452 -0.1650155932 0.008922061883 -0.1637828052
0.89472 -0.05071922019 -0.218558237 0.91875422 -0.1660746336 0.9179600477 -0.1647775471 0.009269452654 -0.1635685563
0.89536 -0.05062346905 -0.2190776467 0.9185484648 -0.1661227643 0.9185914993 -0.1655233949 0.009243223816 -0.1640108377
0.896 -0.05093814433 -0.219185859 0.9186204672 -0.1659458578 0.9187107682 -0.1652473956 0.009244708344 -0.1638687998
0.89664 -0.05093849078 -0.2196778059 0.918317616 -0.1662626415 0.9182385802 -0.1651191711 0.009029462934 -0.1635620594
0.89728 -0.05100096017 -0.2195825279 0.9183538556 -0.1664022952 0.9182277918 -0.1651997864 0.009145629592 -0.1637587547
0.89792 -0.05136749148 -0.2198653221 0.9181789756 -0.1662000418 0.9182773232 -0.1653928012 0.009248504415 -0.1639963835
0.89856 -0.05139186233 -0.2198521048 0.9180395603 -0.1662361026 0.9178309441 -0.1654672474 0.00928320922 -0.163888976
0.8992 -0.05124683678 -0.220352456 0.918047905 -0.1661273539 0.9181518555 -0.1654068381 0.009616439231 -0.164029479
0.89984 -0.0515942201 -0.2203878611 0.9179744124 -0.1662958115 0.9177111983 -0.1650095433 0.00934660621 -0.1639967114
0.90048 -0.05175440386 -0.2205633372 0.9179242849 -0.1662258357 0.9174298048 -0.1650984734 0.009826510213 -0.1647037119
0.90112 -0.05191300064 -0.2208675891 0.9177330732 -0.1663593948 0.9178140163 -0.1651454419 0.009647299536 -0.1643282771
0.90176 -0.05202070251 -0.2208292633 0.9179118872 -0.1664273739 0.9178223014 -0.1651102602 0.009982790798 -0.1648758203
0.9024 -0.05228478834 -0.2210496515 0.9173713923 -0.1665147096 0.9172676206 -0.1657966971 0.01005278062 -0.1645389199
0.90304 -0.05256791413 -0.2209943086 0.9173396826 -0.166825518 0.9172445536 -0.1655425429 0.01017954852 -0.1647669226
0.90368 -0.05233971775 -0.2214223891 0.9172921777 -0.1662464291 0.9172005057 -0.1655273736 0.009998379275 -0.1650758833
0.90432 -0.0527744256 -0.2213319689 0.917463243 -0.1666835845 0.9165934324 -0.16549851 0.0103511475 -0.1649379283
0.90496 -0.05273010582 -0.2213533074 0.9170693159 -0.1664248258 0.9168801904 -0.1656666994 0.01019965671 -0.1654400527
0.9056 -0.0528639853 -0.2215500027 0.9170953035 -0.1666712612 0.9171276093 -0.1657767594 0.009799616411 -0.165516153
0.90624 -0.05301861092 -0.2217461318 0.9168505073 -0.1664372683 0.9166416526 -0.1656280458 0.01072775107 -0.1658888906
