!Created with skrf (http://scikit-rf.org).
# GHz S RI R 50.0 
!freq ReS11 ImS11 ReS21 ImS21 ReS12 ImS12 ReS22 ImS22
0.8 -0.04084410146 -0.3442480266 0.8556161523 -0.2883481979 0.8558738828 -0.2881183028 -0.1425789148 -0.2414571792
0.80064 -0.04118978977 -0.3445530832 0.8555084467 -0.288279444 0.8552455306 -0.2878552973 -0.142725423 -0.2415293604
0.80128 -0.04669561237 -0.3432147801 0.8548578024 -0.2900494337 0.8548810482 -0.289753288 -0.1392671764 -0.2421461642
0.80192 -0.04679754749 -0.3432693183 0.8544232845 -0.29011482 0.8544469476 -0.2898034453 -0.1393404603 -0.2421700805
0.80256 -0.04679896683 -0.343628943 0.8541428447 -0.2904962897 0.8541140556 -0.2897902131 -0.139064014 -0.2423476726
0.8032 -0.04713108763 -0.3438167274 0.8535736799 -0.2903978825 0.8534909487 -0.2903082967 -0.1390967369 -0.2422532141
0.80384 -0.04709212482 -0.3438137174 0.8535232544 -0.2905870974 0.853682816 -0.2899506092 -0.1393761337 -0.2421168983
0.80448 -0.04741822556 -0.343968451 0.8533622622 -0.2906860113 0.8529072404 -0.2901371717 -0.1393739134 -0.2421310544
0.80512 -0.04748237878 -0.3447278738 0.8532305956 -0.2910060883 0.8535948396 -0.2906878293 -0.1393790096 -0.2423712909
0.80576 -0.04728578404 -0.3445800543 0.853036046 -0.2909263968 0.8533325195 -0.2906890512 -0.1396793425 -0.2423001528
0.8064 -0.04771452025 -0.345027566 0.8529289365 -0.2910090983 0.8530606627 -0.2906761467 -0.1393950433 -0.2426445335
0.80704 -0.04830064997 -0.3451419473 0.8525820971 -0.2914202809 0.8522019982 -0.2911131084 -0.139468208 -0.2424195558
0.80768 -0.04775480554 -0.3455895185 0.8525288701 -0.2908335924 0.8522208333 -0.2905578315 -0.1394026875 -0.242457673
0.80832 -0.04832484573 -0.3461710513 0.8525281549 -0.2916641533 0.8528550863 -0.2915130556 -0.1396993101 -0.2422650754
0.80896 -0.04804588482 -0.3464683592 0.8523874283 -0.291038245 0.8527679443 -0.2908422053 -0.1396553665 -0.2426804304
0.8096 -0.04822289199 -0.3463914692 0.8522708416 -0.2912226915 0.8525795341 -0.2910520434 -0.1396131068 -0.2428459525
0.81024 -0.0479516238 -0.3466672897 0.8521332145 -0.291338861 0.8521910906 -0.2915178537 -0.1400072128 -0.2429279238
0.81088 -0.04879425839 -0.3466285169 0.8515903354 -0.291395247 0.8518640995 -0.2916543186 -0.1396326423 -0.2426481098
0.81152 -0.0486086756 -0.3472681046 0.8517882824 -0.2912954688 0.8520048261 -0.2913044095 -0.1397337466 -0.2426963001
0.81216 -0.04878323153 -0.3471896052 0.8512403369 -0.2915934026 0.8513580561 -0.2913061082 -0.1397974491 -0.2428780794
0.8128 -0.04876999184 -0.3477440476 0.8512611389 -0.2916225791 0.8513514996 -0.2919277251 -0.1400922239 -0.242880255
0.81344 -0.04903410375 -0.3478510082 0.8508770466 -0.2914505005 0.8512459993 -0.2918851078 -0.139640376 -0.2428825945
0.81408 -0.04905679822 -0.3480807543 0.8509121537 -0.2915359437 0.8511464 -0.2916011214 -0.1398965865 -0.2429896891
0.81472 -0.04901460186 -0.34829548 0.8507022262 -0.2919374108 0.8506580591 -0.2921597958 -0.1400260776 -0.2431990951
0.81536 -0.04915527254 -0.3481366038 0.8503712416 -0.2920423746 0.8503126502 -0.2922981083 -0.1402763426 -0.2429532707
0.816 -0.04939486086 -0.3484847546 0.8505525589 -0.2921510041 0.8502852321 -0.2922084033 -0.1403646022 -0.2431040704
0.81664 -0.04912718385 -0.34869048 0.8504000902 -0.2920910716 0.8496899009 -0.2919246554 -0.1404216141 -0.242993623
0.81728 -0.04942927882 -0.3490492702 0.8500901461 -0.2925058901 0.8499668837 -0.2920193374 -0.1402448863 -0.2432368994
0.81792 -0.04934765399 -0.3490585685 0.8497973084 -0.2923899591 0.8496136665 -0.2926174998 -0.1404019594 -0.2431597263
0.81856 -0.04883357882 -0.3492639065 0.8500396609 -0.2920102179 0.8497268558 -0.2928208411 -0.1409891844 -0.2432785928
0.8192 -0.04927269742 -0.3494004309 0.8494369984 -0.2923185527 0.8493566513 -0.2928642631 -0.1410591602 -0.2432477623
0.81984 -0.04941656813 -0.3498780727 0.8493409157 -0.2924370766 0.8493068814 -0.2927116156 -0.1407257617 -0.2432461381
0.82048 -0.04927872494 -0.3497692049 0.8492047191 -0.2926451862 0.8489439487 -0.2924172878 -0.1412510276 -0.2436759472
0.82112 -0.0491107963 -0.3502584398 0.8489601016 -0.292376399 0.8489542603 -0.2919030488 -0.1414292753 -0.2436170876
0.82176 -0.04930358753 -0.3503381908 0.8484475613 -0.2927196026 0.8486102223 -0.2928114235 -0.1411881894 -0.2435036004
0.8224 -0.04946958274 -0.3508059382 0.8487304449 -0.2929516435 0.849258244 -0.2928311825 -0.1417339593 -0.2433608323
0.82304 -0.04912550375 -0.3506363928 0.84807235 -0.2928731143 0.8484754562 -0.2931140959 -0.1417570859 -0.2433879375
0.82368 -0.04929466918 -0.350982964 0.848621726 -0.2929172516 0.8481010199 -0.2928079963 -0.1417013109 -0.2440441698
0.82432 -0.04937213287 -0.3510479927 0.847689271 -0.2931741178 0.8477074504 -0.2930332124 -0.1419041455 -0.2436209768
0.82496 -0.0494030863 -0.3517224789 0.8481487036 -0.2934128046 0.8476784825 -0.292902559 -0.1421043724 -0.2438107878
0.8256 -0.04940783605 -0.3516551554 0.8475981951 -0.2933492959 0.8473925591 -0.293481648 -0.1421141028 -0.2435870767
0.82624 -0.04936782643 -0.3517285287 0.8474687338 -0.2934038639 0.8472358584 -0.2930212617 -0.1421359926 -0.2441949844
0.82688 -0.04939715564 -0.3521117866 0.8473735452 -0.2936375737 0.8472529054 -0.293572396 -0.1424798965 -0.2438967675
0.82752 -0.0497825481 -0.3523477614 0.8471572399 -0.2936215103 0.8472621441 -0.2935954928 -0.1422391981 -0.2438797653
0.82816 -0.04987937585 -0.3527048528 0.8468481898 -0.2939870059 0.8469540477 -0.2933884263 -0.1426821053 -0.2437773347
0.8288 -0.04979782179 -0.3528803885 0.8466888666 -0.2938341498 0.8468244076 -0.293786943 -0.1427864134 -0.244012475
0.82944 -0.04987746477 -0.3528124094 0.8466026187 -0.2934509814 0.8461590409 -0.2934522927 -0.1423409432 -0.2443346679
0.83008 -0.05014143512 -0.3534736335 0.8464653492 -0.294323951 0.8465768695 -0.2940557003 -0.142795831 -0.2443918884
0.83072 -0.04998598993 -0.353402704 0.8459505439 -0.2940136194 0.8461307883 -0.2939385474 -0.1428378522 -0.2443220913
0.83136 -0.0505355373 -0.3539130092 0.8458237052 -0.293851763 0.8458700776 -0.2936296761 -0.142705664 -0.2443148345
0.832 -0.05030290782 -0.354270041 0.8458752036 -0.2944709659 0.8456477523 -0.2946527898 -0.143264845 -0.2442480475
0.83264 -0.0504889302 -0.3542486429 0.845608592 -0.294372052 0.8454602957 -0.2939854264 -0.1428427696 -0.2444450706
0.83328 -0.05064895377 -0.3543822467 0.8455162048 -0.2943071127 0.8456258774 -0.2940887809 -0.1430307478 -0.244482398
0.83392 -0.05041101202 -0.3547399044 0.8453280926 -0.2946833074 0.8452450633 -0.2944599092 -0.1432791352 -0.2443562895
0.83456 -0.0506660156 -0.3546924889 0.844740808 -0.2940870225 0.8450009227 -0.2944604158 -0.143372789 -0.2447617054
0.8352 -0.05095457658 -0.3552982807 0.8449946642 -0.2949523032 0.844560802 -0.2940546274 -0.1433673054 -0.2445144504
0.83584 -0.05107373372 -0.3553969264 0.8447211385 -0.2945714593 0.8447191715 -0.2943181694 -0.1432520598 -0.2448269278
0.83648 -0.05136732012 -0.3558684587 0.8444905281 -0.2945736051 0.8445155025 -0.2943632603 -0.1431268156 -0.2446737289
0.83712 -0.05154569447 -0.3561024368 0.8444514275 -0.2951943278 0.8444096446 -0.2948955894 -0.1434024274 -0.2446570694
0.83776 -0.05144778267 -0.3560163379 0.8441990614 -0.294616282 0.8439455628 -0.2947432697 -0.1432392448 -0.2449180931
0.8384 -0.05166695639 -0.3561271429 0.8441036344 -0.29486081 0.8441518545 -0.2950289547 -0.1436602622 -0.245040521
0.83904 -0.05178139359 -0.3566586077 0.8438842893 -0.2953005433 0.8436934352 -0.2949354947 -0.143684119 -0.2447649837
0.83968 -0.05177027732 -0.3566257656 0.843796134 -0.2951170504 0.8434582353 -0.295075804 -0.1435115039 -0.2449558675
0.84032 -0.05192163959 -0.3565275669 0.8434813023 -0.2952015698 0.8435075283 -0.2947901189 -0.1434865147 -0.2451375425
0.84096 -0.05210638791 -0.3572806418 0.8433529139 -0.2950832248 0.8434222937 -0.2950071096 -0.1433283389 -0.2453888953
0.8416 -0.05236105248 -0.3572094738 0.8428708315 -0.2955813408 0.8433132172 -0.2953527868 -0.1435497105 -0.2454438061
0.84224 -0.0524466522 -0.3578802645 0.8431173563 -0.2954096198 0.8432675004 -0.295152247 -0.1435434222 -0.245394364
0.84288 -0.05262649432 -0.3580019474 0.8430203199 -0.29560709 0.8429538012 -0.2952038348 -0.1435816139 -0.2451740354
0.84352 -0.05303586274 -0.3579800427 0.8429841399 -0.2955029011 0.8427685499 -0.2955532968 -0.1435000598 -0.2456660867
0.84416 -0.05262196809 -0.3582300544 0.842392385 -0.2953678668 0.8425983191 -0.2952026427 -0.1436838359 -0.2457001954
0.8448 -0.05309283361 -0.3586983085 0.8421518803 -0.2956719697 0.842228055 -0.2959299684 -0.143689394 -0.2454412878
0.84544 -0.05299710855 -0.3586225808 0.8422700763 -0.2961373329 0.842279613 -0.2950393856 -0.1432986706 -0.2454762012
0.84608 -0.05296657234 -0.3591414988 0.8419163227 -0.2957558632 0.8421537876 -0.2953862846 -0.1436179131 -0.2454534918
0.84672 -0.05332452431 -0.359069854 0.8417720199 -0.2962068915 0.841748178 -0.295730561 -0.1436535269 -0.2455282658
0.84736 -0.05331649259 -0.3595080972 0.8417096138 -0.295982033 0.8415184617 -0.2958017886 -0.1432932317 -0.2455694228
0.848 -0.05346142128 -0.3596484959 0.8418409824 -0.2964780033 0.8415994048 -0.2964628935 -0.1441099346 -0.2457422912
0.84864 -0.05352855474 -0.3596252203 0.8412590027 -0.2962796688 0.8409000039 -0.2964538932 -0.1437685639 -0.2456437051
0.84928 -0.05333242565 -0.3602108955 0.8410490751 -0.2962141931 0.8412388563 -0.2962144017 -0.1438978463 -0.2456146032
0.84992 -0.05362457037 -0.360137701 0.8408746123 -0.2962382138 0.8404973745 -0.2962105274 -0.1439672112 -0.2459112257
0.85056 -0.05346430838 -0.3603442013 0.8408749104 -0.2961539328 0.8404687643 -0.296064049 -0.1438213885 -0.2460694611
0.8512 -0.05391287431 -0.3607687056 0.8405765891 -0.2963941097 0.8399609327 -0.2961050272 -0.1439401656 -0.2454585284
0.85184 -0.05368320271 -0.3613348901 0.8404483795 -0.2966828048 0.8402231336 -0.2962364256 -0.144107312 -0.2454987317
0.85248 -0.05370924622 -0.3614329696 0.840233326 -0.2966412604 0.8402195573 -0.2963277996 -0.144147113 -0.2456341833
0.85312 -0.05398256704 -0.3616235256 0.8403675556 -0.2966994941 0.8396829963 -0.2967774272 -0.1442914009 -0.2457949519
0.85376 -0.05380940437 -0.3618311286 0.8399266601 -0.2970648408 0.8400244117 -0.296343118 -0.1441571116 -0.2456781119
0.8544 -0.05391624942 -0.3618760109 0.8397544622 -0.2971961796 0.8397454619 -0.2964630425 -0.144670859 -0.2460298091
0.85504 -0.05408897251 -0.3622596264 0.8397903442 -0.2969056368 0.8390817046 -0.2971319556 -0.144656539 -0.2461063266
0.85568 -0.05414452776 -0.3625238836 0.839471519 -0.2970485389 0.8394317031 -0.2964164615 -0.144513458 -0.2462450564
0.85632 -0.05411721021 -0.3627597094 0.8395230174 -0.2971619368 0.8393132687 -0.296895951 -0.1446323544 -0.246367082
0.85696 -0.05398748815 -0.3627684414 0.8389172554 -0.2970748544 0.8385757804 -0.2963787019 -0.144593522 -0.2460887134
0.8576 -0.05426837876 -0.3631588221 0.8388662338 -0.2974569798 0.8389446735 -0.2970805764 -0.1448817849 -0.2462472469
0.85824 -0.05419527367 -0.3630775809 0.8387026787 -0.2974793613 0.8382320404 -0.2967475653 -0.1451210529 -0.2463375926
0.85888 -0.05432434008 -0.3636190295 0.8386209607 -0.2974391282 0.8387678266 -0.2967222035 -0.1450563222 -0.2462701201
0.85952 -0.05448313802 -0.3639185727 0.838578999 -0.2975789607 0.8380738497 -0.2967150807 -0.1451804936 -0.2461841255
0.86016 -0.05447305739 -0.3642622828 0.8383618593 -0.2977945805 0.8384794593 -0.2968526185 -0.145203799 -0.2461169064
0.8608 -0.05464027449 -0.3641433716 0.8381226659 -0.2977277935 0.8376181722 -0.2965654433 -0.1455726773 -0.2465304285
0.86144 -0.05479585379 -0.3645490408 0.837643981 -0.2978487015 0.8379065394 -0.2969928384 -0.1452818662 -0.2463860661
0.86208 -0.05498216674 -0.3648885787 0.8376998901 -0.2981045246 0.8373951316 -0.2971021533 -0.1455393136 -0.246287927
0.86272 -0.05468451977 -0.3648139834 0.8374697566 -0.2980943322 0.8369588852 -0.2971667945 -0.1456700116 -0.2462943196
0.86336 -0.05494934693 -0.3651331365 0.8372097015 -0.2979237735 0.8368284106 -0.297232151 -0.1456822455 -0.2465383261
0.864 -0.05514418706 -0.3655811846 0.8375280499 -0.2978801429 0.8372895122 -0.2973788679 -0.1454440951 -0.2467995882
0.86464 -0.05537011102 -0.3655737638 0.8370796442 -0.2980730534 0.8370027542 -0.2970830798 -0.1457346082 -0.2467384934
0.86528 -0.05523850769 -0.3655294776 0.8367315531 -0.2981218994 0.8366389275 -0.2973061204 -0.1455831975 -0.2466346473
0.86592 -0.05570707843 -0.3659548461 0.8369636536 -0.2981005013 0.8363118768 -0.2978686094 -0.1460744888 -0.2468220443
0.86656 -0.05556349084 -0.365855813 0.8362973332 -0.2983488739 0.8359008431 -0.2972244918 -0.1457716823 -0.2469068915
0.8672 -0.05536192283 -0.3665326238 0.8367142677 -0.2983208001 0.8361366987 -0.2973875403 -0.1460444778 -0.2471038401
0.86784 -0.0556272231 -0.3665905893 0.8361563087 -0.2986823916 0.8360934258 -0.2970882058 -0.1462599039 -0.2471336871
0.86848 -0.05623569712 -0.367016077 0.836463511 -0.2987659276 0.8358876705 -0.2978692055 -0.1458587646 -0.2468537688
0.86912 -0.05589114875 -0.3665400147 0.8359973431 -0.2984636724 0.8357853889 -0.2979104221 -0.1464756429 -0.2473181039
0.86976 -0.05631102622 -0.367138654 0.8357484341 -0.2986648083 0.8359035254 -0.2980700135 -0.1462440342 -0.2473001927
0.8704 -0.05655464157 -0.3673562407 0.8354175687 -0.2989691794 0.8357658386 -0.2978917658 -0.1463080049 -0.2473344058
0.87104 -0.05641551688 -0.367426008 0.8354157209 -0.298743397 0.8353000283 -0.2981944084 -0.1463653743 -0.2476785481
0.87168 -0.05677108094 -0.3678780496 0.8354423046 -0.298889935 0.8351929784 -0.2976956069 -0.1464478374 -0.2475035936
0.87232 -0.05677302182 -0.3680762053 0.8348503709 -0.2988794744 0.8352777958 -0.2977771163 -0.146211341 -0.2474705577
0.87296 -0.05711722001 -0.3681154251 0.8352567554 -0.2990784645 0.835070312 -0.2980853021 -0.146392718 -0.2477757335
0.8736 -0.05709248409 -0.3680324852 0.8348119855 -0.2992441356 0.8345361352 -0.298099041 -0.1463255286 -0.2477513105
0.87424 -0.05723452196 -0.3681449294 0.8342312574 -0.2989681661 0.8343839645 -0.2978599966 -0.1460977644 -0.2481033206
0.87488 -0.05730569363 -0.3685071766 0.8341767788 -0.2986781895 0.83452636 -0.2979126573 -0.1460479498 -0.2480913103
0.87552 -0.05751632154 -0.3685980141 0.8341491818 -0.2987123132 0.8339690566 -0.2981280982 -0.1460709572 -0.2484559119
0.87616 -0.05799157917 -0.369178772 0.8342421055 -0.2992377579 0.8344305754 -0.2985637486 -0.1464168131 -0.2483559698
0.8768 -0.05755187199 -0.3690297008 0.8340300322 -0.2992964685 0.8340415359 -0.2975807488 -0.1462929994 -0.2485659868
0.87744 -0.05807299167 -0.3694178164 0.8340704441 -0.2993085682 0.8339460492 -0.2982540429 -0.1464585215 -0.2482899874
0.87808 -0.05805110559 -0.3694731295 0.8338143229 -0.2993058264 0.8333985209 -0.2984047234 -0.146432817 -0.2486950904
0.87872 -0.05826909095 -0.3699198067 0.8338499665 -0.2996118963 0.8335133791 -0.298032552 -0.146347478 -0.2484790683
0.87936 -0.0585145317 -0.3702050745 0.833509028 -0.2994378805 0.8335852623 -0.2981243432 -0.1463622451 -0.2487173826
0.88 -0.05839156359 -0.3700116873 0.8333450556 -0.2994878292 0.8330292106 -0.2980530858 -0.1465726048 -0.2488187701
0.88064 -0.05854185298 -0.3705754876 0.8333377242 -0.2994022071 0.8334143162 -0.2988276482 -0.146576941 -0.2489363998
0.88128 -0.05863920227 -0.3708750904 0.8334193826 -0.2994320095 0.833326757 -0.2988648713 -0.1467805207 -0.249053508
0.88192 -0.05875710025 -0.3707797825 0.8331588507 -0.2998289764 0.832554996 -0.298422575 -0.1467029452 -0.2490579337
0.88256 -0.05871980637 -0.371004194 0.8330737948 -0.2998099625 0.8330253363 -0.2987999618 -0.1471042335 -0.2492356151
0.8832 -0.05904377252 -0.370977968 0.8323405981 -0.29991588 0.8324569464 -0.2986738384 -0.1466602832 -0.2492427528
0.88384 -0.0590813905 -0.3716291189 0.8326234221 -0.3000850081 0.832044065 -0.2986644804 -0.1467537135 -0.2490665466
0.88448 -0.05879146978 -0.3718381822 0.8324409127 -0.3000566363 0.831977427 -0.2982777953 -0.1467377543 -0.2490836233
0.88512 -0.05922316015 -0.3719105721 0.8320384622 -0.3000652492 0.8320127726 -0.2983303964 -0.1466185898 -0.2492177337
0.88576 -0.05912619457 -0.3720991015 0.831694603 -0.3000793159 0.831928134 -0.298284173 -0.1467237025 -0.2489418089
0.8864 -0.05938209221 -0.3726914525 0.832369566 -0.3002086282 0.8314511776 -0.2990694046 -0.1472275108 -0.2492856383
0.88704 -0.05927761272 -0.3729241788 0.8316807151 -0.2997639179 0.8315526247 -0.2989881337 -0.1467781216 -0.2492774725
0.88768 -0.05948583782 -0.3734471798 0.8318507075 -0.3001331389 0.8316500783 -0.2986730039 -0.1470100284 -0.2489877939
0.88832 -0.05971867219 -0.3734286129 0.8313741088 -0.3000795245 0.831566453 -0.298986882 -0.1466280967 -0.2493407726
0.88896 -0.0599260591 -0.3739364147 0.8315961957 -0.3006428778 0.8309020996 -0.2992393076 -0.1470655501 -0.2491104901
0.8896 -0.05987101793 -0.3741449118 0.831233263 -0.3002524674 0.8310767412 -0.2991665006 -0.1471144408 -0.2493586093
0.89024 -0.06003273651 -0.3741135001 0.8310073018 -0.3004575968 0.830725193 -0.2988780737 -0.1467103362 -0.2494241595
0.89088 -0.05984258279 -0.3746185005 0.8311861753 -0.3004406989 0.8306545019 -0.2991686463 -0.1472490877 -0.2494333833
0.89152 -0.05990386382 -0.3752583861 0.830745995 -0.3005157411 0.830560267 -0.2992220223 -0.1473252624 -0.2491231561
0.89216 -0.06008682773 -0.3750522435 0.8306533098 -0.3006006777 0.8304950595 -0.2993462682 -0.1473361999 -0.2495730519
0.8928 -0.06027477235 -0.3754486442 0.8304020166 -0.300535053 0.8298049569 -0.2993345559 -0.1472822875 -0.249212116
0.89344 -0.06032820791 -0.3757148385 0.8302676082 -0.3005437851 0.830047369 -0.2992652953 -0.1475234032 -0.249313429
0.89408 -0.06035222113 -0.3759341836 0.8300499916 -0.3010588288 0.829924643 -0.2993200421 -0.1474404037 -0.2495157421
0.89472 -0.06059906259 -0.3757986426 0.8297680616 -0.3008023202 0.8292157054 -0.2991092205 -0.1474437267 -0.2493568212
0.89536 -0.06044340879 -0.3761354685 0.8292829394 -0.3006798923 0.8294985294 -0.2997301519 -0.1476219296 -0.2495660931
0.896 -0.060698919 -0.3765043914 0.8297066689 -0.3008624613 0.8300645947 -0.2996130288 -0.14776963 -0.2494897097
0.89664 -0.0609238185 -0.376980722 0.8292990327 -0.3010897338 0.8296441436 -0.2999050021 -0.1478073597 -0.24941881
0.89728 -0.06078781933 -0.3768935502 0.8292111754 -0.3010539412 0.8292996883 -0.2997964621 -0.1479531825 -0.2494724244
0.89792 -0.06139533594 -0.3770873249 0.8287970424 -0.3010724783 0.8289853334 -0.3000269532 -0.1479047686 -0.2495479584
0.89856 -0.06124088168 -0.3772629499 0.8288705945 -0.3011265099 0.8290542364 -0.3000248373 -0.1480661184 -0.2496009469
0.8992 -0.06109903008 -0.3778260946 0.8288616538 -0.300893724 0.8286399841 -0.3001429439 -0.1480366737 -0.2495474815
0.89984 -0.06135891378 -0.3779241741 0.8288993239 -0.3011855185 0.8286502361 -0.2999886274 -0.1480272412 -0.2495834529
0.90048 -0.06165102869 -0.3778882027 0.8283858895 -0.3011354506 0.8283142447 -0.2998591363 -0.1477791071 -0.2500740886
0.90112 -0.06188958511 -0.3780729473 0.8283525705 -0.301397562 0.8285105228 -0.3000668287 -0.1480193138 -0.2500467598
0.90176 -0.06173064187 -0.3782022893 0.8282617927 -0.3012524843 0.8284848332 -0.3002304435 -0.1481831968 -0.2502571642
0.9024 -0.06200506911 -0.3783454299 0.8278640509 -0.3012566566 0.8278763294 -0.3005712628 -0.148034066 -0.2500938773
0.90304 -0.06231671199 -0.3785356283 0.8277696371 -0.301605463 0.8280076981 -0.3006880879 -0.1480612308 -0.25023368
0.90368 -0.06195543706 -0.378904134 0.8278838396 -0.301094681 0.8279445171 -0.30028826 -0.1483746171 -0.2504433393
0.90432 -0.06247665733 -0.3787836432 0.8278449774 -0.3016453981 0.82732898 -0.3008479476 -0.1483119726 -0.2503698468
0.90496 -0.06240830198 -0.3786987364 0.8274032474 -0.3013949692 0.8274758458 -0.3005102873 -0.148570016 -0.2506311536
0.9056 -0.06237997487 -0.3789396584 0.8272964954 -0.3016979098 0.8274793029 -0.3007542789 -0.148811534 -0.2505392432
0.90624 -0.06244853139 -0.3791325092 0.8271709085 -0.3010962903 0.8272961378 -0.3004809022 -0.1484468132 -0.2510458231
0.90688 -0.06245842949 -0.3792900741 0.8271235824 -0.3017913699 0.8272086382 -0.3003808558 -0.1486513764 -0.2509417832
