!Created with skrf (http://scikit-rf.org).
# GHz S RI R 50.0 
!freq ReS11 ImS11 ReS21 ImS21 ReS12 ImS12 ReS22 ImS22
0.01 0.03835529462 0.137416631 0.1643469334 -1.046588063 0.1419426352 -0.9590064883 -0.03991471976 -0.05756289512
0.011799179917991799 0.1541122496 0.05425963923 -0.1565510035 -1.030713439 -0.1201881394 -0.9666894674 -0.05982762203 -0.03152458742
0.0135983598359836 0.1610903591 -0.0705139935 -0.4110011756 -0.940680027 -0.3891710937 -0.8952465057 -0.04177790135 0.02334047295
0.015397539753975398 0.07227823138 -0.1472320557 -0.6806258559 -0.7848905325 -0.5872927308 -0.7712851167 -0.01407114789 0.02738685533
0.017196719671967196 -0.03037614934 -0.1523323804 -0.8757818341 -0.5582379103 -0.76562953 -0.5625243783 0.03062152117 0.02623184398
0.018995899589958995 -0.1188864633 -0.08702329546 -0.9693417549 -0.3096805513 -0.8848233223 -0.3467254043 0.0400092788 0.002670853632
0.020795079507950794 -0.1488556564 0.01919579133 -1.007954597 -0.01795956492 -0.9394817948 -0.1022349671 0.03729571775 0.005418661516
0.022594259425942592 -0.09834637493 0.1118306965 -0.9691753983 0.2305568904 -0.9362578392 0.1751838475 0.03938620538 -0.009302866645
0.024393439343934394 -0.005158359651 0.1648506969 -0.8679074049 0.4784446061 -0.8621332645 0.4082925618 0.03078140132 -0.02166034281
0.02619261926192619 0.1027245894 0.1519224048 -0.6993055344 0.6828147769 -0.7252891064 0.6162488461 0.02530814707 -0.0221824348
0.02799179917991799 0.1820589602 0.07905644923 -0.4928900003 0.8356115222 -0.5280511379 0.78135252 0.02423409745 -0.01971162297
0.02979097909790979 0.2021438926 -0.02586085536 -0.2598198354 0.9324262738 -0.3141825497 0.8931924105 0.01950177737 -0.02420724183
0.031590159015901585 0.1623543352 -0.1266954988 -0.009350487031 0.9627938271 -0.06530158967 0.933709681 0.02375202812 -0.02797723748
0.033389338933893384 0.0689394176 -0.183310926 0.2383671105 0.9273785353 0.1963637918 0.9256027341 0.01473910268 -0.02249424905
0.03518851885188518 -0.04005048797 -0.1763090342 0.4791973233 0.8217445612 0.4302400053 0.8428305984 0.01093761902 -0.01790378243
0.03698769876987699 -0.1472297162 -0.09146143496 0.8034257293 0.514686048 0.4596521258 0.8205041289 -0.01272957027 -0.0005088142934
0.03878687868786879 -0.1703860313 0.009785212576 0.8950736523 0.307407856 0.6670907736 0.6541765928 -0.009392442182 -0.005907317623
0.040586058605860585 -0.1297429651 0.1075885743 0.9350721836 0.09063109756 0.8317052722 0.4230945706 -0.003692762926 0.001692729536
0.04238523852385238 -0.03773007169 0.1616304964 0.9279956222 -0.1258470267 0.9133508205 0.1653360426 -4.818123125e-05 -0.002684315899
0.04418441844184418 0.07226267457 0.1571791768 0.8681762815 -0.3388152421 0.9170435071 -0.1122558862 0.008548839949 -0.006702266168
0.04598359835983598 0.162656635 0.0887081027 0.756873548 -0.5284456015 0.8462732434 -0.3762063682 0.01125665475 -0.01879088581
0.04778277827782778 0.1979960203 -0.01775760949 0.6140548587 -0.682988286 0.6977946162 -0.6035475135 0.01390750241 -0.02632418461
0.04958195819581958 0.1660886854 -0.1260250658 0.4402604997 -0.8030514121 0.492333591 -0.7891292572 0.004152491223 -0.03202704713
0.051381138113811384 0.07785817981 -0.1966357678 0.2240817547 -0.881891489 0.2659220397 -0.8881726861 -0.0047553326 -0.03825870156
0.053180318031803175 -0.03642807156 -0.2033931464 -0.01411433611 -0.9101512432 0.01469398849 -0.925817132 -0.01804401353 -0.02945052087
0.05497949794979498 -0.1369380802 -0.1439976841 -0.2461540103 -0.8713035583 -0.2234814167 -0.895175159 -0.02643961273 -0.01729375497
0.05677867786778677 -0.1916337609 -0.0372415185 -0.4674033225 -0.7780830264 -0.4490767419 -0.8064767122 -0.02999835834 -0.0005557978293
0.05857785778577857 -0.1722322106 0.08102019876 -0.6474245191 -0.6259810328 -0.6459231377 -0.6541144252 -0.02406708524 0.01788930967
0.06037703770377038 -0.09276237339 0.1709141284 -0.7811470032 -0.4353506863 -0.7920928597 -0.4732190073 -0.01016239077 0.03155010939
0.06217621762176217 0.02328920364 0.2031138092 -0.8683579564 -0.2157086879 -0.8877547979 -0.2468877137 0.01141948253 0.03285009414
0.06397539753975397 0.1359799355 0.1643514186 -0.8897261024 0.01365024131 -0.9133448601 -0.01188515592 0.03031588718 0.02244028822
0.06577457745774577 0.2105090767 0.06955248117 -0.8544769287 0.2468489408 -0.8835150003 0.2365850657 0.04242860526 0.009217393585
0.06757375737573758 0.2190427333 -0.05104168877 -0.7601826191 0.4518628418 -0.7940827608 0.4576887488 0.04355837405 -0.01086209714
0.06937293729372937 0.1603742242 -0.1568092853 -0.6175320745 0.6319138408 -0.646863997 0.6432398558 0.0354632251 -0.03477083147
0.07117211721172116 0.05279905349 -0.2130963653 -0.4355025589 0.7696213126 -0.4509926438 0.7935059667 0.0145263467 -0.04164850712
0.07297129712971297 -0.06980191916 -0.1995474994 -0.2215403765 0.8565351963 -0.2325219959 0.8836801648 -0.01135791186 -0.04039970785
0.07477047704770476 -0.1635988653 -0.1185678095 0.01160062198 0.8847212195 0.004910696298 0.912045002 -0.02985886484 -0.02809002623
0.07656965696569658 -0.1967687905 -0.0008549757767 0.2367710024 0.8495382071 0.2406295985 0.8776419759 -0.03864154592 -0.004358554725
0.07836883688368836 -0.1607923508 0.1171123311 0.4477078915 0.7601884007 0.4615538716 0.787048161 -0.03577786312 0.02172300033
0.08016801680168016 -0.06317736208 0.1965593845 0.6314902902 0.6145136952 0.6493136883 0.6337780952 -0.01508730557 0.04354142025
0.08196719671967197 0.05949532241 0.2083527744 0.7662244439 0.4322682023 0.7931361794 0.4392696917 0.01317625213 0.04949516058
0.08376637663766377 0.1704557687 0.1502128243 0.8487507701 0.2223600894 0.8790941834 0.210979104 0.04109882936 0.04259540141
0.08556555655565555 0.231588915 0.04235108569 0.8780622482 -0.0003173489822 0.9049209952 -0.02642979287 0.05857585371 0.01788586006
0.08736473647364736 0.2227968872 -0.0816763714 0.8462259769 -0.2237038016 0.8668648601 -0.2654083073 0.06262293458 -0.01155783981
0.08916391639163916 0.1485580951 -0.1805245429 0.7609260678 -0.4331295788 0.7673568726 -0.4779570103 0.04974516854 -0.04084118083
0.09096309630963097 0.03235333413 -0.2234121263 0.6244497299 -0.6153393388 0.6167038083 -0.6603026986 0.02102755383 -0.05760171637
0.09276227622762276 -0.08770608157 -0.1980404109 0.4456591904 -0.7594291568 0.4235127866 -0.7983312011 -0.01082281582 -0.05728185922
0.09456145614561455 -0.1746182889 -0.1094111651 0.2292940766 -0.8510181308 0.202025786 -0.8794562221 -0.04107401147 -0.03860212117
0.09636063606360636 -0.1979080141 0.008882897906 -0.002098472323 -0.8803452849 -0.02916429564 -0.9015963674 -0.05545286089 -0.007320093457
0.09815981598159815 -0.1532363296 0.1187662184 -0.2302136719 -0.8487952948 -0.2593697309 -0.8626762629 -0.05285263807 0.02821052447
0.09995899589958995 -0.05682356656 0.1882201284 -0.4435939789 -0.7646230459 -0.4791791141 -0.7597697973 -0.03067733906 0.05894749984
0.10175817581758176 0.05801280215 0.1910288483 -0.6238443851 -0.6274918914 -0.6590131521 -0.6058139801 0.002379728248 0.0717881918
0.10355735573557355 0.1537057757 0.1310872883 -0.7624563575 -0.4475780427 -0.7928048968 -0.4147548079 0.03947940096 0.06792577356
0.10535653565356534 0.1997587234 0.03029590845 -0.8527947068 -0.2346524 -0.8760613799 -0.1988390237 0.06788405031 0.04612185061
0.10715571557155715 0.1821929067 -0.07733467966 -0.8860924244 -0.001927535282 -0.8968078494 0.03520183265 0.08202594519 0.01264158171
0.10895489548954895 0.1054154634 -0.1514638513 -0.8317851424 0.3116573393 -0.88062644 0.1828339398 0.07443082333 -0.01974152215
0.11075407540754076 0.002660568338 -0.1752274185 -0.7375332117 0.4954942763 -0.7892245054 0.4303688407 0.05252598599 -0.04436842725
0.11255325532553254 -0.09409389645 -0.1362896264 -0.6065195799 0.65416646 -0.6287196875 0.64109236 0.0233389996 -0.05465304479
0.11435243524352434 -0.1520558298 -0.04840316251 -0.4334987998 0.7842478752 -0.4189119935 0.7930030227 -0.005408151075 -0.04549849778
0.11615161516151615 -0.1487019211 0.05820436031 -0.2006112039 0.8703050017 -0.2083364129 0.8791261911 -0.02301127277 -0.01950668916
0.11795079507950795 -0.08558297157 0.1450103521 0.04501787573 0.8882402182 0.01348015759 0.9061030746 -0.02325763926 0.009044098668
0.11974997499749974 0.01663308032 0.1820728332 0.2851471603 0.8382686377 0.2432996333 0.8719243407 -0.004240327049 0.03251654655
0.12154915491549154 0.1220699549 0.1557189971 0.4945260584 0.7315465212 0.4599229395 0.7839243412 0.02547406778 0.042284742
0.12334833483348334 0.1965405494 0.07580266893 0.6655427217 0.5755669475 0.6467539072 0.6360635757 0.05538763851 0.03089598753
0.12514751475147515 0.2175786793 -0.032224264 0.791240871 0.387863934 0.7919953465 0.4408178926 0.0772947818 0.003700466827
0.12694669466946695 0.1769931316 -0.1345541328 0.8626698256 0.181162402 0.8773378134 0.2102597952 0.08072791249 -0.03337235004
0.12874587458745876 0.08730707318 -0.200851649 0.8875656724 -0.03580911458 0.8954440951 -0.03713506833 0.06289484352 -0.06961967051
0.13054505450545054 -0.02218573354 -0.2098732591 0.8546792865 -0.2558677197 0.8496564627 -0.2785155177 0.02816726454 -0.09100794792
0.13234423442344234 -0.1190207973 -0.1593573242 0.765984714 -0.4653330147 0.7427917719 -0.4967693388 -0.01481023524 -0.09334229678
0.13414341434143415 -0.17309618 -0.06754044443 0.624813199 -0.6465668678 0.5818644166 -0.675786674 -0.05429337546 -0.07355666906
0.13594259425942593 -0.1723609567 0.03713866696 0.44025442 -0.7913986444 0.3818193972 -0.8067393899 -0.08009501547 -0.0356637463
0.13774177417741776 -0.1142049059 0.1205856353 0.2187551111 -0.8784968853 0.1588183641 -0.8764070868 -0.08366513997 0.009549695998
0.1395409540954095 -0.02529788204 0.1584441513 -0.01704541966 -0.9079369903 -0.07589258254 -0.8878909945 -0.0643658042 0.04956003651
0.14134013401340134 0.0665967539 0.1403032243 -0.2567580938 -0.8721390367 -0.305177331 -0.8392584324 -0.03035186417 0.07678088546
0.14313931393139315 0.1296789795 0.07774771005 -0.4795852304 -0.7744489908 -0.5076493621 -0.7332876921 0.01194043923 0.0816187337
0.14493849384938493 0.1447845697 -0.007478232495 -0.6682043076 -0.6189718843 -0.6810778975 -0.578897059 0.04935253412 0.06613817811
0.14673767376737673 0.1092974842 -0.08297959715 -0.8104113936 -0.4196001589 -0.8079020977 -0.3869264126 0.0713436231 0.03499081731
0.14853685368536854 0.03758737072 -0.1240023077 -0.8943715096 -0.1935510188 -0.8798090219 -0.160872668 0.07491549104 0.001232203678
0.15033603360336031 -0.0440573059 -0.1150112227 -0.9140158296 0.04876879975 -0.891073823 0.07386939973 0.06134887412 -0.02708452567
0.15213521352135212 -0.1062812954 -0.06024247035 -0.8692153692 0.2879162431 -0.8437907696 0.3051119447 0.03665367514 -0.0418073982
0.15393439343934393 -0.1267465502 0.02117276751 -0.761826694 0.5070667267 -0.7344361544 0.5134648085 0.01109133568 -0.03968313709
0.1557335733573357 -0.09705685079 0.100968115 -0.601278007 0.6876927614 -0.5749864578 0.6875913739 -0.006750201806 -0.02382588387
0.15753275327532754 -0.02746786177 0.1520501822 -0.3986460268 0.8197053671 -0.3721301854 0.8175361753 -0.01160599664 -0.0008480598335
0.15933193319331931 0.05957306549 0.1572466791 -0.1701623648 0.8932518959 -0.1492524296 0.8852518797 -0.0001036299873 0.018478496
0.16113111311131112 0.1351558417 0.1154828519 0.06748516113 0.9060035944 0.08810530603 0.8905330896 0.02261366509 0.02737629227
0.16293029302930293 0.1775340885 0.04003381357 0.3024892509 0.8575657606 0.315600425 0.837910831 0.04638594016 0.02035694942
0.1647294729472947 0.1744149625 -0.04504803568 0.5167242885 0.7474654317 0.5206997395 0.7269493341 0.0642420128 0.0001868196559
0.16652865286528654 0.1275331229 -0.1139270812 0.6958366632 0.5873011947 0.6893502474 0.5676012039 0.06913939118 -0.02915867604
0.16832783278327831 0.05400467291 -0.1466232687 0.8267510533 0.3862378597 0.8123396039 0.3677445948 0.0566669181 -0.05722014606
0.1701270127012701 -0.02329834737 -0.1353102326 0.9016355872 0.1565883756 0.880713582 0.1435540617 0.0310407877 -0.07564848661
0.17192619261926192 -0.07921599597 -0.08596505225 0.9135819077 -0.0843379274 0.8862550855 -0.09234206378 -0.001654293737 -0.08036934584
0.1737253725372537 -0.09711731225 -0.01696483046 0.8602426648 -0.3207437992 0.8322250247 -0.3208738863 -0.03161109611 -0.06818174571
0.17552455245524554 -0.0740160495 0.0461730659 0.7486169338 -0.5353434086 0.7187688947 -0.5302504897 -0.05227516219 -0.04317690432
0.1773237323732373 -0.02139676549 0.0828134343 0.5806407332 -0.7135717273 0.5557740927 -0.7002559304 -0.05760086328 -0.0127972886
0.1791229122912291 0.04019005224 0.08098074794 0.372718066 -0.8409346938 0.3518000543 -0.8199313283 -0.04788117483 0.01425661799
0.18092209220922092 0.08704659343 0.04394877329 0.1396527141 -0.9087244272 0.1249950528 -0.8823382258 -0.02800051309 0.03157348931
0.1827212721272127 0.1027645692 -0.01276224945 -0.1036169305 -0.9121621251 -0.1109269112 -0.8839308023 -0.004991002381 0.03694650903
0.1845204520452045 0.08123739064 -0.06758911908 -0.3388114274 -0.8523380756 -0.3369370997 -0.8267325759 0.01507933345 0.03062420338
0.1863196319631963 0.03169925883 -0.09997476637 -0.5502707958 -0.734195292 -0.5420905948 -0.7095876336 0.02707271837 0.01666539907
0.1881188118811881 -0.02872033976 -0.09833937883 -0.7242407799 -0.5635200143 -0.7075402737 -0.5421837568 0.03031488135 0.0005681675975
0.18991799179917992 -0.07848792523 -0.06224805862 -0.8458616734 -0.3527453244 -0.8242558837 -0.3387606442 0.02469467372 -0.01241673622
0.1917171717171717 -0.1003486216 -0.004149395041 -0.9072065949 -0.1181935966 -0.8851982951 -0.1125787348 0.01300767437 -0.01930588111
0.1935163516351635 -0.08680389822 0.05777934566 -0.9054400325 0.1254986078 -0.8838130832 0.1231501102 0.000932050054 -0.01727974787
0.1953155315531553 -0.0420213379 0.1018613279 -0.8394553661 0.3573687375 -0.8201266527 0.3492281437 -0.005168939941 -0.008157744072
0.1971147114711471 0.01853144355 0.114830561 -0.7151788473 0.5641384721 -0.7002879381 0.5516116023 -0.00466445554 0.002249366371
0.1989138913891389 0.0756002292 0.09315688163 -0.542111218 0.7290580869 -0.5307676196 0.7155877352 0.002909055445 0.01048701722
0.2007130713071307 0.1106560752 0.04591630027 -0.3332901299 0.8442917466 -0.3263070881 0.8273261189 0.01552733965 0.01154411491
0.2025122512251225 0.1136952117 -0.01064136624 -0.1013753563 0.9026451111 -0.09766821563 0.8824079037 0.0267313309 0.005079173017
0.20431143114311429 0.08576135337 -0.05677386746 0.1379170269 0.896207571 0.1372891814 0.8789575696 0.03354884684 -0.007524571382
0.2061106110611061 0.0383335501 -0.07750688493 0.3689869046 0.829521358 0.3601441979 0.810646534 0.0327629298 -0.02349347807
0.2079097909790979 -0.009144167416 -0.06689880043 0.572645843 0.7047089338 0.5581766963 0.6878883243 0.02358644456 -0.03736865148
0.2097089708970897 -0.03972954676 -0.03077261709 0.7377482653 0.5283569694 0.7175887227 0.5175259709 0.008948271163 -0.04539151862
0.2115081508150815 -0.04096158594 0.01555006858 0.8503947258 0.3152394593 0.8272234797 0.3115471005 -0.008557667956 -0.04647652432
0.21330733073307329 -0.01269984432 0.05299428478 0.9012877345 0.07996515185 0.8793522716 0.08557705581 -0.02387507819 -0.04042933136
0.2151065106510651 0.03379176185 0.06548353285 0.8889735341 -0.1589443386 0.8719146848 -0.1466317177 -0.03568670899 -0.02983946353
0.2169056905690569 0.08076810837 0.04690190032 0.8132058978 -0.3862793446 0.8032124639 -0.3678530455 -0.04242940992 -0.0158287175
0.21870487048704867 0.110909164 0.0003838101402 0.6814200878 -0.5840133429 0.6772195101 -0.5651747584 -0.04340007156 -0.002099222969
0.2205040504050405 0.1094455048 -0.05963948369 0.5042111278 -0.7392881513 0.5062462687 -0.7216827869 -0.04018266499 0.01006226242
0.22230323032303229 0.07177384943 -0.1128993854 0.2906029224 -0.842638731 0.3006349504 -0.8277232051 -0.03374023736 0.01804706827
0.22410241024102406 0.006952797063 -0.1403492689 0.06133364514 -0.8873557448 0.07292475551 -0.8781632781 -0.02818259224 0.02277554385
0.2259015901590159 -0.06707625836 -0.1285049766 -0.1716211289 -0.8700279593 -0.1582599133 -0.8658775687 -0.02572917379 0.02525687963
0.22770077007700767 -0.1262877136 -0.0776995793 -0.3901795149 -0.7930114269 -0.3780975044 -0.7925528884 -0.02518118173 0.03086155653
0.2294999499949995 -0.1525106877 -0.0002091499482 -0.5813120604 -0.6618639231 -0.5718312263 -0.665543735 -0.02399423346 0.04111671448
0.23129912991299129 -0.1353466958 0.08115339279 -0.730909586 -0.4870419502 -0.7257332802 -0.493306309 -0.01743072271 0.05458708853
0.23309830983098306 -0.08270784467 0.1471318752 -0.8622439504 -0.1550247967 -0.7754516006 -0.4056413472 -0.00605069194 0.07088826597
0.2348974897489749 -0.003194019664 0.1704239547 -0.8737924695 0.046446722 -0.858846128 -0.1636166722 0.01672195643 0.07542639226
0.23669666966696667 0.0763694942 0.1508563608 -0.8393516541 0.2450052649 -0.8682675362 0.09196168184 0.0425485 0.07021023333
0.23849584958495848 0.1328698844 0.0954022184 -0.759989202 0.4320587814 -0.8050419688 0.338047564 0.06534264237 0.05354174227
0.24029502950295029 0.1512587816 0.02144198865 -0.6412900686 0.594971478 -0.6723713279 0.5555428267 0.08017005026 0.02794738486
0.24209420942094206 0.1280377954 -0.04671751708 -0.4857898355 0.7288379073 -0.4839762151 0.7252240777 0.08347247541 -0.001292579691
0.2438933893389339 0.07321797311 -0.0874748826 -0.2792580724 0.8324459791 -0.2780431807 0.8255624771 0.0729925707 -0.02703346871
0.24569256925692567 0.008001982234 -0.08855487406 -0.05124569312 0.8788032532 -0.05463521183 0.8692168593 0.05354792252 -0.04514763132
0.24749174917491748 -0.04313665256 -0.0510385856 0.1830891967 0.8609451652 0.1738460064 0.8540643454 0.02975971811 -0.05190303922
0.24929092909290929 -0.06142607331 0.009204198606 0.4032348692 0.7821264267 0.3903208077 0.780005157 0.008599368855 -0.04762891307
0.25109010901090106 -0.0381905809 0.06907425821 0.593757391 0.6439016461 0.5810756683 0.6498293281 -0.006320924964 -0.03541078046
0.2528892889288929 0.01830615103 0.1047917753 0.7390609384 0.4639551938 0.7301385999 0.4759735763 -0.01068557892 -0.02129371837
0.2546884688468847 0.08828277141 0.1008891314 0.8294573426 0.253526628 0.8276175857 0.2672571838 -0.007824927568 -0.01062769257
0.2564876487648765 0.1472187191 0.05589483306 0.8623979688 0.02992738411 0.8688327074 0.04212849587 -0.001324911835 -0.00705317175
0.2582868286828683 0.1741912067 -0.01689997315 0.8366710544 -0.1920665354 0.8485839963 -0.1863429695 0.003737463616 -0.01086022332
0.26008600860086006 0.1577505171 -0.09707546234 0.7568828464 -0.400265187 0.7704238892 -0.3995331228 0.002138806507 -0.01851712354
0.2618851885188519 0.1008476093 -0.1588023007 0.6267243028 -0.5788590312 0.6382380724 -0.5880465508 -0.008178789169 -0.02477932908
0.2636843684368437 0.01794782653 -0.1837920845 0.4565292001 -0.7206013799 0.4617606401 -0.733335495 -0.023423573 -0.02419234626
0.2654835483548355 -0.06684213877 -0.1636768579 0.2555838525 -0.8136048317 0.2549175322 -0.8268969059 -0.0406976454 -0.01364742406
0.2672827282728273 -0.1297485381 -0.1025246605 0.03665415943 -0.8528109193 0.03100452758 -0.8629137278 -0.05180042982 0.007678301539
0.269081908190819 -0.1523763388 -0.01892432757 -0.1859894693 -0.8336343169 -0.1949370503 -0.8407790661 -0.05267411098 0.03540401906
0.2708810881088109 -0.1290275604 0.06172673404 -0.3958899081 -0.7569038868 -0.4058858454 -0.7580342293 -0.03791121021 0.06334428489
0.2726802680268027 -0.06916105747 0.1162286848 -0.5791746378 -0.6280801892 -0.5884125233 -0.6259596348 -0.01129260007 0.08255055547
0.27447944794479445 0.007007943001 0.1298024952 -0.7236918211 -0.4555619657 -0.7305121422 -0.4516337514 0.02287721261 0.08784495294
0.2762786278627863 0.07480250299 0.1008399427 -0.8170365095 -0.2519495189 -0.8211650848 -0.2467218637 0.05765653402 0.07626760006
0.27807780778077806 0.1121049896 0.041852694 -0.8544167876 -0.03096761741 -0.8567987084 -0.02538274229 0.08279505372 0.05076733977
0.27987698769876984 0.1090621427 -0.02493928 -0.8339629173 0.1925818324 -0.8336724639 0.1988401711 0.09304375947 0.0163429454
0.2816761676167617 0.06894149631 -0.07518375665 -0.7546681166 0.403521955 -0.754348278 0.4080416858 0.0868890956 -0.01723081991
