!Keysight Technologies N9950B: A.12.38
!Date: Monday, 15 May 2023 15:29:09
!Timezone: (UTC-06:00) Central Time (US & Canada)
!Model: N9950B
!Serial: MY61131330
!GPS Latitude: 
!GPS Longitude: 
!GPS TimeStamp: 0001-01-01 00:00:00Z
!GPS Seconds Since Last Read: 0
!CHECKSUM:1568936095
!Correction: S11(ON U)S21(ON U)S12(ON U)S22(ON U)
!S2P File: Measurements:S11,S21,S12,S22:
# Hz S DB R 50
800000000	-14.4593168722421	-83.2440672529496	-0.179530341433826	-25.6521129650652	-0.194488268063813	-25.8020706085383	-14.477559775725	-149.424160611958	
801700000	-14.4646345142541	-82.6115555739017	-0.15956888741236	-25.7351532219035	-0.181748567415303	-25.6736384395203	-14.5558360690009	-148.667961250874	
803400000	-14.3552266706391	-82.8640513864282	-0.165741904791862	-25.8005829288814	-0.188006433592915	-25.8499337181447	-14.4387564403534	-149.322264023177	
805100000	-14.394311802309	-82.9233235663737	-0.166854414937868	-25.7640164467179	-0.185431278279474	-25.8310538429569	-14.4703818000074	-148.895265073579	
806800000	-14.3533985569495	-82.2190186828646	-0.177385757638782	-25.8885485207995	-0.182676852026967	-25.8280032033539	-14.4793757540641	-148.947317321762	
808500000	-14.2985149586244	-82.6679984061815	-0.164268190620627	-26.0413366747931	-0.190264513146513	-26.0567003565611	-14.3560994369466	-149.571442483084	
810200000	-14.3656327995602	-82.7042997703854	-0.160343414930614	-26.0453259052466	-0.183706773547839	-25.9838499440081	-14.3218879034847	-149.548186017881	
811900000	-14.3672141492855	-83.2305596996715	-0.172170024917391	-26.0702380460186	-0.192356550824321	-26.121622735867	-14.2985992768422	-150.065116040043	
813600000	-14.2661371332043	-82.8458554736461	-0.170643284152814	-26.0942607460066	-0.185502574290298	-26.1128142676028	-14.3175914671603	-149.659097479614	
815300000	-14.2543781811923	-82.7278911326304	-0.185151922829354	-26.2504308738515	-0.203105078548531	-26.1570540649416	-14.214186090244	-149.538350370063	
817000000	-14.316354579878	-82.6087285384981	-0.189146295618165	-26.1865731890995	-0.19243019549796	-26.1818026814796	-14.3525857464957	-150.34853001137	
818700000	-14.2766716639504	-82.6697360395857	-0.151849224599914	-26.1895071117465	-0.176724114583393	-26.2267775752979	-14.3271306633047	-150.34011313908	
820400000	-14.3170025991962	-82.6316922458201	-0.179788882789369	-26.3654115822424	-0.183907541741641	-26.358196201273	-14.2556780984465	-150.266093482815	
822100000	-14.2444508770408	-82.8800894680834	-0.184092060188059	-26.3564250042055	-0.201282505231485	-26.3896090528985	-14.3443790130811	-151.201103872558	
823800000	-14.2588631256071	-82.2344076796302	-0.161528348541828	-26.3313794955342	-0.195561126864831	-26.5009130332545	-14.3244072908733	-150.834908353152	
825500000	-14.1934532680083	-82.5954576054233	-0.177805443157706	-26.5112360686093	-0.185170058483515	-26.5313418597743	-14.1513837432943	-151.532363809769	
827200000	-14.2113724700584	-82.8000194473086	-0.165863739611327	-26.4899744185737	-0.215706926437963	-26.5722426960795	-14.1823856107839	-150.854629924998	
828900000	-14.1575588236361	-82.7576793782363	-0.174748624722551	-26.6556807962628	-0.192315312224161	-26.6132349632513	-14.1359013817223	-151.073024761696	
830600000	-14.095145881951	-83.2748286443647	-0.191942540231926	-26.6192340865359	-0.199802775640259	-26.6173763359591	-14.1582871026502	-151.229479000874	
832300000	-14.1779069831016	-82.5919611924406	-0.172485991934951	-26.7236612843626	-0.198400474640166	-26.7053478115551	-14.1707508014227	-151.14619310824	
834000000	-14.0771447899628	-81.9694625004118	-0.183796458074865	-26.8275516959251	-0.194735281047011	-26.6634124019291	-14.0698847126313	-151.26288819014	
835700000	-14.165984803466	-82.2656619978724	-0.172418154738389	-26.7192324803406	-0.185756713837623	-26.7763014747042	-14.1362726377192	-151.532722609217	
837400000	-14.0496916780293	-82.385982470644	-0.187636919887326	-26.8838064089241	-0.199936936728118	-26.8241761927603	-14.0747554164049	-151.552012473956	
839100000	-14.1567468050021	-82.2133791586128	-0.168489491196201	-26.8607014095699	-0.192720688385447	-26.9003598579158	-14.0825097520685	-151.157325799447	
840800000	-14.1533577501848	-82.3019845473002	-0.188845755921229	-26.9604439228567	-0.188676679753377	-26.9597320607137	-14.1030673685854	-152.323942423111	
842500000	-14.0629520088885	-81.8747689463669	-0.199469075301443	-27.0495546951096	-0.208700702126522	-27.0821066973731	-14.0659518900043	-151.906541929078	
844200000	-14.0178396108476	-82.5822044632881	-0.188367493475126	-27.090944352362	-0.209725946587848	-26.9916416561792	-14.0654864428802	-152.390231131659	
845900000	-14.0360702624619	-82.3925687503941	-0.192885589699012	-27.0580856016365	-0.194998754841946	-27.1720759373359	-14.0558073382029	-152.599629521064	
847600000	-13.9793397465589	-82.7269240541503	-0.182244427821461	-27.1513001232819	-0.212008109818537	-27.1782770375093	-14.016285107307	-152.575602534918	
849300000	-14.0096448422462	-82.1653427831822	-0.188327817812575	-27.196892374995	-0.200845558918269	-27.2973651114742	-14.0175149443623	-152.195982329886	
851000000	-13.9638767733562	-82.2918293555785	-0.170424574914704	-27.1930573435084	-0.201154639002805	-27.3151497156707	-13.9059366644536	-152.583815625887	
852700000	-14.0258902446388	-82.4441682107194	-0.19160916740584	-27.3768761707897	-0.191589552596843	-27.4267488149321	-13.9623100871838	-151.918571743595	
854400000	-13.9313728592176	-81.9911584668478	-0.197374026779724	-27.3424699144416	-0.209174014887644	-27.3983696523491	-13.9221323902778	-152.489715727484	
856100000	-13.8704999517422	-82.0211064350301	-0.199587745456145	-27.4495096034943	-0.210161029120221	-27.400164390296	-13.9365050501606	-153.063999208916	
857800000	-13.9280115319666	-82.1723615898	-0.204524746423471	-27.4255659388796	-0.20256518235544	-27.4349736429792	-13.9755995663237	-153.292289234696	
859500000	-13.889556680433	-82.7875347279344	-0.193275292480721	-27.6194909226463	-0.203116680412452	-27.5989166591392	-13.9146926980302	-153.436916865208	
861200000	-13.8973723828281	-82.6287705294846	-0.191789394654601	-27.6594281541259	-0.219794198073187	-27.630448960664	-13.8106624480882	-153.828044758037	
862900000	-13.8649390596233	-82.6192601301543	-0.19184759355786	-27.6560778961096	-0.206520939291785	-27.6191113326692	-13.9749853171461	-153.35206633501	
864600000	-13.8659958318687	-82.2765306197276	-0.188511536569375	-27.7451441878063	-0.230769158733119	-27.7270385379903	-13.8549894509635	-153.732420362378	
866300000	-13.786132419814	-82.6638716497313	-0.199783416146381	-27.8102569511473	-0.200600490385186	-27.7200605074054	-13.8686443688582	-153.012491119713	
868000000	-13.7676353282639	-82.3282872000486	-0.221225294029652	-27.8348650271124	-0.235617059302143	-27.9288788170577	-13.8578760167545	-153.921277026437	
869700000	-13.8338979543493	-82.419545408494	-0.204681416094539	-27.8847236626385	-0.230988626508163	-27.8746682800746	-13.7653369918212	-154.287442202142	
871400000	-13.7282356241449	-81.7133720084656	-0.193242454722608	-27.919632624501	-0.201924783720837	-27.8763289910837	-13.7978764856822	-153.322930649227	
873100000	-13.7123711306692	-82.4727002712898	-0.186367463393032	-28.0305962892272	-0.214198468827395	-28.0240033455171	-13.7575040360806	-154.401624771675	
874800000	-13.8504227877629	-81.3400194712033	-0.201107467677247	-28.0778080346584	-0.21123925452981	-27.9451371121506	-13.855300931055	-154.361169499576	
876500000	-13.6861406116779	-82.0181877785012	-0.194924243717622	-28.0192910118661	-0.225957053335133	-28.1103835930965	-13.6821007462364	-154.81175072232	
878200000	-13.7319749441061	-82.5496170176357	-0.197298406716139	-28.1037270655964	-0.208468841616602	-28.1315177531066	-13.7519388005933	-154.647043936149	
879900000	-13.7161768349704	-81.8499852502882	-0.204884362456619	-28.0820954995682	-0.217482936154276	-28.0992815917067	-13.8095014957413	-154.861501257232	
881600000	-13.7100066189362	-82.2752448124476	-0.213671468725517	-28.3047700677162	-0.205847446255269	-28.1765896399972	-13.7156085688279	-154.800763138917	
883300000	-13.6972224211543	-81.5222646095676	-0.19045500934501	-28.2644232219123	-0.21041462274201	-28.274926403244	-13.7534968462369	-155.111864856266	
885000000	-13.6753767279319	-81.9961023425058	-0.197440531906708	-28.2278284447229	-0.217657559112924	-28.3897417203014	-13.7080208132307	-155.151574763542	
886700000	-13.7149053952708	-81.9520643954813	-0.198651553990793	-28.4138982740481	-0.224441942746905	-28.4706880356387	-13.6015869600802	-155.345665594991	
888400000	-13.5685814554306	-82.1332320489205	-0.213602753622785	-28.3845129627037	-0.225655314500103	-28.4792735645216	-13.6392888834604	-155.197742479838	
890100000	-13.6205648299719	-82.17470347592	-0.216191908175607	-28.4626959602705	-0.214410937941457	-28.4927445030884	-13.6248411119391	-155.448676682729	
891800000	-13.6299992811288	-82.4174317162052	-0.206393399933877	-28.5727277108794	-0.230248692267878	-28.6175716038806	-13.5515642395875	-155.090313146842	
893500000	-13.6000409038416	-81.7377279169018	-0.217029503567207	-28.640284927352	-0.219588037871242	-28.6089623752708	-13.629766515843	-155.42282640468	
895200000	-13.6125045680071	-81.6728089245079	-0.210460385552832	-28.637972877405	-0.218351394991768	-28.5950516269708	-13.7318609516264	-155.822511855257	
896900000	-13.5674761616891	-81.9412680063713	-0.212126047956282	-28.7128392183275	-0.217767614338037	-28.7409752356838	-13.5692525824547	-155.812028244997	
898600000	-13.5030413363115	-81.8775799885601	-0.205769190630783	-28.8056995467786	-0.209405076428738	-28.7866080255352	-13.589724290024	-156.184920147346	
900300000	-13.6517656414926	-81.8495958816933	-0.217475608216537	-28.8522777006073	-0.218309285432985	-28.6627943047325	-13.6318104016016	-156.334436158255	
902000000	-13.526817597742	-81.8847617658162	-0.21304500747118	-28.9506850873477	-0.232902832773172	-28.9044833701172	-13.540928777274	-155.861298988182	
903700000	-13.5090772512604	-81.5573762745252	-0.200873256395542	-28.880575609451	-0.216596489676568	-28.9477146756137	-13.4901792314407	-156.179187948132	
905400000	-13.428586183462	-81.8974157100402	-0.21938601241299	-29.0418610835247	-0.228879036800803	-29.0201132282034	-13.5187688268499	-156.774515850473	
907100000	-13.5185589392859	-81.8460374339268	-0.214522094846283	-29.0676964200219	-0.21874309504525	-28.9878065698819	-13.4598351574623	-156.709673731902	
908800000	-13.5584351895554	-81.6696549563119	-0.219829916008715	-29.0475144887522	-0.215775793389943	-29.0883797977814	-13.4866578550402	-156.860719344438	
910500000	-13.4800027178759	-81.6721636591839	-0.216710301185889	-29.1312197892199	-0.216384157246286	-29.1697338658603	-13.4400857783818	-156.839022910003	
912200000	-13.488076350848	-81.8324999024109	-0.208970088654341	-29.1961085826735	-0.240828083294567	-29.1737344488499	-13.4995745409424	-156.794923989617	
913900000	-13.4443452224083	-81.8488518854283	-0.200683174013553	-29.192680004252	-0.239888218854228	-29.2667520336231	-13.4871956986722	-156.752377776862	
915600000	-13.3596656544601	-81.6649044207175	-0.221763474014973	-29.3244795493296	-0.235248090366554	-29.3094106540032	-13.3222277443637	-156.949138470769	
917300000	-13.4401073938928	-81.8265893871687	-0.224497224906932	-29.3312804400669	-0.228671456388888	-29.3975910721045	-13.5009706885164	-157.129807643769	
919000000	-13.3654999975416	-81.8868816551558	-0.222807868161481	-29.3725464417545	-0.243149396834566	-29.4158037812171	-13.3780057065898	-157.465814205192	
920700000	-13.3594074977619	-82.0484438521399	-0.217439695121209	-29.5786250833062	-0.23544240695951	-29.4215795789033	-13.3896368037737	-157.714286885548	
922400000	-13.341898264631	-81.5941749208527	-0.221097535692247	-29.5371635725088	-0.23208613901001	-29.5202131663632	-13.3022179506374	-157.710411895023	
924100000	-13.3162611271474	-81.4354307784497	-0.221431196607714	-29.5204083970966	-0.231966059822727	-29.6222487248144	-13.4107021484429	-157.666458001366	
925800000	-13.340195039341	-81.5944695479016	-0.214617419518249	-29.6743694068539	-0.236543903745943	-29.5953150663605	-13.3069942536258	-157.90562462562	
927500000	-13.2932697026175	-81.3556078370289	-0.240149061192272	-29.6558518175992	-0.248652031690167	-29.6722633678061	-13.3000272465055	-158.651475609163	
929200000	-13.2332508407748	-81.3966963366725	-0.22456725718233	-29.7155543862903	-0.240801449854309	-29.6924697134729	-13.3088117470117	-157.946654201519	
930900000	-13.285383288638	-81.418886537796	-0.232218115651759	-29.7121355543303	-0.248117704871619	-29.8201865935663	-13.3147959552364	-158.559660445557	
932600000	-13.2100705476389	-81.4917177704213	-0.212039153281491	-29.8540499021213	-0.237269840467736	-29.8578081548443	-13.2432909002316	-158.389248241944	
934300000	-13.2779686912056	-81.1518175472175	-0.209612816770776	-29.8692654407218	-0.223283727409468	-29.8237116831227	-13.3809336189624	-158.407795442241	
936000000	-13.223668208217	-81.4696423535928	-0.223128876068852	-29.9771468188287	-0.235326966131377	-29.9077993559921	-13.3039672584068	-158.551691770967	
937700000	-13.2187834911902	-81.9081777840482	-0.211529486222799	-29.9065692303998	-0.249635472989766	-30.0655269930829	-13.2487103454776	-158.621411667126	
939400000	-13.1993765507654	-81.5968707951411	-0.225188384570412	-30.1314242163575	-0.238441692286892	-30.1074261675559	-13.2083509185509	-158.600558686165	
941100000	-13.2303529201261	-81.0483336277785	-0.236115539217685	-30.122587407311	-0.238580386848563	-30.162016663961	-13.266809714855	-158.824950742584	
942800000	-13.2071791165455	-81.4026055142812	-0.232684017887929	-30.1392640385579	-0.223800016232292	-30.1705754332263	-13.2376641564893	-159.381397326717	
944500000	-13.1817654008925	-81.5942046826663	-0.232711558659473	-30.3704810303487	-0.241922607834256	-30.1103408760602	-13.2532188960326	-159.64877784867	
946200000	-13.1834522081372	-81.2952513409616	-0.226497546022346	-30.1793798627501	-0.247596904578251	-30.1224230609049	-13.1802034254354	-159.183254073109	
947900000	-13.1710499243012	-81.1799565584056	-0.2178521289095	-30.3289073737242	-0.232566832522273	-30.2668555805307	-13.199560814797	-159.427285769462	
949600000	-13.1161232925068	-81.5062355973426	-0.233059916004267	-30.3403732406934	-0.241079827104778	-30.3926562410686	-13.1443676432299	-159.759799650527	
951300000	-13.1577826066593	-81.0964887874663	-0.226662546941682	-30.3864888561059	-0.238289924852324	-30.3824146491362	-13.203358358206	-159.552191883403	
953000000	-13.0893740379711	-81.4212750464652	-0.224346328714695	-30.472694806312	-0.240450105640643	-30.4625455399636	-13.141364333313	-159.803909169327	
954700000	-13.107906034296	-81.3296876390199	-0.228202548780304	-30.4447820158771	-0.25565143266319	-30.5270288071657	-13.154190751342	-159.913658003703	
956400000	-13.1313352253367	-81.032825478382	-0.23124220422321	-30.5601938785768	-0.252727441154317	-30.5070343241633	-13.198214033762	-160.560114332891	
958100000	-13.0824853993958	-80.9810792789648	-0.221387685128085	-30.469271097838	-0.237188982704768	-30.5551567688079	-13.0437703003261	-160.202447257207	
959800000	-13.0676553877952	-81.304148007456	-0.230272853039376	-30.6718314764811	-0.249864982763444	-30.6684099541761	-13.1039804840757	-160.462264805576	
961500000	-12.9457128602141	-80.9805934381502	-0.223077751138072	-30.7147782521808	-0.233954727684037	-30.6998831370812	-13.0855882497706	-160.27610320281	
963200000	-13.0298326857356	-81.7435197794288	-0.238397854082016	-30.7247323120592	-0.258537880080691	-30.7507252534391	-13.0768120552359	-160.827346492208	
964900000	-12.9696417633163	-81.4183873115141	-0.243765235596089	-30.8072839647599	-0.262127726996974	-30.8949202069377	-12.9534688579089	-160.594331910653	
966600000	-13.0845539671784	-81.2701824251857	-0.242865144280787	-30.9397054061388	-0.251612628752375	-30.8894230420856	-13.0366846998158	-161.112664802049	
968300000	-13.0328479970479	-81.2658337665197	-0.233198609464196	-30.8448933044561	-0.250170365279553	-30.9670910998707	-13.0281224380979	-161.157979030395	
970000000	-12.9822318722285	-80.9263448929607	-0.23278687550769	-30.9794638089079	-0.256595086026069	-30.9929405901572	-13.0525931749659	-161.100206865567	
971700000	-13.012490004928	-81.1500958614812	-0.239063403542948	-30.8809761264278	-0.25557294475829	-31.1008705787581	-12.9949933184465	-161.289067148439	
973400000	-12.9499365880581	-81.0726491659948	-0.250672360829964	-31.0159004906886	-0.253901883041815	-31.0888909419176	-12.9937029538534	-161.5861876508	
975100000	-12.892357932645	-81.4966431583349	-0.246861059324616	-31.0597079190569	-0.248935175703044	-31.1336621234963	-12.9812163861797	-161.326601440173	
976800000	-12.8839275040729	-80.8828626311909	-0.239743233844597	-31.1273933279754	-0.254173107953347	-31.0926850050954	-12.9128123445817	-161.305384239986	
978500000	-12.8472681725201	-80.8449274922582	-0.224338271832705	-31.2365397221279	-0.260364242486676	-31.2268946181216	-12.9423279839396	-162.137910030509	
980200000	-12.9719178106146	-81.8460484015272	-0.261916071983945	-31.2241808825043	-0.269318540564915	-31.2742796801619	-12.9514144275751	-162.811442125613	
981900000	-12.8307408560922	-80.7903036533486	-0.244033615556561	-31.3609157512279	-0.25969082216395	-31.3312915416627	-12.8672921311487	-161.979881645839	
983600000	-12.831029032279	-81.1384102139948	-0.258803276224055	-31.3956716183808	-0.262442391232664	-31.4348657977447	-12.9052413023132	-162.476609421633	
985300000	-12.8173283765075	-80.7112959787201	-0.255289917496099	-31.4175789601308	-0.262227430359459	-31.4503293078708	-12.9111461099001	-162.294287738462	
987000000	-12.834045631939	-80.3140475436087	-0.241386914121695	-31.4449980596258	-0.262847623987999	-31.5112580280885	-12.8545331249618	-162.217991961296	
988700000	-12.8236583599928	-80.8937357969775	-0.238561070032078	-31.5724187323888	-0.261375076156947	-31.4691224536283	-12.846450730389	-162.565616995417	
990400000	-12.8315573236688	-81.4688641091885	-0.255072390621204	-31.6286230261986	-0.257090403582588	-31.536851600963	-12.8240210853689	-162.526518780895	
992100000	-12.7481290630624	-80.1999924639906	-0.236379233429504	-31.6208262241294	-0.272933715546982	-31.6844874864707	-12.8573297102161	-162.621203164143	
993800000	-12.6882601091136	-80.5065124790617	-0.256525287103219	-31.6236365768981	-0.277387986248642	-31.7534689159855	-12.8039898402896	-163.217614131747	
995500000	-12.7948681458837	-80.5998105674277	-0.260071490093335	-31.6681965955786	-0.283152178445778	-31.7101596013551	-12.7803877325279	-162.895047039571	
997200000	-12.7784883573966	-80.5981034190212	-0.243075068687514	-31.8443630001889	-0.240448479388524	-31.8026208528782	-12.8041054578451	-162.693239705742	
998900000	-12.7847773317987	-80.8092231470562	-0.244352024934497	-31.846090676729	-0.264348708674719	-31.7928314478565	-12.7252611885332	-163.765182776938	
1000600000	-12.690647114823	-80.0344595291578	-0.247963982960994	-31.8820625760055	-0.262127889980427	-31.8813557754802	-12.7179537890446	-162.897452948212	
1002300000	-12.6976084131284	-81.2462575836024	-0.258347916420582	-31.919103084487	-0.265899504600733	-31.9674971315468	-12.7385326321332	-163.427513539385	
1004000000	-12.7088972231545	-80.3838080105993	-0.24670838297993	-31.9208676351996	-0.257636604166874	-32.0488834731295	-12.7341133052066	-163.498422220187	
1005700000	-12.7021270585258	-80.4102976562961	-0.235432208931299	-32.0610460449051	-0.274346332530847	-32.0852288409851	-12.7544410155184	-163.541531458995	
1007400000	-12.6875281831858	-80.8603544250812	-0.251127073517611	-32.1277537825941	-0.273185274992862	-32.0982063477999	-12.7976980177492	-163.883007792462	
1009100000	-12.6749040633532	-80.689664395483	-0.25174094696436	-32.2344776626779	-0.280619944044782	-32.1548090696218	-12.6814110587686	-164.167992355703	
1010800000	-12.7186625254891	-80.596526228328	-0.2698374114486	-32.158250648397	-0.266725326551864	-32.2112594571771	-12.7022326825411	-163.780416820177	
