!Keysight Technologies N9950B: A.12.38
!Date: Monday, 15 May 2023 15:27:48
!Timezone: (UTC-06:00) Central Time (US & Canada)
!Model: N9950B
!Serial: MY61131330
!GPS Latitude: 
!GPS Longitude: 
!GPS TimeStamp: 0001-01-01 00:00:00Z
!GPS Seconds Since Last Read: 0
!CHECKSUM:1554276445
!Correction: S11(ON U)S21(ON U)S12(ON U)S22(ON U)
!S2P File: Measurements:S11,S21,S12,S22:
# Hz S DB R 50
800000000	-14.3368661959195	-81.3580109716925	-0.249331842289118	-25.7675169030533	-0.26706874517679	-25.9222425691511	-14.358758320993	-155.798575667822	
801700000	-14.3391248362917	-80.777458377595	-0.242694390243614	-25.929793158298	-0.246071704507096	-25.8712090934294	-14.4101244176112	-155.107447471325	
803400000	-14.2451989389254	-81.0606149573308	-0.236809727596573	-25.886382390463	-0.266099567181195	-25.8937216795239	-14.3205059521771	-155.732908756482	
805100000	-14.2697285576329	-81.1027295844509	-0.241947794471708	-25.928807104728	-0.243614988098649	-25.9703157160498	-14.3303933023353	-155.508492528616	
806800000	-14.2558234162266	-80.4563627110295	-0.262639916924586	-26.0583463978796	-0.236549575997226	-26.0037584450976	-14.3629833141196	-155.675774131251	
808500000	-14.1862758744016	-80.6910103620864	-0.234608473282438	-26.1147103777456	-0.245514862090632	-26.1716301234423	-14.2628020622527	-156.069043991453	
810200000	-14.2234236715914	-80.869436060055	-0.236262548559824	-26.1088010082879	-0.257915567594948	-26.1001460105988	-14.1990107035469	-156.034371153049	
811900000	-14.2387008009566	-81.2403706357975	-0.24076088869624	-26.1134404253187	-0.258067789338554	-26.2720865321349	-14.1773489474133	-156.557026708825	
813600000	-14.1490527313139	-80.9731818418063	-0.256320762472551	-26.2215220306905	-0.258869104219109	-26.2772938464712	-14.2157491427491	-156.037748915357	
815300000	-14.1441017823289	-80.9248017379582	-0.263431735923927	-26.4077718320105	-0.264539215967393	-26.3690763064835	-14.1226181194791	-156.045478236615	
817000000	-14.1987858538389	-80.6947553599128	-0.266775183568653	-26.3527100466168	-0.266459170200358	-26.3451555536497	-14.2502478875741	-156.920942709518	
818700000	-14.1912074472804	-80.7470177431257	-0.23676850733748	-26.3415296805913	-0.246271187735558	-26.422141143534	-14.2097578047796	-156.875797101173	
820400000	-14.1913938255103	-80.5942007131028	-0.250015678964208	-26.4528274429851	-0.263646523675699	-26.4855523721656	-14.1532881230177	-156.836177350923	
822100000	-14.1014958821519	-80.9375429710725	-0.251462572166979	-26.5232974625063	-0.258056617261357	-26.55617516111	-14.2049200307459	-157.796990332589	
823800000	-14.1442427749321	-80.2639542378781	-0.248401171441169	-26.4556678977334	-0.25637765622007	-26.5240296985942	-14.174546199461	-157.463365617276	
825500000	-14.098238851368	-80.5031976012469	-0.259413026179075	-26.6636093760259	-0.256278718624868	-26.6505079428718	-14.0392278549154	-157.984217589406	
827200000	-14.1276692490496	-80.7842978819981	-0.257600201702262	-26.6337021019231	-0.2714042314297	-26.6293734923491	-14.0531138766797	-157.424608266392	
828900000	-14.0534329328583	-80.7247561666302	-0.260605506523521	-26.7836557364531	-0.267288508396457	-26.7400255584578	-14.0540005710748	-157.617536811917	
830600000	-14.00433072178	-81.1689586994892	-0.261761897166446	-26.7370972201896	-0.262328401972689	-26.7774363618164	-14.0306666759877	-157.899827091551	
832300000	-14.0791041278244	-80.4677238736825	-0.248505031880768	-26.8405608519583	-0.262814722367941	-26.8315668147217	-14.0603434576735	-157.81053027194	
834000000	-13.9615801791581	-79.8810977680765	-0.253614532223114	-26.9484368036567	-0.256842982795229	-26.8509503416191	-13.9712639010792	-157.98861305236	
835700000	-14.0416634073058	-80.2009108423139	-0.247733481665891	-26.8799684698732	-0.261253371451362	-26.9532554764173	-14.0501814558336	-158.316153965759	
837400000	-13.9400381254361	-80.0431516285262	-0.260707085858977	-26.9125497685457	-0.256379579074594	-26.917266297426	-13.9739549377424	-158.269513733566	
839100000	-14.0570316047246	-80.1729321367262	-0.258543139508596	-27.0913571936298	-0.260043069894346	-27.0429510566018	-14.0155576112643	-158.005862778658	
840800000	-14.0221966070141	-80.1886064305346	-0.263491426125765	-26.996677557868	-0.266157048730895	-26.9899760830046	-13.9961184432123	-158.962613678116	
842500000	-13.9311904592121	-79.781027622991	-0.275315237162309	-27.0635003906252	-0.285160606721787	-27.1715282837584	-13.9678804558538	-158.561501844572	
844200000	-13.9271773533715	-80.4412057351857	-0.265088677234201	-27.2491828666474	-0.276589526891507	-27.1272840317316	-13.9752585813176	-159.154342381451	
845900000	-13.8881840383647	-80.4630168894751	-0.254659601576781	-27.3252955062865	-0.268011752466754	-27.3168814098497	-13.9436989441699	-159.311589534996	
847600000	-13.8749980834632	-80.6598023968759	-0.26197829160165	-27.2459369162861	-0.292839213390092	-27.3622534369252	-13.9268458854095	-159.290541763952	
849300000	-13.8871808632306	-79.8575086459201	-0.25155469389698	-27.2914609129152	-0.27165792401987	-27.4278492011487	-13.9535998031945	-158.880256033723	
851000000	-13.8547162581384	-80.378897091181	-0.257532825003366	-27.4128959372729	-0.262670329815141	-27.4581010441832	-13.8002685432293	-159.32351247901	
852700000	-13.9196133244482	-80.1972989660404	-0.271682340756133	-27.4955680160816	-0.254174683588548	-27.4936009248016	-13.8681220756314	-158.597689742084	
854400000	-13.8282075152497	-79.9408139610254	-0.268364429481473	-27.4910077463249	-0.28476573196989	-27.5633704581657	-13.8592441837078	-159.345761351803	
856100000	-13.7637095806681	-79.9353474483618	-0.268016530634297	-27.5836443723065	-0.27952374296693	-27.5547788635562	-13.8484054002421	-159.731563109191	
857800000	-13.812943855082	-79.9370066431181	-0.279755284739639	-27.578780529209	-0.274640648195256	-27.5776537669979	-13.8981896634804	-160.078482362048	
859500000	-13.7842494274206	-80.4801565080584	-0.266344712318562	-27.6629806445229	-0.27591137999933	-27.7020791653172	-13.8258790517013	-160.175470564668	
861200000	-13.7902515998661	-80.443046427257	-0.268134694595215	-27.8262477791329	-0.28447524645411	-27.7835679617117	-13.6966602886258	-160.482300599783	
862900000	-13.7644169146892	-80.3478743329575	-0.276878789934007	-27.703712578387	-0.282162050363804	-27.8149631470232	-13.8798270045458	-160.308516105823	
864600000	-13.7604569607177	-80.0090689095839	-0.279566108008729	-27.8595557231078	-0.291013125932772	-27.8656907107637	-13.7437673414225	-160.50618684859	
866300000	-13.7071254197291	-80.3782616981359	-0.279887183460293	-27.8961164423681	-0.265489443084374	-27.8721914646982	-13.7862119693619	-159.90875340908	
868000000	-13.6492232793071	-80.0693380318314	-0.282910170135725	-27.9090858655762	-0.292912675436507	-28.0288324814505	-13.7531852538575	-160.702738339313	
869700000	-13.7268144546033	-80.1466794563325	-0.286092312593423	-28.0054699368369	-0.291294977666044	-27.9386823563903	-13.6714887257535	-160.870651359387	
871400000	-13.6446634141117	-79.4801606883435	-0.2666671676806	-27.998184591409	-0.285943758037534	-28.064744253939	-13.7479790532736	-160.179971149766	
873100000	-13.6354940747476	-80.1326639788615	-0.291333377377828	-28.1144673241563	-0.273407768551001	-28.113978460362	-13.6506150900482	-161.156838681018	
874800000	-13.7305460229456	-79.1072931073357	-0.273629860904755	-28.2274381515501	-0.281621153517162	-28.1249532232606	-13.7441942303911	-161.219626831094	
876500000	-13.5989135916563	-79.8663001292402	-0.293049788966833	-28.2762720444875	-0.295670301446662	-28.1697916125372	-13.5759028311445	-161.415321068945	
878200000	-13.6333662414979	-80.212956632061	-0.278137706600531	-28.216059475471	-0.282310175020096	-28.2685545112315	-13.6657008831987	-161.483428803856	
879900000	-13.6312939508266	-79.7879127242535	-0.293824830862147	-28.317631950814	-0.284134189973638	-28.230223331002	-13.7045997383141	-161.919337617724	
881600000	-13.6030377970673	-79.9363715937048	-0.271582679966677	-28.4104649211217	-0.265841581803972	-28.2567378342845	-13.6230146697327	-161.702965210976	
883300000	-13.5790895288369	-79.2959401194152	-0.269186829124845	-28.4493186148156	-0.281007648355271	-28.3849348706237	-13.6660435565862	-161.88938340417	
885000000	-13.5692643229075	-79.6544092476437	-0.277067678212442	-28.4327515723534	-0.28122111640438	-28.5348828437349	-13.6128851484408	-162.032174929105	
886700000	-13.6117825757259	-79.5470626777685	-0.2797173337481	-28.5231475731947	-0.287087753231022	-28.511149823659	-13.5194238835551	-162.144200089415	
888400000	-13.4632225276062	-79.874823474423	-0.281702047060006	-28.5560248897165	-0.293046506502071	-28.6173817279816	-13.5432141183352	-162.143365559508	
890100000	-13.5117840178856	-79.8048784865891	-0.289101896499605	-28.5991376726345	-0.303918343399645	-28.5798835802978	-13.5601672049764	-162.262919838914	
891800000	-13.5199937657728	-79.9381167198416	-0.28749538493461	-28.5200478919124	-0.290108659694333	-28.726153974502	-13.4650917305362	-161.94556693534	
893500000	-13.5047577015647	-79.4460879838079	-0.296075756622893	-28.8188159747393	-0.284985592523813	-28.6914979219095	-13.5367091510985	-162.141278444702	
895200000	-13.5137011628797	-79.261369115993	-0.281211471900541	-28.7224708943793	-0.291137760563654	-28.7830174911005	-13.6418084389655	-162.897727947029	
896900000	-13.4853016292242	-79.4902927782994	-0.292466035974985	-28.7573737546644	-0.284706203135663	-28.888862949306	-13.5024497189054	-162.68926361007	
898600000	-13.3894800070711	-79.5225601580548	-0.281784299765856	-28.9451539034712	-0.282853766875523	-28.8749349780757	-13.517652527515	-163.238947367147	
900300000	-13.5474882722825	-79.4067267484667	-0.290033096260184	-28.9696178015074	-0.285122585641238	-28.8618053570064	-13.5292540297297	-163.348419213396	
902000000	-13.4232528303373	-79.340040314907	-0.277945768111489	-28.9940829482481	-0.301060799014971	-28.9862078160437	-13.4859102167162	-162.64080642917	
903700000	-13.4281192619055	-79.1432206543265	-0.29591283830481	-29.0713775415735	-0.2922332774588	-29.0837737517368	-13.4207496106546	-163.253641443404	
905400000	-13.330633252285	-79.3372585578081	-0.288170954969334	-29.1422465276267	-0.290168435867244	-29.0921575913659	-13.4135593818927	-163.69422208244	
907100000	-13.4237084283716	-79.2592628355422	-0.301586666794817	-29.1122961852721	-0.291303884277482	-29.1232078440089	-13.3986894063807	-163.663948168614	
908800000	-13.4626953478128	-79.1062016572276	-0.311988485001955	-29.1857908522109	-0.286013897827859	-29.181172757427	-13.4239367276157	-163.845517892728	
910500000	-13.3794396422853	-79.0642934506836	-0.292834030297195	-29.2422135416008	-0.293084121155554	-29.2355064043478	-13.3651823380312	-163.572931035413	
912200000	-13.4090318376041	-79.2688001213869	-0.289841117253543	-29.3123751752868	-0.304925299043031	-29.2906536443244	-13.414939665722	-163.988957119071	
913900000	-13.3512402163612	-79.2499786403537	-0.287679514538429	-29.2641983235598	-0.311739596786812	-29.3357097177248	-13.4152252065474	-163.838033698678	
915600000	-13.2492106576573	-79.2339858303838	-0.30629208524394	-29.5055514007476	-0.307666311929982	-29.4343014983256	-13.2695968392508	-163.794810216432	
917300000	-13.3576592863947	-79.1878218206953	-0.29936729859084	-29.3965023451376	-0.311025707777021	-29.4900268774342	-13.4454474055928	-164.28944257656	
919000000	-13.2907209219269	-79.2339776639217	-0.28888090076247	-29.5140460858902	-0.312282312592781	-29.5696968424782	-13.3072531830173	-164.582532143104	
920700000	-13.2706309922732	-79.3396928434538	-0.302092113235203	-29.5807134927105	-0.308155029602332	-29.5778335035034	-13.310272314731	-164.841777944889	
922400000	-13.2368785902689	-78.88113503536	-0.303434975636954	-29.53740467909	-0.307471165227668	-29.6251508603659	-13.2241557156104	-164.848479651649	
924100000	-13.2297406276854	-78.8028738321903	-0.300508092931491	-29.5737639369088	-0.293428300541377	-29.714313060825	-13.3301846970381	-164.740498954768	
925800000	-13.2548834926066	-78.8912524181667	-0.29220050361358	-29.7629537747466	-0.305700634796652	-29.7383804186129	-13.2295129930371	-164.976996514502	
927500000	-13.1998357213653	-78.9260185026691	-0.31422774722466	-29.7936286312855	-0.306410014027897	-29.7536795631521	-13.1995972090057	-165.603098674529	
929200000	-13.132300502048	-78.7923548158009	-0.303647665316497	-29.850685226781	-0.322378472704196	-29.7728406603237	-13.2668911288197	-164.991886064481	
930900000	-13.1949138581002	-78.9115210061589	-0.321568175906826	-29.9175463716558	-0.29941532412896	-29.9230242024699	-13.2116144143319	-165.577342434304	
932600000	-13.1131386344052	-78.8765458120985	-0.288194974562801	-29.984277277073	-0.319841301582962	-29.911346716221	-13.1802574797817	-165.431142650249	
934300000	-13.1747233826128	-78.4799948087901	-0.292010027777816	-29.9050836119393	-0.301648022406001	-29.8880938028329	-13.3088227259131	-165.33794718584	
936000000	-13.1373583307564	-78.8086327980332	-0.308450460921882	-30.0637775325859	-0.306269054008357	-29.9194065976328	-13.2477534410154	-165.666088440159	
937700000	-13.1624695452945	-79.2715074758356	-0.302813602439288	-30.0860211538357	-0.313160729207782	-30.1473197180773	-13.1847281466267	-165.678308868841	
939400000	-13.1178105618454	-78.895474184634	-0.32065033988221	-30.205024600153	-0.321061852971492	-30.1214684922647	-13.1570691765516	-165.699526411966	
941100000	-13.1212482345773	-78.4503342247343	-0.314128284725054	-30.1693548680281	-0.318562277629776	-30.2803792395585	-13.2159553592747	-166.042783463363	
942800000	-13.1083831199835	-78.6997093312189	-0.317212533815356	-30.2795802153146	-0.304078362948265	-30.1999737598578	-13.1831923273937	-166.537126918904	
944500000	-13.0999601725791	-78.8979205923628	-0.319580235071897	-30.3699556973947	-0.314360291708593	-30.2801422529057	-13.1727151152759	-166.883909049302	
946200000	-13.0824743603077	-78.6022737315351	-0.294809429607072	-30.3045878106087	-0.317715601035415	-30.2569209800966	-13.1121242429398	-166.344607099855	
947900000	-13.09398550661	-78.4715217098137	-0.318820794790526	-30.445990715737	-0.304306162566698	-30.418072376539	-13.1415590750974	-166.609691967193	
949600000	-13.0419156596561	-78.773048962222	-0.318109485236892	-30.4354804951966	-0.309485476497231	-30.4959732284591	-13.0820462136542	-166.956617675879	
951300000	-13.076179659308	-78.4844439410621	-0.314251417443239	-30.4637797802127	-0.310659759144373	-30.4165768990128	-13.139417061372	-166.668366506154	
953000000	-13.0167834272896	-78.6081982698394	-0.313696062754936	-30.5248794511106	-0.309321555376918	-30.4967408327852	-13.0651448705393	-166.938873661692	
954700000	-13.0400325666434	-78.3613696023909	-0.318167418537029	-30.5096215481909	-0.326698532699384	-30.5557427487074	-13.0870068661619	-167.087958835462	
956400000	-13.0242686433366	-78.1281879960848	-0.308712362653459	-30.642855941717	-0.304411495729628	-30.699470907101	-13.0941992497248	-167.815889205302	
958100000	-12.9886083190236	-78.238201068718	-0.307991578330428	-30.6447003345785	-0.319663510922743	-30.6899648026719	-12.978364362575	-167.340776040834	
959800000	-13.0038657520183	-78.586817279176	-0.317672599655668	-30.7749137014215	-0.319320133795824	-30.8256437212396	-13.0209553340638	-167.749016353051	
961500000	-12.8614863510907	-78.135114240947	-0.311069902808404	-30.7389736411529	-0.306011427322004	-30.7470448043479	-13.0389705911602	-167.432903250319	
963200000	-12.9586346939927	-78.9574975253351	-0.31545945148571	-30.7791966358031	-0.325215961948779	-30.8594592892079	-13.0223429917578	-168.100415946901	
964900000	-12.8886153702856	-78.6624836451403	-0.324779117670703	-30.9293817658777	-0.331853118404242	-30.9834769147219	-12.9029154357522	-167.770421606725	
966600000	-13.0043801296595	-78.3979270283038	-0.321428431058864	-30.9484115757578	-0.321207557748754	-30.8587284397244	-12.9785814915308	-168.299543704134	
968300000	-12.9629660950529	-78.4731264222997	-0.324123955285538	-30.9333660061643	-0.32492212270845	-31.0051627818721	-12.9957919681367	-168.254706834573	
970000000	-12.9107915502525	-78.0422206101362	-0.324353411587412	-31.0617839880258	-0.337729366255803	-31.0278839203652	-12.9849005810215	-168.379437721936	
971700000	-12.9413535027234	-78.420710127846	-0.321919959108105	-31.0924926174872	-0.32714341823419	-31.1017724670611	-12.9464103904537	-168.54011659538	
973400000	-12.86175052108	-78.275872657453	-0.322035065991074	-31.1392776666617	-0.320360926415498	-31.1919761215796	-12.9259625626624	-168.865516872623	
975100000	-12.827098256503	-78.6990097192813	-0.341197358868957	-31.1242341703449	-0.329045800930332	-31.2420800430876	-12.9279896126136	-168.784175344748	
976800000	-12.8232681990851	-78.0588022105421	-0.335572728921397	-31.2440381432154	-0.332308972551605	-31.1878484069983	-12.8555191166182	-168.599244192471	
978500000	-12.7895249552014	-78.004173324717	-0.323930051338391	-31.2561479584445	-0.329296986080078	-31.2813099796128	-12.8665052783869	-169.434622787934	
980200000	-12.8944756253673	-78.9889473317575	-0.336948428413361	-31.374912715078	-0.346610785588855	-31.4133262417032	-12.8968418742169	-170.218866511785	
981900000	-12.7659511520894	-77.8115522186676	-0.331518862078137	-31.3770468126868	-0.328239339632266	-31.4157871318381	-12.7969657098538	-169.228987967799	
983600000	-12.7566093674347	-78.215111072512	-0.342466420748119	-31.5026338115034	-0.339599263091949	-31.5239077681453	-12.8616305322208	-169.776886644728	
985300000	-12.7527050507093	-77.9072732557309	-0.33429831062735	-31.5439634784181	-0.336766822974894	-31.4641621536689	-12.8583886878595	-169.579586231742	
987000000	-12.755362936753	-77.3699576600156	-0.333019148982997	-31.5636964554211	-0.349957486681461	-31.5839904626275	-12.7902772355516	-169.50626784117	
988700000	-12.759824856467	-78.0139972240859	-0.324837141765925	-31.6590756378144	-0.334587677995096	-31.603853258724	-12.8061974719579	-169.961989173092	
990400000	-12.7528474879707	-78.4786713537801	-0.334507884317371	-31.718903667502	-0.32878605508498	-31.6914905051591	-12.7694704980048	-170.021649275412	
992100000	-12.6697345003271	-77.3860432550489	-0.3226876601144	-31.7789306670558	-0.345164684179777	-31.7162539285407	-12.7898968253508	-169.934437833784	
993800000	-12.6292503970519	-77.6078468508883	-0.34148662919805	-31.7307795001605	-0.333386086341669	-31.7782605104542	-12.7145146192249	-170.449181568777	
995500000	-12.7243648521109	-77.7540809281554	-0.339903830298778	-31.8692997793691	-0.345288149494462	-31.8533677490677	-12.711024537883	-170.337980826422	
997200000	-12.7197480394531	-77.6423055128801	-0.33688667923427	-31.9495153569674	-0.319112830503414	-31.9521372603219	-12.7554927111738	-170.184025815413	
998900000	-12.735237480631	-77.6807291365313	-0.337601659279254	-31.8922414095808	-0.349695458401765	-31.9055698813079	-12.6764049758181	-171.065799735131	
1000600000	-12.6020171993512	-77.0120314759449	-0.322613436464419	-31.9628785190872	-0.342697915618004	-31.9338248186002	-12.6795591378852	-170.16276645437	
1002300000	-12.6330293937345	-78.2034776990612	-0.345180772049559	-31.9354908120335	-0.348612168692955	-32.0574167344581	-12.6800316283065	-170.800096719714	
1004000000	-12.6413471489763	-77.3237601534259	-0.331765273074944	-32.0079377548802	-0.335216647072357	-32.1449921208136	-12.6958056741116	-171.026132838696	
1005700000	-12.6379562506296	-77.3264482883253	-0.330392580934248	-32.151857365051	-0.337918879650651	-32.1459933393339	-12.6752004279417	-170.989862885588	
1007400000	-12.6302879706227	-77.7775796369743	-0.338493354139525	-32.1130696998099	-0.352709424078002	-32.2271680843879	-12.7350645630051	-171.439516036395	
1009100000	-12.6244018045409	-77.4956984533796	-0.332228063726931	-32.2304865088044	-0.347987773402403	-32.1767748202013	-12.6232505306158	-171.448480072329	
1010800000	-12.6420692219675	-77.6428794183693	-0.354673741768879	-32.3419964879326	-0.356395881113553	-32.2534392291576	-12.677291545827	-171.122042601865	
