!Keysight Technologies N9950B: A.12.38
!Date: Monday, 15 May 2023 14:40:18
!Timezone: (UTC-06:00) Central Time (US & Canada)
!Model: N9950B
!Serial: MY61131330
!GPS Latitude: 
!GPS Longitude: 
!GPS TimeStamp: 0001-01-01 00:00:00Z
!GPS Seconds Since Last Read: 0
!CHECKSUM:2111425208
!Correction: S11(ON U)S21(ON U)S12(ON U)S22(ON U)
!S2P File: Measurements:S11,S21,S12,S22:
# Hz S DB R 50
800000000	-15.0564000916961	-86.3872834294298	-0.125185361476448	-16.658349402999	-0.122211658263616	-16.5457968169195	-15.7299560905584	-126.03769619726	
801700000	-14.843018922153	-84.9512390688333	-0.293156440232505	-17.0669784473623	-0.274943070763094	-16.9436959886539	-16.0801445742678	-129.868912606442	
803400000	-15.7941282022927	-84.1157259340281	-0.195845810354778	-16.785228399045	-0.208000104015274	-16.7011386772526	-16.0090246074725	-133.030294175727	
805100000	-15.4864709223861	-83.0762842080036	-0.275295986252201	-16.9335593153077	-0.24371756937486	-16.6594494166955	-16.3146368692808	-133.466811666068	
806800000	-15.70858522282	-82.9568166132304	-0.242202821073215	-17.3775227999351	-0.263219239738855	-17.3793596426013	-15.6458023499812	-138.122436257318	
808500000	-15.0619933008187	-87.2027009910176	-0.388164325902861	-16.4619529634444	-0.395729331505713	-16.5153884602011	-16.9644516911721	-129.842359066153	
810200000	-16.1733182209833	-85.2888369764093	-0.192864642470463	-16.8521651084857	-0.238160206169115	-17.1184842694181	-15.3044134561357	-132.847921878176	
811900000	-14.9381705935859	-85.9989158317669	-0.200667873319583	-16.1514851587069	-0.178866446282321	-16.1249288348755	-16.716088318152	-126.071751423933	
813600000	-15.6743292705581	-81.1783944552435	-0.358100021759857	-17.0198576492008	-0.349834002116184	-16.9232062097727	-16.2890133165571	-136.243679096598	
815300000	-15.356923932641	-80.3239086868564	-0.232527245551178	-17.0035036080565	-0.252578738650867	-16.8835782758952	-16.1823677868497	-135.395240855378	
817000000	-14.8177508773548	-82.2980560620667	-0.245998029485929	-17.2169842129652	-0.255215375579946	-17.2086108648139	-16.4807419973805	-133.121070253737	
818700000	-16.040633223136	-83.7996884162681	-0.101376456750106	-16.7731400678884	-0.0861490992473175	-16.8422669536314	-15.391583401919	-135.315944891637	
820400000	-16.364088980967	-85.0557164341344	-0.145484261271887	-15.4093415631159	-0.191668482250608	-15.7209254869933	-15.7572390888987	-126.641197472854	
822100000	-14.7603339128192	-79.9379769796641	-0.342274825457794	-16.9537941601621	-0.315886028449904	-17.0581197913367	-17.263891181108	-137.790617304982	
823800000	-15.2608765126256	-81.9522221431412	-0.0749424929320493	-17.4123989053231	-0.0649388406884754	-17.6183852304756	-16.1569821088682	-134.715910286111	
825500000	-15.210425380849	-85.1034355429024	-0.13479277830787	-16.5577950280078	-0.188430528152662	-16.6838756537189	-16.5437167614938	-130.056316878251	
827200000	-15.2632350875072	-84.8541367855802	-0.231930802331734	-16.8889084040638	-0.240076526062152	-16.8091658267693	-15.7509055978515	-131.737855440118	
828900000	-16.2037510575017	-83.3372580896538	-0.168625554008081	-16.6653197495422	-0.18881684628344	-16.4120809383769	-14.7838844748721	-133.847835358905	
830600000	-15.7296051259573	-85.9897830658292	-0.0629952440215219	-16.2365561241749	-0.127680397027708	-16.1989203299375	-15.529413007389	-129.249553588972	
832300000	-14.6088363219164	-81.027780055427	-0.353145455326338	-16.4829177335149	-0.372737202889379	-16.4247806588512	-17.6070242937658	-137.804973804551	
834000000	-14.8798614742923	-83.9098692989925	-0.235780791494978	-16.5835843677951	-0.254261458561684	-16.8369052219208	-16.6109322674837	-132.622609251028	
835700000	-15.3955617431985	-77.830511835824	-0.192166298302332	-16.8979370515314	-0.201703676135283	-16.9365979564252	-16.6704382124578	-136.393138060915	
837400000	-16.0403391844317	-84.9197210318968	-0.298670404782445	-16.6452171983014	-0.311484280687263	-16.4856333246078	-15.8242998632745	-135.897020891469	
839100000	-14.7573891599328	-85.2466121845426	-0.31091024788802	-15.5645119369844	-0.315097412124613	-15.7490202362636	-17.0972971727479	-126.562373071503	
840800000	-15.8235043761791	-85.2858998218396	-0.208399615802013	-15.6839605360816	-0.201753753427004	-15.6942550283785	-15.7652502152437	-130.974084456699	
842500000	-15.2372464185643	-87.1119284870186	-0.197294316987227	-15.7179072192366	-0.215947240108365	-15.7982587628849	-15.9150958490214	-124.530502199259	
844200000	-15.2156960823025	-81.8182250676615	-0.0974476357762924	-16.3891832148598	-0.115820334239863	-16.4160769353225	-16.0083998217609	-130.212497322507	
845900000	-15.7091981455123	-86.0620657534581	-0.0986521498334963	-15.677381970002	-0.113112154145833	-16.0293006228411	-15.8120768796909	-126.852545652406	
847600000	-15.2549931000336	-86.110203052693	-0.299297283785158	-16.8011736926233	-0.305114519717096	-16.4448389393089	-16.2571328206757	-131.146528206585	
849300000	-15.6306583188727	-87.027579985876	-0.207987975246941	-16.0731167542006	-0.235525168872151	-16.0081971944738	-15.6301421433717	-127.64620214507	
851000000	-15.4020497999954	-85.5244989149352	-0.203627959838736	-16.1950362793999	-0.205014496637607	-16.1607709342673	-15.8634502607415	-133.132213342482	
852700000	-15.8822745247204	-86.3437626638753	-0.0867897719144351	-16.0485655375939	-0.0740905124197093	-15.7130279534559	-14.9603064698842	-130.585996309861	
854400000	-16.1519305140826	-84.9310466360752	-0.130324448868859	-15.8081676465311	-0.0965158934248714	-15.8365005717713	-15.1828659455875	-129.496030204415	
856100000	-15.4098713217363	-87.6924752061029	-0.194107131807095	-15.5191539422065	-0.245976119561626	-15.6304353149879	-15.7836207506962	-125.210249224454	
857800000	-16.2695926839657	-86.2601464204093	-0.153599023785569	-15.4409284591422	-0.149619702460229	-15.5070099164711	-15.2949546708882	-131.986148532384	
859500000	-15.346281700239	-85.2072408881606	-0.099702851575927	-15.5929250721669	-0.117709856847857	-15.5403294092936	-15.971581538115	-128.50059255412	
861200000	-15.5511948481478	-85.4114153232645	-0.0878758246530962	-16.2310050565518	-0.132344185863065	-16.3246427458372	-15.659470526963	-129.869172526125	
862900000	-16.2579706616613	-85.9895924947979	-0.139812207349571	-15.1152983494808	-0.0935847952182649	-15.079375915441	-15.5561192342702	-125.733309407867	
864600000	-15.1617279831928	-85.8042902533	-0.225575981769541	-16.182773594254	-0.276939581004289	-15.9007196993728	-16.3317589255886	-129.001510797074	
866300000	-15.2424919838667	-85.1891379946688	-0.201873362782785	-16.1455336182565	-0.219447616621414	-16.258601607508	-15.6868421602316	-131.424466002497	
868000000	-15.7470781137006	-84.0291490007782	-0.116604889451506	-15.764155381922	-0.184224940066222	-15.431047069527	-15.6055665327155	-127.53180344912	
869700000	-15.6654839074977	-83.8059020579754	-0.0986408786946756	-15.3533878075931	-0.14636606865036	-15.2481558906766	-15.856933231845	-127.120553127172	
871400000	-15.2309974476436	-85.2086175570998	-0.251040742277767	-15.5448184661202	-0.24125700594619	-15.8167879376301	-16.2492748330109	-127.785969629859	
873100000	-14.9703564598409	-87.3784996228466	-0.267478348960326	-15.4900657678448	-0.283493403279751	-15.4013756133493	-16.574167514116	-128.562055676407	
874800000	-15.7560101397271	-85.4948558623696	-0.178355916526501	-14.8714909314506	-0.196918683133131	-14.5309816652234	-15.9195272246889	-128.450338545695	
876500000	-15.5791840657633	-83.9756834747868	-0.222156937003984	-15.5420128382434	-0.237262728078668	-15.4029925184211	-15.8753465991245	-131.357272126569	
878200000	-15.7176097522455	-89.025667108964	-0.284654045003183	-14.5979911855124	-0.232412496275735	-14.6494101695141	-16.1758849705578	-125.470034944264	
879900000	-15.4488975773978	-86.8603073943291	-0.221638951147282	-14.7644604918712	-0.220095998678729	-14.8815419776909	-15.9335523814692	-124.956079946937	
881600000	-15.261643590139	-89.3554643644332	-0.163877134984873	-15.203596583734	-0.222088610097977	-15.1070531513118	-16.1214407318467	-123.027358418682	
883300000	-14.9435933251302	-87.718763371816	-0.217205599938707	-14.230285257839	-0.23968075640203	-14.1275510964829	-16.6814160674284	-122.449310655875	
885000000	-15.4300295556017	-87.4354675770282	-0.167559877136583	-15.2160617939121	-0.214000924330646	-14.9747553008376	-15.6092191466289	-125.493876076605	
886700000	-15.2936226399253	-88.5264088604993	-0.211462854108735	-15.032261231711	-0.258804826126495	-14.8912688016196	-15.9434703068313	-124.142056813045	
888400000	-15.5879831092301	-91.2395541571872	-0.247641900189719	-15.5472974328155	-0.229444162107816	-15.2511638893469	-15.7547618029837	-126.430277294527	
890100000	-15.220741536489	-89.514566891783	-0.131595377359505	-15.069520835383	-0.189431024097853	-15.0941646362052	-15.8749928302303	-122.501915376607	
891800000	-15.7167047194694	-85.9392089474056	-0.158935493496063	-15.279424677074	-0.16455868746812	-15.3691031605588	-15.5341741000776	-128.664310301326	
893500000	-15.1325798387308	-89.8223683799071	-0.310445138423492	-14.4407977890793	-0.255086923058767	-14.3618515571048	-16.520772233175	-122.371389047982	
895200000	-15.2030315992187	-92.0255647335204	-0.212129193851047	-15.0397574459992	-0.253641776377416	-14.8687731167937	-16.002062238445	-120.799939484988	
896900000	-14.9737097631383	-88.8392126860028	-0.302483772232119	-15.2105136206353	-0.267605991831967	-15.068509061485	-16.3117975301658	-127.286997154482	
898600000	-15.2143068962184	-89.0177387076128	-0.180591782041722	-14.5488817123975	-0.242172457144437	-14.4327834633134	-16.2442174163969	-122.443761739063	
900300000	-15.1914576043918	-87.9724273954148	-0.152957803619585	-14.407633953459	-0.183102030322762	-14.3143833216257	-16.332051543794	-121.217090189241	
902000000	-15.5236198583437	-86.5370292323714	-0.240366320117799	-14.8937386741224	-0.244467167188356	-14.9106948030813	-15.9189774456311	-126.572543127973	
903700000	-16.0503905583833	-88.756042544072	-0.0971871515318762	-13.8411929234308	-0.12733314625143	-14.152416518505	-15.0361771406949	-121.475512835698	
905400000	-15.2450723227896	-89.1212460781328	-0.14121832879276	-14.3991201310981	-0.134235503252997	-14.3410188455748	-16.3205805607068	-123.660645029722	
907100000	-15.2914971323867	-91.0075932067034	-0.251025531423232	-14.118957540314	-0.259285947675566	-13.9143118448851	-16.1828080028323	-118.719561643808	
908800000	-15.3501340042656	-90.9776709637951	-0.265892018208366	-14.1036149217757	-0.291635748593952	-13.8029010626997	-15.9245998115109	-119.925371500131	
910500000	-15.4477948279069	-87.3805895225403	-0.196517438496072	-14.830443013402	-0.216906669536622	-14.4992715842403	-15.7433147573642	-126.614241891389	
912200000	-15.4378625531566	-90.0861051905243	-0.245127226943073	-14.3706330693126	-0.261060200934813	-14.4172867624398	-15.8571292788446	-121.398418322696	
913900000	-15.1140269092695	-90.6903177601681	-0.2437027211084	-14.3153278087425	-0.291128244279742	-14.3365123610523	-16.2578632150285	-122.959881355542	
915600000	-15.437821516602	-89.4521439884731	-0.0550655454722296	-14.1112522372002	-0.107356847417252	-14.1366325062412	-15.6276581321098	-121.144691605597	
917300000	-15.0639193165326	-88.9803790231598	-0.24516981115616	-13.6208319823481	-0.258184124267131	-13.5123963188048	-17.032602997197	-119.123694145816	
919000000	-15.2659531494076	-89.9622609633384	-0.247196189198443	-14.4980431871456	-0.298002008112634	-14.4126564277901	-16.1304950687791	-123.284604937719	
920700000	-15.227530943216	-88.6615348373685	-0.336091693373259	-14.6095083325229	-0.334183469147994	-14.7046528603406	-15.9781231236215	-125.661465473421	
922400000	-15.3005442882503	-88.0548926813079	-0.15737693258131	-14.8618904733139	-0.242131293338347	-14.4965506739622	-15.7962445550918	-123.651659935691	
924100000	-15.0950265994128	-91.9297658831222	-0.134077185646126	-13.3851778599629	-0.144707603815723	-13.3307251812835	-16.430955330913	-117.68375731942	
925800000	-15.5172423453611	-89.8395164597888	-0.253377147491358	-13.8590981220289	-0.263106289808499	-13.6895523235009	-15.7403382145915	-124.4074212647	
927500000	-15.6708734366999	-89.7996856007402	-0.214396581570099	-13.6487031896239	-0.198776395921236	-13.7156393224558	-15.781395125732	-120.86656565043	
929200000	-15.4273677055854	-91.7953316947697	-0.221631627041672	-13.9119294418148	-0.21211565872167	-13.654884207889	-16.0848497499897	-120.35985983861	
930900000	-15.1140501171236	-88.9940455089276	-0.152721621976941	-14.1225086170359	-0.159554584296	-14.2496560375633	-16.1331915130809	-123.520968082469	
932600000	-15.1066321381402	-89.5681628856495	-0.317342045836981	-14.3429019166562	-0.315301706300134	-14.3494593216845	-16.3605676915376	-124.71751503989	
934300000	-15.1029235629514	-88.223360665696	-0.165981811732781	-14.1179748154479	-0.178923736969225	-13.8667698090892	-16.0344050874414	-122.557805926302	
936000000	-15.4403314775855	-90.8164386486794	-0.239393522731019	-13.8644958561281	-0.187110089005147	-13.7970811410037	-16.2387324670833	-118.478281205131	
937700000	-15.0706347853264	-83.3113689585463	-0.261888144397571	-14.1625571279029	-0.298916279558064	-14.271867476943	-16.3091042864829	-128.368883124554	
939400000	-15.6393985556065	-92.3047761986139	-0.204578161026783	-13.6839557512278	-0.23379381445549	-13.4223841003512	-15.830910646831	-119.446190688943	
941100000	-15.532355347864	-91.6464950148977	-0.189054391742107	-13.1971128658341	-0.181453435566664	-13.0610463151769	-15.7112644739745	-118.01017763087	
942800000	-15.3921752760646	-88.5593144093719	-0.316424995323279	-13.3583320247764	-0.293075696884266	-13.3746780289332	-16.7503911246714	-119.249400118835	
944500000	-15.5051409692859	-86.2005726440818	-0.235132619898607	-13.8587438368618	-0.287872088072315	-13.6452909740294	-15.971661786758	-124.389408369106	
946200000	-15.0991357142807	-85.8961531585231	-0.22144111785523	-14.0668843017226	-0.213311730106944	-14.2872275557619	-16.2338149788629	-125.93818834701	
947900000	-15.6039484261486	-92.1843265135751	-0.235125082584581	-13.3311518647068	-0.273843625270776	-13.2564868941166	-15.8007448881426	-119.723747336345	
949600000	-15.1042669269647	-93.5499253456089	-0.250982613733685	-12.9631476891071	-0.273828455083672	-13.1646735990701	-16.445903888527	-116.810791481338	
951300000	-15.0953250507663	-91.022808307369	-0.265585016280117	-13.1216236524392	-0.224041450152741	-13.2318972674214	-16.2913496271191	-121.167534087968	
953000000	-15.5600831719941	-92.7396316915659	-0.323198557989981	-12.7773590375751	-0.321747096434901	-12.8817389895272	-16.4374316125733	-116.128470832586	
954700000	-14.974187288085	-90.5602703854064	-0.277891702616398	-13.1066483290602	-0.295281026855559	-13.1698238589788	-17.0281137553453	-119.946664777765	
956400000	-15.5266874214248	-91.9082291182189	-0.282720467333133	-13.6061291364021	-0.269774792793557	-13.8777609687554	-16.1274642958469	-121.729132708656	
958100000	-15.5072966624949	-94.9130966192025	-0.157570718769672	-13.1802807250551	-0.167994283907393	-12.8876805344138	-15.8920515485131	-118.259015047866	
959800000	-15.2728550844724	-90.3493725039279	-0.180273162784711	-13.5556863504275	-0.201688377016692	-13.2580452134159	-15.8650089241567	-123.207030433623	
961500000	-15.5559603678884	-90.0551585078262	-0.184404521393522	-12.8781531226167	-0.223973525137461	-12.9757314574067	-15.7732645468005	-119.000575019526	
963200000	-15.6433303252143	-88.7717455225752	-0.176711701503905	-12.9551382189116	-0.172380108964669	-12.9517583047256	-15.9217523310443	-118.832675999445	
964900000	-15.347512939343	-93.0272526514705	-0.266196537445411	-12.7103678988327	-0.265324271217484	-12.7324755771369	-15.7102630913389	-116.821714644005	
966600000	-15.3442981016639	-93.0633570489272	-0.187644990192847	-12.8134479170013	-0.211759668473518	-12.565808771002	-15.8986237380898	-114.917824948603	
968300000	-15.2752372749999	-94.1298527761469	-0.243223194641553	-12.8132871912704	-0.269795080315911	-12.5617649574567	-15.8634596584847	-113.186502182311	
970000000	-15.7890696948802	-90.7541911940403	-0.157242384081862	-12.5289313096901	-0.174336882711459	-12.3753713795132	-15.3336517558869	-118.434315297252	
971700000	-15.1620551312681	-88.9620109949769	-0.139970042133604	-13.2084880575354	-0.180216766609506	-13.1687238150678	-16.1633049840183	-118.329121785864	
973400000	-16.1254419606929	-91.2903195192528	-0.277946748690956	-12.9629162481577	-0.222039737825728	-13.0038358739171	-15.4306891735542	-118.596162404842	
975100000	-16.0668284790199	-91.6858744419488	-0.175911157133152	-12.7758554154676	-0.156006881462892	-12.5845598817357	-15.2187666447171	-116.92467762379	
976800000	-15.4995177246332	-92.2819937555082	-0.159473949921384	-11.9548287981176	-0.192285351976287	-11.9916972786208	-15.8950751462304	-115.202846249115	
978500000	-15.4651807295442	-88.6118402088482	-0.23019753205457	-12.8347449169153	-0.232381314574502	-12.9585842711761	-16.1700006656297	-120.964365028493	
980200000	-15.7222236278402	-88.5473972566752	-0.160659545718428	-12.4515103932852	-0.144959915916501	-12.1311921794691	-15.4976382198449	-120.084927773544	
981900000	-15.8030626995893	-91.4133973709867	-0.122244505539838	-12.1198189652686	-0.124877726141488	-12.5090266128273	-15.4863686377835	-115.592553408621	
983600000	-15.8159409689336	-92.8148740423121	-0.123273338409151	-12.5335850473579	-0.0833422064749105	-12.214416237354	-15.6261045159892	-115.677131326781	
985300000	-15.3241077320835	-92.3652590456915	-0.14956424999667	-11.9261573546214	-0.220357430357661	-12.0620810122577	-15.8872124548685	-112.258620723209	
987000000	-15.1435567058213	-88.5196469343032	-0.220257722395282	-12.6921472273363	-0.257837216583057	-12.620451776664	-16.4746514209024	-119.504858370202	
988700000	-15.5007134272976	-89.3785676847626	-0.0645122315808931	-12.6258323864198	-0.0861387190095404	-12.5276119595308	-15.4506874868968	-118.463821348915	
990400000	-15.4809376694182	-93.0500079347694	-0.304027472919274	-12.1687730796527	-0.325085288457453	-11.9287894521363	-15.9452653876677	-114.470324153384	
992100000	-15.2129437747829	-94.13245963791	-0.276208406236472	-12.2260682428569	-0.267774820030141	-11.9941484923565	-16.4311957385391	-114.688263998673	
993800000	-14.97101628952	-89.4771041044825	-0.253393806381758	-12.6786873122538	-0.286502203344713	-12.5300485955476	-16.3776480461389	-119.706061662509	
995500000	-15.7084219194342	-90.6262596463745	-0.0812762080499896	-12.1009627571762	-0.105343036932065	-11.959024273296	-15.281123373851	-115.451952658394	
997200000	-15.8066580668982	-90.4147924816733	-0.172506921737831	-11.9882029946837	-0.173513635585707	-12.0180871012469	-15.5353472606865	-115.974024216274	
998900000	-15.8512683576703	-92.9905351456791	-0.144290491379833	-11.825819426239	-0.14123972205698	-11.7321030514969	-15.3570308555655	-113.7053912301	
1000600000	-15.0843895047806	-91.5901754356332	-0.253497037043106	-11.9391584464831	-0.347966917695759	-11.68825044004	-16.4331949458117	-116.414882449344	
1002300000	-15.7045082196953	-92.1201949741083	-0.194426373495704	-12.2407521367042	-0.220958707492294	-12.1498410822033	-15.4014792950293	-117.226882611413	
1004000000	-15.8188490492225	-92.4880856458871	-0.162809426012928	-11.9453500698046	-0.160833949858748	-11.9785049163435	-15.7498759701282	-116.09859749513	
1005700000	-15.6756194483459	-95.5672429858227	-0.132375743496949	-12.0665231794259	-0.122771936008688	-12.0278784249684	-15.8725044256006	-112.83776486666	
1007400000	-15.3723395097069	-93.7663057964449	-0.150237500244956	-11.8717694459885	-0.177616101302864	-11.8354654948105	-15.8549530103364	-114.780178377906	
1009100000	-15.3964317825586	-95.8969295947844	-0.270864643699346	-11.5297815950243	-0.276171438040885	-11.2975726098618	-16.5562293774403	-114.377798199429	
1010800000	-15.5270172700513	-94.0042775134661	-0.162852228890227	-11.3617556360989	-0.21060707225041	-11.4834852936072	-15.782539992681	-112.83065976089	
