!Keysight Technologies N9950B: A.12.38
!Date: Monday, 15 May 2023 15:28:31
!Timezone: (UTC-06:00) Central Time (US & Canada)
!Model: N9950B
!Serial: MY61131330
!GPS Latitude: 
!GPS Longitude: 
!GPS TimeStamp: 0001-01-01 00:00:00Z
!GPS Seconds Since Last Read: 0
!CHECKSUM:0508849907
!Correction: S11(ON U)S21(ON U)S12(ON U)S22(ON U)
!S2P File: Measurements:S11,S21,S12,S22:
# Hz S DB R 50
800000000	-15.5925536900013	-77.6108446047632	-0.15268592897797	-24.3078903049388	-0.155991687460504	-24.4182001801348	-15.5962005093763	-152.370270005588	
801700000	-15.5922468119831	-76.7630214679897	-0.131462384816544	-24.4106962506241	-0.141691104489326	-24.3589238736146	-15.7193865202746	-151.608046427702	
803400000	-15.5032685757231	-77.1813416837061	-0.137414535451555	-24.4582697018639	-0.143945916273573	-24.5133608296947	-15.574556292063	-152.362984645376	
805100000	-15.5469666667194	-77.1818598526575	-0.141451294159582	-24.3777746715078	-0.139803856112055	-24.5117654732894	-15.6016740807557	-152.046319175902	
806800000	-15.4888963473481	-76.3144735523024	-0.148943187183458	-24.5485539640422	-0.135274499841321	-24.4835558838874	-15.6416874461557	-152.100587315694	
808500000	-15.4103395162917	-76.8947125609908	-0.123601191101287	-24.6486620989695	-0.144694899221648	-24.6472703008237	-15.5038443929533	-152.526051874654	
810200000	-15.481962956979	-76.925121003993	-0.12913222337181	-24.6694814799353	-0.14641811025818	-24.5584609985278	-15.4491059430235	-152.476397294962	
811900000	-15.4908734601669	-77.3794791902733	-0.13805834392802	-24.6958923809372	-0.14133236300854	-24.7853822023608	-15.4358172654868	-153.068353148161	
813600000	-15.3775663402978	-77.1357186065009	-0.139332476658673	-24.7512532635887	-0.146407501109963	-24.7043263595188	-15.4648441057212	-152.51340313103	
815300000	-15.3639622070066	-76.9374919091063	-0.140134201306917	-24.9231350034886	-0.161317543991772	-24.7404252556588	-15.3449468928024	-152.428383989838	
817000000	-15.4554896319	-76.8460658754828	-0.157839788018188	-24.8406191018307	-0.14778689639502	-24.777708741888	-15.487404929277	-153.44566628408	
818700000	-15.435669066797	-76.8564650802209	-0.141886121585809	-24.9144901622922	-0.133019544209342	-24.7805230653354	-15.464408547598	-153.480885965903	
820400000	-15.4565468796205	-76.7107697535566	-0.142344623053395	-24.943019506263	-0.142515249927816	-24.9813716884798	-15.3868683697786	-153.437441972445	
822100000	-15.3730977097677	-77.0436999325984	-0.154754089667612	-24.9651610542961	-0.14646416839196	-24.9924607388661	-15.4795531260682	-154.417489568884	
823800000	-15.3981979642512	-76.5067824878628	-0.143741862816716	-24.9426145333511	-0.145518167698167	-25.0304014174882	-15.4562424352215	-154.054259198025	
825500000	-15.3294692059395	-76.6695253490358	-0.14333523907086	-25.1012663303047	-0.142660966348365	-25.1599699531755	-15.2925210747318	-154.736014020033	
827200000	-15.3682718548917	-76.8292581277014	-0.141584132215736	-25.1336644359626	-0.159557857292958	-25.1371802945733	-15.3051307956277	-153.957050349611	
828900000	-15.2626280276137	-76.7199777279655	-0.126823422128761	-25.1443513327536	-0.154445617648861	-25.2316135420467	-15.2958130984489	-154.085158803386	
830600000	-15.2479429557583	-77.3328719690952	-0.162024801744336	-25.2176977810347	-0.158326586475266	-25.2460590129829	-15.2875844593943	-154.461076487927	
832300000	-15.3211455876898	-76.513781250529	-0.147889398787009	-25.2332030330165	-0.152152100868129	-25.2902419320833	-15.3217987445473	-154.332814893302	
834000000	-15.1997440858985	-75.7248021817957	-0.1446598288517	-25.4588224600204	-0.144775452634749	-25.2965327343136	-15.2431118856675	-154.466120200443	
835700000	-15.302039060618	-76.2930687779074	-0.15487316725792	-25.3685481260145	-0.142125015051265	-25.3242609840812	-15.2857755556311	-154.788135704865	
837400000	-15.1426198911789	-76.3050470850924	-0.146071545567069	-25.4315689963971	-0.148551686803788	-25.4849332704839	-15.2306982073529	-154.821348490406	
839100000	-15.2923225025646	-76.1800166453381	-0.140804987150845	-25.4476837688825	-0.142115600658282	-25.479272278129	-15.2588543970395	-154.246645741565	
840800000	-15.2989256140199	-76.1274399266018	-0.161924936541067	-25.4147384222274	-0.145758499886785	-25.486933304242	-15.2231335005241	-155.572624231581	
842500000	-15.1741195183956	-75.7040114003019	-0.165149453262846	-25.512780646123	-0.155363090747415	-25.5842576682244	-15.1920117047859	-155.063966900034	
844200000	-15.1437118710991	-76.5426382936528	-0.153726866739565	-25.7527792236334	-0.149083784162046	-25.5563403266466	-15.203214320925	-155.517023900181	
845900000	-15.1340023216811	-76.2884889848242	-0.1493544119827	-25.7071028400277	-0.148157512292766	-25.6648118896209	-15.1861674992583	-155.765662903296	
847600000	-15.1080384099594	-76.55571116551	-0.149457296747481	-25.6119732865741	-0.16757583530006	-25.7282623397808	-15.162885447712	-155.699788102638	
849300000	-15.1285066424194	-75.8856830556573	-0.138059611867921	-25.715354318078	-0.151062576124345	-25.8754719572242	-15.1801759412683	-155.295880341612	
851000000	-15.0778447579337	-76.4339382314342	-0.136430196130168	-25.8394409954005	-0.154004815039488	-25.9211454223197	-15.0346057583365	-155.856747069055	
852700000	-15.1626794751769	-76.2787963469743	-0.153165460080966	-25.8538115576514	-0.147196192049678	-25.9674164867727	-15.1282178991058	-155.096160226081	
854400000	-15.058073841634	-76.011657102627	-0.161158140714999	-25.8916508879811	-0.166570546405698	-26.0376939593572	-15.0869624410882	-155.823605086061	
856100000	-14.9884402585861	-75.7685382810428	-0.151606489242622	-25.9268148844177	-0.153840388894511	-25.9385769683189	-15.0678472119318	-156.316210218358	
857800000	-15.0305231853773	-75.9464211362941	-0.164118303785406	-25.9552042878458	-0.14959874550177	-26.0088142973653	-15.1386945456542	-156.622011085358	
859500000	-15.023296074889	-76.7139792591004	-0.158592415570345	-26.1175027253231	-0.153683356737548	-26.1505831974934	-15.0412878607535	-156.791621331795	
861200000	-15.0126215422193	-76.4840325914214	-0.148526598127464	-26.2240306001367	-0.163526839076118	-26.2456998634295	-14.9052029719598	-157.030228614035	
862900000	-14.9864676166935	-76.5804103985383	-0.157350375722004	-26.2208095733936	-0.154057728446923	-26.1778880585285	-15.1001558540593	-156.638200772691	
864600000	-15.0151227205914	-75.9884699438032	-0.168718847500857	-26.2179379931091	-0.173162403454594	-26.2241541975212	-14.9928160698065	-157.014959947579	
866300000	-14.9286691604499	-76.5450724544033	-0.157264313148861	-26.2790431828257	-0.155289131059054	-26.3443183105614	-15.0244893988145	-156.4410105256	
868000000	-14.8938444439437	-76.1640546520588	-0.181371858345489	-26.3344666808873	-0.183935046851767	-26.3714208386473	-15.0016669562694	-156.992979903156	
869700000	-14.946660405631	-76.1444242497745	-0.164759322371711	-26.3755761443974	-0.165013532941235	-26.3762588563511	-14.8884823199947	-157.490592129172	
871400000	-14.8444941283408	-75.6107192743716	-0.152087621796117	-26.4787420148186	-0.143823806950353	-26.3856378164459	-14.9257597646064	-156.48546972469	
873100000	-14.8376231042305	-76.2085019852765	-0.158058987701649	-26.4754671269789	-0.152446093999479	-26.5027998826934	-14.8788461988897	-157.660239889179	
874800000	-14.9631127375106	-75.0270501062802	-0.159988568112208	-26.6839705464726	-0.15505124325143	-26.4238712351833	-14.9902515515474	-157.598422075008	
876500000	-14.7926488629984	-75.9706480566314	-0.158349043071746	-26.5822136110995	-0.174005487699036	-26.6140364810524	-14.7862885436719	-157.984170646842	
878200000	-14.8566005924962	-76.3922122888514	-0.158267489092498	-26.6439586429156	-0.163333373166657	-26.6591544188708	-14.9063104810683	-157.944163200812	
879900000	-14.8316268773685	-75.6489480089203	-0.173832049083081	-26.6746313848434	-0.155301804234208	-26.6299981500283	-14.909675877916	-158.301309295087	
881600000	-14.8110094652337	-75.9547166035526	-0.160098775468255	-26.7778675037631	-0.162613408182134	-26.681095206208	-14.8811964399218	-158.23608019622	
883300000	-14.8047690121608	-75.2969254098004	-0.149947585830695	-26.818345457532	-0.155474615764803	-26.7351848053668	-14.8913537726203	-158.31557658391	
885000000	-14.8037785250123	-75.7091646447643	-0.167159412268144	-26.7998851290055	-0.160895124542234	-26.8804283143934	-14.8169550712247	-158.373082258782	
886700000	-14.8248867150755	-75.7510850136962	-0.168721718831419	-26.9648860750411	-0.16485814949906	-26.884631394367	-14.7213487080194	-158.425849711934	
888400000	-14.6740843806969	-75.8930092246714	-0.177626549844657	-26.9016653335492	-0.169336132441597	-26.889608297704	-14.7910477843968	-158.40461959293	
890100000	-14.7559169282986	-75.9351693055678	-0.181604702411367	-27.0272053593381	-0.166878759173276	-27.0402623115911	-14.7696826019111	-158.909661867225	
891800000	-14.7665275914914	-75.8970660412379	-0.167879370482366	-26.8661120910386	-0.172181875051121	-27.1745302124756	-14.6772904929322	-158.400526982908	
893500000	-14.7244340379107	-75.2785399855279	-0.181746880035989	-27.0821564317335	-0.162568801004686	-27.0981545297148	-14.7659572296072	-158.811923998179	
895200000	-14.7554457270921	-75.4011677157222	-0.180914051704485	-27.1094930251907	-0.168208301818334	-27.1676424206223	-14.8991331300895	-159.365876288891	
896900000	-14.6839223994763	-75.4063200064148	-0.183281855222537	-27.1722538563702	-0.169180256307914	-27.2062377850473	-14.7155502889376	-159.008732363588	
898600000	-14.6217089622224	-75.5286917117241	-0.170422236518479	-27.2787137679351	-0.161138893368777	-27.244996637038	-14.7324072488867	-159.657011689631	
900300000	-14.7774317071571	-75.3010786190398	-0.163447518275108	-27.3121573309079	-0.155215803800113	-27.2740685878448	-14.740290641064	-159.916803048965	
902000000	-14.6532843929938	-75.3005931849092	-0.170013589068185	-27.3649550043154	-0.191312225598256	-27.3712303292428	-14.6864691637354	-159.139650579691	
903700000	-14.6280470177507	-75.0447326755256	-0.17040288228577	-27.3778621522725	-0.169680392522201	-27.4802947375203	-14.6223055772292	-159.818268075454	
905400000	-14.5327301661775	-75.3922900785422	-0.183526598136797	-27.5031245615676	-0.165817466094932	-27.3972775125895	-14.6309641122341	-159.95037501928	
907100000	-14.6470266314554	-75.3361155329054	-0.172449684217492	-27.5100204978945	-0.171822857429525	-27.5164734816491	-14.6075435877686	-160.095611310578	
908800000	-14.6901470288662	-74.9852125497249	-0.18319031648468	-27.530265605214	-0.169765487837223	-27.537542665278	-14.6539404004941	-160.293095643042	
910500000	-14.5794511344056	-75.1538357378078	-0.169178679732209	-27.6259385375241	-0.170309540229314	-27.5969628349773	-14.5812996460544	-160.033947652839	
912200000	-14.6109686846958	-75.1566978175728	-0.166596131415837	-27.602115828841	-0.181030925986584	-27.6157403976608	-14.6248876008762	-160.253996192149	
913900000	-14.5640662160678	-75.2874090774268	-0.168071715901729	-27.6553693697495	-0.170829070031807	-27.7351964945632	-14.6340115088164	-160.120826679757	
915600000	-14.4368846607074	-75.0983579481454	-0.173045075433275	-27.7746169910819	-0.172145110158668	-27.8480251446224	-14.4540389182542	-160.28105971933	
917300000	-14.570503774787	-75.2443105890918	-0.184974934896473	-27.7628248334106	-0.169081146911946	-27.8284811792486	-14.6483585609637	-160.547387033973	
919000000	-14.4891976923857	-75.181938231827	-0.171922354557985	-27.7836219235927	-0.178093362762755	-27.8359554563078	-14.5254576203605	-160.937606392479	
920700000	-14.472781915662	-75.5303837267026	-0.176236997846464	-27.9704058736115	-0.178606377536048	-27.9344228961223	-14.5197923633509	-161.233905588132	
922400000	-14.4482965520486	-74.9702768219825	-0.175018286655327	-27.9909505546231	-0.177232556381409	-27.959068202505	-14.4271466239061	-161.168008342919	
924100000	-14.4327524904104	-74.8285205889774	-0.177421179575419	-27.9349197278565	-0.171133225835941	-28.068289335584	-14.5345494299651	-161.017922760813	
925800000	-14.4553534595925	-74.7706462996709	-0.173604127214706	-28.1637333029795	-0.179310410719621	-28.0329487773994	-14.4492531787905	-161.45741603055	
927500000	-14.3969142474295	-74.8200651461387	-0.180347562556223	-28.1100916508653	-0.186021645914007	-28.122349476757	-14.4221351641686	-162.154559681107	
929200000	-14.3379179287202	-74.7580076518969	-0.189210907407874	-28.0998463327296	-0.187852517859411	-28.1200570335499	-14.4486003239766	-161.358721074814	
930900000	-14.4022440425321	-74.8016010536679	-0.191263296974673	-28.1875592731025	-0.175401132025876	-28.1863248703677	-14.4313557703478	-162.063205168774	
932600000	-14.3246166126183	-74.9404617780006	-0.170718509655469	-28.3123791345183	-0.178596119424235	-28.3995201058349	-14.3513547968191	-161.875927114868	
934300000	-14.3853006788971	-74.3436403166319	-0.173167610295383	-28.237040095631	-0.180647865035525	-28.2843107765035	-14.5364083818434	-161.999085390095	
936000000	-14.3309093015274	-74.6912608552504	-0.176187717876169	-28.362084612082	-0.17721133155935	-28.2976267902237	-14.4623618616485	-162.142104380963	
937700000	-14.354524344626	-75.2596382412889	-0.188075370708772	-28.4572402480006	-0.193522112194418	-28.5150688786187	-14.3896644502738	-162.049402548309	
939400000	-14.3013048462692	-74.9260099909233	-0.185418215088306	-28.5615417137461	-0.18627025486485	-28.4125752455738	-14.3438365318793	-162.103804192532	
941100000	-14.3137697476436	-74.2875110922269	-0.185893149958333	-28.6004348817914	-0.184135397466912	-28.528702284343	-14.4342323296994	-162.401301688081	
942800000	-14.2955216860514	-74.9339982917448	-0.188532624988315	-28.6428783298383	-0.168617919349374	-28.5204054517872	-14.392170705248	-162.881660177009	
944500000	-14.2896524054421	-74.8255741874671	-0.186870373691342	-28.7248751296367	-0.187556758990189	-28.5342452730526	-14.3642881084434	-163.338860796136	
946200000	-14.2695223308477	-74.6539881586657	-0.173047054287223	-28.6316201303112	-0.193600478748998	-28.5856845231342	-14.320347664658	-162.768644476535	
947900000	-14.286503034622	-74.4499787113395	-0.188313073172288	-28.6835840739564	-0.167597527379044	-28.7533185442274	-14.3441042396363	-162.878424119183	
949600000	-14.2218833672349	-74.7609708366958	-0.197196558715779	-28.7673239952945	-0.180954724639387	-28.7375182453895	-14.2794532204417	-163.150194484411	
951300000	-14.2778172637896	-74.2835217215426	-0.184047400658049	-28.8143371419446	-0.182965011083393	-28.7092765436265	-14.3434654381964	-163.11376813034	
953000000	-14.1934709551817	-74.5697811482883	-0.181869478478193	-28.869790381531	-0.180381509344601	-28.8155000974375	-14.2903712933436	-163.420378888177	
954700000	-14.2185383662911	-74.3829983141768	-0.187318537005905	-28.8454623261995	-0.186099945121382	-28.912150746295	-14.2718089167771	-163.609176600332	
956400000	-14.2215291053596	-74.0672224605248	-0.189205919015535	-28.9441623342772	-0.184423795707142	-28.9205492377123	-14.314097067504	-164.232598438833	
958100000	-14.1843852090477	-74.2220017456119	-0.173572423986859	-28.9582617172456	-0.1881425589101	-29.0148440020804	-14.1738355752046	-163.741281748783	
959800000	-14.1883401091686	-74.5690662280798	-0.193731379906485	-29.0849568169904	-0.192824248852774	-29.1241263889766	-14.2449913006353	-164.179297955069	
961500000	-14.0466839240581	-74.0708216370562	-0.179548089385195	-29.1281909378604	-0.184693895076717	-29.0760567979263	-14.2559950429225	-163.822227098923	
963200000	-14.1450869144686	-74.9211970009835	-0.205606524806978	-29.0903153903793	-0.197178800645448	-29.1174719334334	-14.2195215799489	-164.436136968307	
964900000	-14.0713874451351	-74.4916610662188	-0.190072466914868	-29.1793397276144	-0.187418483525256	-29.2770433839718	-14.0871959706347	-164.194077471557	
966600000	-14.2030507232226	-74.2367867593356	-0.205028201977524	-29.2292109084179	-0.189302712332592	-29.1825700768279	-14.169296090941	-164.749601465235	
968300000	-14.1527060369682	-74.3678596911266	-0.195744133860431	-29.2754369624675	-0.192781627349861	-29.3379118272061	-14.1762678407394	-164.802460291119	
970000000	-14.0932860941617	-73.8764448324732	-0.189823310806744	-29.3642609924629	-0.195604585879959	-29.3290391243553	-14.1688104049026	-164.937692098756	
971700000	-14.1217516862175	-74.2200400539564	-0.188647287567201	-29.3209125854731	-0.198968114514092	-29.4344218998031	-14.1248214987664	-164.859857556882	
973400000	-14.0581131927012	-74.2130309660223	-0.196119532729143	-29.4948069242652	-0.184473625522035	-29.5118268556283	-14.1097476809633	-165.284273524546	
975100000	-13.9785862000619	-74.5664265908859	-0.203786584019715	-29.391922685406	-0.198193100622921	-29.595209725713	-14.125677918472	-165.205746696776	
976800000	-13.9975063589982	-73.8708953034531	-0.187886020596518	-29.5194676105697	-0.207469772213514	-29.5279365941013	-14.0454355907783	-165.009634192655	
978500000	-13.9584166715906	-73.8721138163838	-0.184999579765543	-29.5536808793407	-0.198148678796625	-29.5566056832947	-14.0510711998302	-165.897544884668	
980200000	-14.0811143177079	-74.9324785400687	-0.215619572907551	-29.664656514681	-0.21641812211255	-29.7529057854338	-14.0832149253708	-166.711776503458	
981900000	-13.9360388796612	-73.8252784828805	-0.208153507992258	-29.7495809416379	-0.182884976513127	-29.6688232145605	-13.9891943151613	-165.705304429449	
983600000	-13.9140574720848	-74.1485283049829	-0.200865089312436	-29.8215316040381	-0.200442620723129	-29.8341213041515	-14.0315462315032	-166.271446519003	
985300000	-13.905810645826	-73.732285908908	-0.199128503873478	-29.7510611614865	-0.196158746415291	-29.8138068779446	-14.0366075882394	-166.066708269487	
987000000	-13.9139153222639	-73.2557754819526	-0.187343989461008	-29.8706748152451	-0.202709592674144	-29.8726425086687	-13.9660408213172	-165.857686974079	
988700000	-13.9374070811866	-73.8912097783138	-0.195984652106657	-29.9145975289258	-0.20386784471723	-29.9135583137624	-13.975810390663	-166.438574354673	
990400000	-13.9316425794457	-74.4671095219538	-0.199269251741855	-29.9675915483127	-0.198097448799229	-29.9884347298003	-13.946680527584	-166.483804558319	
992100000	-13.8548351082868	-73.0994462027156	-0.195385072451654	-29.9992346569146	-0.20594610407311	-30.0882642537382	-13.9728785753274	-166.369034031103	
993800000	-13.7696160280028	-73.523141638706	-0.200063109313714	-29.9572447786041	-0.204161163976476	-29.9694364986386	-13.8831588269885	-166.9184966544	
995500000	-13.9181849752923	-73.357978491289	-0.212785266328805	-29.97854989186	-0.208585381966024	-30.1146456994097	-13.8860834605939	-166.776030593719	
997200000	-13.8761187571203	-73.3616776368107	-0.191834099092699	-30.1361480214575	-0.185861746927163	-30.1339888236902	-13.9306582779097	-166.53398962235	
998900000	-13.8950601917063	-73.5839760877662	-0.197593899886355	-30.1493392109811	-0.203229202072527	-30.2298644738571	-13.8556222016129	-167.7010580067	
1000600000	-13.7848552647677	-72.8794826228745	-0.20468289702213	-30.2724899393362	-0.202970956984105	-30.2317294410853	-13.8426218855693	-166.616295096768	
1002300000	-13.7994968658378	-74.2237896241749	-0.210941212158414	-30.2512248208921	-0.20821470760291	-30.2704013214391	-13.8497280464586	-167.095745640308	
1004000000	-13.8135190883211	-73.2112352310773	-0.200700271710419	-30.2358932697434	-0.196152260122317	-30.3280984188696	-13.8567917327807	-167.320191314756	
1005700000	-13.8195520682709	-73.0850500010515	-0.198968526518786	-30.3889413150192	-0.199028406435478	-30.4165580619166	-13.8658867875859	-167.266675232349	
1007400000	-13.7857168464741	-73.5885931108216	-0.202295285092704	-30.3792346067485	-0.206068234491661	-30.5068955973863	-13.9120823324596	-167.961558872241	
1009100000	-13.7680296602896	-73.3151218639562	-0.201513876986781	-30.4947812250822	-0.208835262666192	-30.5267911791064	-13.7968996376479	-168.127217220825	
1010800000	-13.8109203086637	-73.4708946661272	-0.219336868490905	-30.5280050939462	-0.198823347827066	-30.5326720758807	-13.8484272363524	-167.549012104294	
