!Keysight Technologies N9950B: A.12.38
!Date: Monday, 15 May 2023 15:26:47
!Timezone: (UTC-06:00) Central Time (US & Canada)
!Model: N9950B
!Serial: MY61131330
!GPS Latitude: 
!GPS Longitude: 
!GPS TimeStamp: 0001-01-01 00:00:00Z
!GPS Seconds Since Last Read: 0
!CHECKSUM:0504934373
!Correction: S11(ON U)S21(ON U)S12(ON U)S22(ON U)
!S2P File: Measurements:S11,S21,S12,S22:
# Hz S DB R 50
800000000	-71.7831477378077	-88.8060896220543	-0.0105360528491796	-14.5063352973402	-0.00794999874407648	-14.7111666007731	-65.3603966721267	98.2160997072564	
801700000	-57.0494040079674	66.0591478505143	-0.00153565729360562	-14.5835707659273	0.00201059379422397	-14.5626023982982	-51.207951945751	-7.52886504790443	
803400000	-60.4581664500697	-38.614266224581	0.00555569035241668	-14.5838491949839	-0.00427804829478356	-14.6748843419987	-65.9045975056857	45.9138012284429	
805100000	-62.9852886768514	22.2990539711141	-0.00733116592410669	-14.6646808737101	-0.00633284843165022	-14.6668540554052	-55.0082866057914	7.63559765736964	
806800000	-52.1137688228696	18.5482027963182	-0.0153740077892585	-14.6613199747168	-0.00069153518429754	-14.6555522619813	-54.0653442138561	11.9782732070502	
808500000	-55.2351627000303	-9.36301543510382	0.00612598887422321	-14.7134922592375	-0.000268171734091935	-14.7926807232724	-61.9283803089017	-9.23003773705971	
810200000	-59.7972982651172	46.6344659587127	0.000870411582715194	-14.7629072846965	-0.0065599885295529	-14.7209296113397	-60.2540495341126	-103.642794248949	
811900000	-60.7024164745884	124.398861728576	0.00722183526505408	-14.7404357267725	-0.00255135064537574	-14.7994825021105	-62.7069587227592	-167.830289928203	
813600000	-60.6686366258592	-52.7252874736078	0.00445140077844177	-14.7817864530273	-0.00327780390002783	-14.7642630395594	-56.9225569451367	-36.7954660347963	
815300000	-60.7401658667125	-34.4433858386811	-0.0119033932133975	-14.9533786390662	-0.0137635566365167	-14.8416599606563	-50.8810528067568	-92.681844078052	
817000000	-59.0447339951735	27.7581983642443	-0.0217096082622272	-14.7884669536947	-0.00279461739601472	-14.953437308511	-56.7043073419411	46.6286970847629	
818700000	-59.4034473946781	72.9549509522553	0.00243165576713987	-14.8919368282342	-0.00200076792396437	-14.9074551399312	-58.1015088614668	33.032675713124	
820400000	-54.3060801874125	78.1342220670875	-0.00830986345033155	-14.905313258203	0.00282419272717166	-14.987693336756	-62.3446757196173	-62.373415332818	
822100000	-69.5035942609137	53.4480399305315	0.00136231588239704	-14.9489690075429	-0.00911184989907337	-14.9860429200671	-52.3710121225881	81.0253163280917	
823800000	-54.7090922518536	61.0372033088146	-0.00240460383410319	-14.9931409364882	0.0044660724329835	-14.9613694748361	-59.2076514370341	44.6003802950814	
825500000	-57.2680792262752	57.6316849531264	-0.00554276030452657	-15.0732181551814	-0.00214625820056263	-15.1119474350829	-53.7556142367366	151.854867821803	
827200000	-58.5322541129219	95.259899218841	-0.000397209471738722	-15.0179481233684	-0.0178027909735757	-15.0681340019424	-62.1571907065601	-91.2134196482836	
828900000	-59.5450890688261	8.49307772368603	0.010347601622466	-15.070925055847	-0.00757283051605336	-15.1594909907312	-69.8116235132038	-92.65825709343	
830600000	-55.8591412063999	-99.0887191227655	-0.00895096431944477	-15.0818075883853	-0.00846736679159889	-15.1539474511472	-69.2205179162189	127.980526931649	
832300000	-55.3953548598366	91.0855441270286	0.0085187731431212	-15.1017069161923	-0.0153950781013211	-15.1687317293044	-66.4885926675436	-18.8271919343976	
834000000	-50.5920974972809	20.6116908584256	-0.00176533942029228	-15.2308173637282	-0.00117820742730947	-15.1391545902357	-60.7631641244224	-117.85306325375	
835700000	-56.6803680557571	85.039985071615	-0.0003642628842806	-15.1675184714756	-0.00893194631745445	-15.2693095466328	-71.5581926622094	-10.4820831097001	
837400000	-56.8484724672615	3.21152795225837	-0.00208720009714352	-15.1807597203201	-0.00432107369762361	-15.1606435340726	-76.4366960691812	56.5266350243613	
839100000	-51.9072246589893	77.472462862394	0.00545910853411194	-15.2426311965878	0.00129827566709066	-15.2639559213584	-52.6793858761207	-50.7671904016252	
840800000	-52.4347639972586	76.4453124990555	0.000666674145696851	-15.2607613182634	-0.0137317928664663	-15.3207592502119	-57.1763071707104	94.8198424053396	
842500000	-51.9407528954024	24.9171381511839	-0.0180096700030525	-15.3302143129336	-0.018837966880624	-15.3012801400701	-70.0724369568685	-58.7797847253116	
844200000	-66.1791124870014	53.9168541250413	0.00597074053408907	-15.4593130814689	0.00248311366875398	-15.3472138982693	-58.1996439475475	90.5136056208116	
845900000	-57.6503054772915	32.2224979575837	-0.00203584517608215	-15.4220389348421	-0.00100716420154414	-15.4082856903519	-56.106694205173	66.4444024722404	
847600000	-63.7033398496944	-98.4079547400774	0.00103456489610841	-15.3542145872734	-0.0162024273333939	-15.408224616707	-62.1385040076622	31.0716975889552	
849300000	-55.2985703150277	61.4690959995982	-0.0179127070671164	-15.364821068192	-0.00923249487871631	-15.4888533390958	-54.7546244162271	-10.6309553091347	
851000000	-59.427649034197	80.9866385874366	0.00485926363052132	-15.4860869734319	0.00415454477679182	-15.5327978112619	-58.1030154850661	-120.547639842062	
852700000	-57.4437855095846	115.107501096667	-0.013298641921173	-15.6073084377574	-0.0130905329597581	-15.5989607182614	-49.8653898841558	-48.3189551583753	
854400000	-57.6880544933145	39.8219754991043	-0.0168299625321942	-15.5450058752727	-0.0108180494150736	-15.5901888761154	-56.4351069256197	-56.0099219167519	
856100000	-55.3374299533375	6.58377327447245	-0.00115304948029736	-15.5508721069117	-0.00766085494499254	-15.5504344440325	-64.3661156255511	21.3335350467947	
857800000	-56.9657240833104	34.875312353559	-0.0219598639675787	-15.5922737698894	-0.0130752357257452	-15.5986993016276	-55.4903281774505	51.8132727672123	
859500000	-60.0838503436609	174.039474868751	0.0071795229889911	-15.6927363908474	0.00437771374073159	-15.7230854956643	-59.0599512033823	33.7753828833067	
861200000	-63.1810739036644	124.23087858889	-0.00331527332251288	-15.7386022982709	-0.00300191289561016	-15.7876370464964	-53.7857599392162	-179.122196266905	
862900000	-72.6923344643018	32.0043120818549	0.000957145005438411	-15.7414573223324	-0.0105344009688505	-15.7119186565104	-50.560533068277	28.6871470744216	
864600000	-59.4569634440896	46.7194310194631	-0.0115046114470076	-15.7871984082679	-0.0148433738488236	-15.690227869144	-77.9589796810562	-162.810122216882	
866300000	-62.0802381054681	-99.7322260926358	-0.00037211242343468	-15.8103112727764	0.0176944141546695	-15.7928412408188	-52.4931873152513	-22.2648742961985	
868000000	-61.8077253443641	-9.47749139257002	-0.0164439176459338	-15.845352280326	-0.0296647820247672	-15.7637440417811	-59.8015583467367	-22.0063977591162	
869700000	-65.4773436436464	111.470919708863	-0.00594093144784352	-15.936424319984	0.0011983195769884	-15.8521512421958	-58.7677893474875	-149.976711015649	
871400000	-56.3836684487684	-1.24480586046328	0.0126338121927053	-15.9051134834034	-0.00192020214245273	-15.7716900789422	-50.1685091915896	-32.3837408762165	
873100000	-63.2462432069964	-13.4698607524339	-0.0128625600958364	-15.9065673372609	-0.00742559125380448	-15.85528111668	-68.6783225371721	170.435922964366	
874800000	-48.5206018817956	62.3436688399131	-0.00235419969223243	-15.9563299803469	-0.000387477521468344	-15.8091284627835	-58.2321505585224	34.9567588599433	
876500000	-58.1246419109809	3.55381788034591	0.000466070478195662	-15.8875537118215	-0.0148557123902442	-15.8576571272303	-56.6554612449328	-170.375830360841	
878200000	-68.208349723391	165.411948962805	-0.0032523556982605	-16.0447080286968	0.000939767405399715	-15.9499495479094	-59.1248186791288	2.29286972362959	
879900000	-61.5643183244129	33.0245898674649	-0.00797724276802958	-16.1136928416803	0.00247228311781526	-15.962808833255	-54.1987589816537	63.3852066375518	
881600000	-66.5736202137077	47.3426813595268	0.00473589978685196	-16.1083727732361	0.00104250261411062	-15.9939410891928	-60.071836740773	18.3432695596844	
883300000	-52.3050770076056	37.2511003111832	0.00365190138207519	-16.0362389970507	0.00157295437606961	-16.1083384036263	-55.0947236832424	20.1403515318176	
885000000	-61.2791968299152	54.2619304889511	-0.00523775948886364	-15.9964384423817	-0.00884642109047011	-16.150806813849	-59.7167004930809	13.8424578537667	
886700000	-53.4459377125315	82.6561800058404	-0.00453435063967437	-16.1774257216593	-0.000495401431939963	-16.2232470678594	-58.2473847986282	-116.33112519299	
888400000	-59.2583451784143	-37.5544169889045	0.00400960013010672	-16.1381054548129	-0.00812584304650843	-16.1248436972269	-60.9807525151702	-11.3646228348541	
890100000	-67.0121794534224	24.4367448154674	0.000601409265508504	-16.1924696857487	-0.0138915710223051	-16.2316713956479	-61.8416107929234	1.10478562873919	
891800000	-59.6087374843746	137.914176521632	-0.00856098406593126	-16.1566161293446	-0.00741835365221176	-16.3295664254298	-54.4277888637809	-77.7991547361864	
893500000	-55.6212281061477	42.8928372094987	-0.0175401048916389	-16.2226748451399	-0.00646394915222616	-16.2548588316985	-58.2303041238973	-31.8061052851858	
895200000	-57.7389913766037	56.8933097884663	-0.0246609115350756	-16.3014871936838	0.00694181590702273	-16.3527199674341	-50.2729037692649	36.7610781073703	
896900000	-63.4163293261672	52.3377208837252	-0.0119282191149286	-16.363038890304	-0.014520777332339	-16.364615149949	-64.5882256935013	-24.5263730566058	
898600000	-57.6462956332892	9.13369271188281	0.00662746059070135	-16.3618432500065	0.00306401139080315	-16.371648666157	-56.8490561556969	71.2270215655527	
900300000	-50.2098143616813	101.126875810487	-0.00905203185726348	-16.4526862682957	-0.004513080866213	-16.3565305946912	-54.6749956869236	54.7822154748497	
902000000	-60.0101480146186	44.1708721245131	-0.000155665938766628	-16.4722591994233	-0.0206428879160305	-16.5231646096021	-51.8359648473769	-34.0770346736786	
903700000	-52.3856515555813	48.6317683805713	-0.00468528091479438	-16.3526422395594	-0.00513596445612781	-16.5096057458976	-64.4488452340596	-98.8716281417005	
905400000	-55.2159067807563	-16.2679245392386	-0.010019365645328	-16.4287351439179	-0.00577518630687118	-16.5054552863418	-59.076134250502	76.9508338475216	
907100000	-55.804111525091	79.9158212353199	-0.00222074846458153	-16.5318962643869	-0.00404388158905067	-16.5004025647257	-68.7815169426884	-78.6132753965544	
908800000	-50.4998738227739	80.5508970387229	-0.00731249063244033	-16.5497308637839	0.0045695153008143	-16.5219733602596	-59.7597708610672	26.5429243506117	
910500000	-55.9294539316669	66.8957511133927	-0.00676388105037886	-16.6123128909704	0.00511429761369189	-16.5586307766069	-60.1606329530325	-51.5307645219016	
912200000	-56.3653194269685	100.170726947737	0.00845165485408086	-16.5414665675392	-0.00571631816997086	-16.6542063781735	-55.1536336394667	-16.0280579240095	
913900000	-57.5558717535626	84.1770745982534	0.0128939368895014	-16.6298503149706	-0.00494735548914957	-16.6775619971825	-51.0959530310633	-11.4800362614496	
915600000	-55.5994040438374	-8.22444727121202	-0.00594738131194262	-16.7641797462478	-0.00847114853698579	-16.6612105050367	-55.7283009492527	-109.283111227868	
917300000	-59.6144992680999	80.8107480414481	-0.00956489072363442	-16.578541940867	-0.0124854829915693	-16.7245919100075	-51.3463105121384	2.41799491659882	
919000000	-61.9519774622491	32.7801521599263	-0.00452754515252695	-16.7336360351301	0.00502760974426146	-16.7538766538255	-69.2722064091471	-4.23365966375321	
920700000	-68.3470572248992	137.821819582394	0.00030371196925445	-16.8024956136517	-0.00202431573415156	-16.7497889036269	-62.5373830498773	51.5790442308504	
922400000	-57.9939041721609	19.8766730047769	-0.0158912349262845	-16.8702941258628	-0.000776614125357659	-16.7489615269613	-63.4687947348226	-176.19620628784	
924100000	-55.9841961168109	18.2742327350606	-0.0174141296759286	-16.8045301295087	-0.00157190658674243	-16.901136339968	-56.6409102913501	0.212540003762188	
925800000	-55.9951055444151	65.6875605966151	-0.00619380150684615	-16.900450509182	-0.00259267779552361	-16.8340254687432	-58.5579515998583	-51.8369072971898	
927500000	-55.4707114587461	16.6713036346853	-0.0212714270746047	-16.8771501516942	-0.0119759287880798	-16.8979253973589	-58.7886452247071	147.069132602621	
929200000	-53.8731270593683	-15.8854802071971	-0.0204292379489356	-16.8836503204134	-0.00837156506789526	-16.8579182331921	-57.1467046015375	-19.6825419038808	
930900000	-57.1338558762477	43.8239966419292	-0.00894840809889692	-16.8758044363427	-0.00461932952691151	-17.0254459150435	-63.6440265258907	42.7294844740221	
932600000	-55.9056495148749	-9.61948949000285	0.0176606825026541	-16.9838969701948	0.00387906557362339	-17.0131643041334	-61.7966499356304	-60.0785278176069	
934300000	-55.897973975118	40.157823503283	0.0175635626621264	-16.9708159432888	-0.00234748261414173	-16.9934870597664	-49.1907461143766	17.2709329194499	
936000000	-58.9410111941395	6.68598035944132	-0.00954947412488502	-17.0427921596405	-0.00326816435723007	-16.9257735470112	-54.3842724947152	14.5890177012615	
937700000	-64.4798648380869	-160.817157142565	-0.0197299099074382	-17.07625713628	-0.0105179450126949	-17.0946093735547	-54.9542479602076	-24.856161812864	
939400000	-63.755165951089	20.3345480874366	-0.0198598760284637	-17.1062167300969	-0.0080155244354978	-17.1044699073907	-56.051329533452	-52.242632612814	
941100000	-53.7717918381466	33.1805891759242	-0.0123396371547515	-17.148588061227	-0.0134627533050015	-17.1841710102695	-53.6998286806827	9.01380662836984	
942800000	-66.41380369277	23.819958624461	-0.00651135928717609	-17.2323028844666	0.00985179209806578	-17.1458169871265	-53.2558046942383	38.8782550537537	
944500000	-60.8475716568383	14.2089480998487	-0.00122420909125812	-17.2663485258568	-0.00547836767286501	-17.2318912192526	-54.4020360157178	55.7427707198009	
946200000	-59.8307362107959	60.1278766769763	-0.00457343917866787	-17.1969070693392	-0.00153109977648705	-17.1873013890575	-57.2932057808116	-30.6890036105797	
947900000	-56.6570894668167	68.9767828597212	-0.00466967954428119	-17.3507728009882	0.0120576103245171	-17.3035679202204	-53.4393673728612	-5.52530350397058	
949600000	-71.4027737008548	110.379064243291	-0.0113958462814561	-17.2860387906142	-0.0036395885054779	-17.2924965190218	-60.454407849539	-11.1466353290363	
951300000	-52.4343714310086	75.3668617737967	-0.00365364601460854	-17.2986669194777	0.00634221189994726	-17.3158738918627	-53.3809467631097	0.596498724783323	
953000000	-60.1425044294999	14.8717726705363	-0.000719403782604343	-17.4304082147566	-0.00152271972464716	-17.3808914045251	-57.7430349378687	-4.82704490797497	
954700000	-59.4211814254716	72.1608766628076	-0.0105724737122335	-17.3568236187532	-0.00639907119617454	-17.3751559533254	-56.5627639670306	10.2736813991412	
956400000	-53.5177581868532	59.939501378849	-0.00284994850975799	-17.398881115808	0.00598736026572995	-17.4427056790317	-52.9408747560469	56.8526554261387	
958100000	-53.6760293838142	59.4401277966113	-0.00934702526301637	-17.3742218312426	-0.00870723376726096	-17.4344953621395	-60.8251381916179	-113.383848847296	
959800000	-61.3294350932915	72.6165676182366	-0.000393281317292336	-17.493296193572	-0.00973407639135417	-17.537894859397	-55.6644514858417	0.31663539765534	
961500000	-52.0738257617041	-18.8314872761073	0.00782536826710442	-17.4938646862269	0.00162699882369512	-17.4704811330398	-54.6208432295079	-0.634516638734948	
963200000	-61.4185874548679	-170.433550432308	-0.00577492577601588	-17.4901658307013	-0.0160607882423062	-17.5237873164835	-58.8502152538711	40.4723608661263	
964900000	-69.591522313125	-61.1758493691851	-0.00414176753329942	-17.588535147368	0.00116994971361582	-17.5700715729604	-55.4767987591405	-101.958233682092	
966600000	-55.0418148219159	95.4110125374023	-0.0102027620815414	-17.7020403330497	0.00131254434339162	-17.5440063651508	-57.8035454584286	22.4545943833127	
968300000	-56.0031518550546	100.061438870055	0.000881676009794818	-17.5640322322117	-0.00720386188720381	-17.6129037764044	-57.9958253110443	16.7936724928306	
970000000	-55.1877925147788	58.5299432092902	-0.0129489776248073	-17.6730615399594	-0.0210110538581832	-17.6675818039443	-53.8614608137401	-4.09238354349613	
971700000	-53.9293378891629	107.581042656893	-0.00550333520674584	-17.614673065481	0.00913780440774621	-17.6901844126645	-60.3684772668517	-1.62860640650953	
973400000	-60.7172470065969	47.2414365367472	-0.00942018361685442	-17.6908397501854	0.00930823806040551	-17.7757920409597	-58.2817719786284	43.6424855057545	
975100000	-59.5320395950596	-78.8744711230752	-0.000907725881145957	-17.6130458906888	-0.00117500373165219	-17.8042483094805	-55.674468149047	10.8865679856583	
976800000	-55.4626114739882	23.807142148972	-0.0222200126527624	-17.8503864269741	-0.0105147924037438	-17.7388309032368	-58.4356095303216	-74.6903269307735	
978500000	-55.6860748835239	6.61170044097042	0.00234087738836275	-17.8078107605103	-0.00732052120043311	-17.7820233340892	-55.5420347707446	97.8981557311839	
980200000	-52.6228674245382	159.912680163237	-0.0141493072622585	-17.9107161580726	-0.00346997872273599	-17.983793387597	-50.6594103253504	86.710353458764	
981900000	-54.0132456234746	8.76001311463656	-0.0158731828839227	-17.9214937269254	-0.00346744396704214	-17.8546012512098	-63.1658235182204	-96.0803723138028	
983600000	-63.7923201053252	-21.9596715454143	-0.0060207826558133	-17.9317897965797	-0.00256431108748468	-17.9432462992292	-62.2755595946874	64.8035359515372	
985300000	-55.4430408347459	-1.64007435124941	-0.0107508482189773	-17.9028759798194	-0.00883589704318493	-17.8910592870022	-57.7182213780225	7.84095212569307	
987000000	-50.9647844900914	29.1625650921012	-0.0137577564960756	-17.9038636838734	-0.00642172292972958	-17.9503588999097	-57.4078154363534	-59.8301787610723	
988700000	-59.9891665743605	22.2847848020861	8.7731695060417E-05	-17.9948004640296	-0.0107118660499191	-18.028237762178	-58.6278187371495	8.90076268758377	
990400000	-60.2339641017449	-170.520668382122	-0.00170354491005602	-18.1481308885285	0.000320370247933897	-18.0923336066502	-58.9818293434449	-25.2024871226022	
992100000	-50.4661655667753	5.17319416989389	-0.00356941442348537	-18.0495605195041	-0.01080827058199	-18.0875437442365	-56.8431677206437	-4.27678339783207	
993800000	-50.8944156185156	-8.2088556772125	0.0025814186865181	-17.9964932230885	-0.00655679161501328	-18.0694343972785	-61.5578573683654	96.6475262259583	
995500000	-53.3499836357217	48.1531891540653	-0.0256631974957811	-18.0484850831424	-0.0180515131142782	-18.1322918069428	-66.1594078062624	-87.419995807421	
997200000	-54.1007728829277	56.2636207169932	0.00378275486073413	-18.1901205003318	0.0106076454416016	-18.1325542658425	-53.9347370233529	-21.6275566195745	
998900000	-55.6497399278445	68.8328424958318	-0.00247006110258588	-18.1439187660392	-0.00320973985468809	-18.1586523807952	-56.2153061591221	139.800440470807	
1000600000	-49.8127075887565	17.1945065927636	-0.00653793350844862	-18.1942239404018	-0.0117851931381868	-18.232837804806	-54.7076543337095	-66.3003030809704	
1002300000	-57.6749613014666	-128.941304274629	-0.0140922664863477	-18.2717470352987	-0.0169657710374391	-18.2036735851508	-60.5612298461405	-70.1178493761566	
1004000000	-55.5172706734755	30.0424309145656	-0.00394286172524993	-18.3814255676582	0.00882450218316841	-18.404159976742	-60.2588262909682	5.70130857211486	
1005700000	-52.681773600261	40.8526738773231	-0.0046965867205014	-18.2974288782867	-0.00186757120276045	-18.2690284523822	-60.2002145376011	-38.9581017245527	
1007400000	-62.4922556276494	28.9930054589185	-0.00391618227808598	-18.2855086280492	-0.00661133521539491	-18.3749617319771	-53.4336374322516	20.5669644010908	
1009100000	-58.2300211783998	45.7912819226577	0.00774527172136287	-18.4247683419856	-0.0149705584468836	-18.3994886201517	-70.5214244116539	33.1223582675819	
