!Created with skrf (http://scikit-rf.org).
# GHz S RI R 50.0 
!freq ReS11 ImS11 ReS21 ImS21 ReS12 ImS12 ReS22 ImS22
0.8 0.01610858366 -0.1216624826 0.9893090129 -0.06664132327 0.9893296957 -0.06592454016 -0.03015037812 -0.1133918688
0.80064 0.01597974077 -0.121709995 0.9893378615 -0.06622597575 0.9887530804 -0.0662285164 -0.03021232411 -0.1133876517
0.80128 0.01044819411 -0.1196846217 0.9896665812 -0.06719239801 0.9894046187 -0.06690572202 -0.02475579455 -0.1126602143
0.80192 0.01059461385 -0.1194264963 0.9892551303 -0.06701151282 0.989343226 -0.06680946797 -0.02438320778 -0.1124723181
0.80256 0.01071962155 -0.1198320016 0.989551425 -0.06728690118 0.9888983369 -0.06673257053 -0.02432772331 -0.1123760566
0.8032 0.01053350139 -0.1199316457 0.989459753 -0.06736309826 0.9894368052 -0.06698797643 -0.0239019189 -0.1126922294
0.80384 0.01073344704 -0.1198854521 0.9894155264 -0.06751018763 0.9886726737 -0.06723748893 -0.0244648587 -0.1127619967
0.80448 0.01041735243 -0.1200883687 0.9895143509 -0.06755961478 0.9882961512 -0.06733507663 -0.02422117628 -0.1127504483
0.80512 0.01073889807 -0.1205866113 0.9893029928 -0.06739298254 0.9889232516 -0.06766995788 -0.02415766381 -0.1126108319
0.80576 0.01074170787 -0.1201319173 0.9891142845 -0.06738761812 0.9895237088 -0.06672665477 -0.02426502295 -0.1131672785
0.8064 0.01040094998 -0.1206945032 0.9895021319 -0.0674225837 0.9892440438 -0.06733506173 -0.02410294674 -0.1133086383
0.80704 0.0100296801 -0.1204577982 0.9894502759 -0.06745660305 0.9888392687 -0.06750141829 -0.024124071 -0.1131137311
0.80768 0.01056744903 -0.121216692 0.9890897274 -0.06743645668 0.9890199304 -0.06718030572 -0.02397976443 -0.1132546291
0.80832 0.01017333288 -0.1213132888 0.9892491102 -0.06771171838 0.9894422889 -0.06765393168 -0.02426299267 -0.1129091531
0.80896 0.0104232002 -0.1214972809 0.9893029928 -0.06755870581 0.9895492792 -0.06738368422 -0.02430413291 -0.1131587848
0.8096 0.010333905 -0.1212145984 0.9892984033 -0.06748668104 0.9891270399 -0.06765466183 -0.02429164015 -0.1135506853
0.81024 0.01069088001 -0.1213374957 0.9893590808 -0.06739909947 0.9889520407 -0.06758091599 -0.02472030371 -0.1136575192
0.81088 0.009902907535 -0.1215524897 0.989500761 -0.06754548848 0.9890189767 -0.0678210333 -0.02409702353 -0.1130430251
0.81152 0.01006056834 -0.1217149943 0.989108026 -0.06771060079 0.9893392324 -0.06787310541 -0.02413893864 -0.1135602519
0.81216 0.01017902792 -0.1218169853 0.9892451167 -0.06781900674 0.9888193011 -0.06773556024 -0.02420264296 -0.1135210693
0.8128 0.01023037359 -0.1219806299 0.9892143607 -0.06781350076 0.9889742136 -0.06776089221 -0.02455820516 -0.1136248633
0.81344 0.009819968604 -0.1221960336 0.9894129634 -0.06785082072 0.989038527 -0.0678332746 -0.0236235112 -0.1132741049
0.81408 0.01001083292 -0.1222769693 0.9892128706 -0.06801200658 0.9890632629 -0.06814813614 -0.02416307107 -0.113911055
0.81472 0.01003050897 -0.1221178696 0.989133656 -0.06804195046 0.9891366363 -0.06786322594 -0.02419738844 -0.1139842123
0.81536 0.0100245364 -0.1220102981 0.9888385534 -0.06785772741 0.9888953567 -0.06815905124 -0.02431896888 -0.113838315
0.816 0.009831896052 -0.1220424026 0.9888834357 -0.06776311249 0.9886975288 -0.06794995815 -0.02455822378 -0.114102982
0.81664 0.01022959594 -0.1222043559 0.9891136885 -0.06794119626 0.9886031747 -0.06792153418 -0.02466141246 -0.1141058281
0.81728 0.009881421924 -0.1224269122 0.9891839623 -0.068243891 0.9889176488 -0.06789331883 -0.02424082905 -0.1144122258
0.81792 0.01019999757 -0.122375764 0.9893699288 -0.06807919592 0.9888646603 -0.06809783727 -0.02420377731 -0.1139573008
0.81856 0.01051671617 -0.1221624389 0.9888888001 -0.06787026674 0.988740325 -0.06823787093 -0.02510122396 -0.1145227626
0.8192 0.01030658372 -0.1222559139 0.9888995886 -0.06833159924 0.988697052 -0.06866651028 -0.0248959139 -0.1144678146
0.81984 0.01041735243 -0.1225957274 0.9890066385 -0.06835749 0.9888165593 -0.06857211143 -0.02453181706 -0.1142377108
0.82048 0.01048282813 -0.1224205196 0.9891393781 -0.0682977587 0.9885432124 -0.06813696027 -0.02501462772 -0.1152011231
0.82112 0.01069261506 -0.122671552 0.9889878631 -0.06784007698 0.9886564612 -0.06769930571 -0.02538331784 -0.114944458
0.82176 0.01096236985 -0.1226926148 0.9889392257 -0.06841640919 0.9886334538 -0.06859109551 -0.02488694899 -0.1146856323
0.8224 0.01084224321 -0.1226699427 0.9889891744 -0.06825236231 0.9885184765 -0.06813962758 -0.02576282807 -0.1146518141
0.82304 0.01086233836 -0.1225441173 0.9886086583 -0.06834108382 0.988810122 -0.06845138222 -0.02533566765 -0.1150747836
0.82368 0.01087371353 -0.1228252873 0.9890786409 -0.06803432852 0.988820672 -0.06820352376 -0.02551912889 -0.1153898463
0.82432 0.01115453988 -0.1229164973 0.9885134101 -0.0685877651 0.988252461 -0.06857633591 -0.02549933642 -0.1152313426
0.82496 0.011253695 -0.123004742 0.9888972044 -0.06857003272 0.9888886213 -0.06833391637 -0.0257248152 -0.1153216362
0.8256 0.01119048614 -0.1228563711 0.9886933565 -0.06824352592 0.9885135889 -0.06865336001 -0.02582189441 -0.1149961352
0.82624 0.01122837048 -0.1228756607 0.9886159301 -0.06850598007 0.9886659384 -0.06805297732 -0.02585738897 -0.116172567
0.82688 0.01146023255 -0.1231974214 0.9886921048 -0.06913343072 0.988248229 -0.06846675277 -0.0261044018 -0.1158147156
0.82752 0.01133303531 -0.12317013 0.9890146255 -0.06896277517 0.9883701801 -0.06863787025 -0.02592611685 -0.1156271696
0.82816 0.01124238595 -0.1233461872 0.9889571667 -0.06911542267 0.9886957407 -0.06844225526 -0.02610696666 -0.1157168821
0.8288 0.0115753971 -0.1233400181 0.9884838462 -0.06898424029 0.9885976911 -0.06911707669 -0.0262679588 -0.1159510389
0.82944 0.01174184307 -0.1233440042 0.9889321923 -0.06879253685 0.9881740808 -0.06896981597 -0.02567975037 -0.116363503
0.83008 0.01132852118 -0.1235773191 0.9887590408 -0.06952187419 0.9886749387 -0.06893455982 -0.02645498514 -0.1164238527
0.83072 0.01180175412 -0.1236258522 0.9883158207 -0.06904563308 0.9884275198 -0.06920976937 -0.02627508156 -0.1164660379
0.83136 0.01127159689 -0.1240922883 0.9883957505 -0.06906628609 0.9884982109 -0.06852887571 -0.02607378922 -0.1165633202
0.832 0.01160679478 -0.1239741221 0.9885956645 -0.06974164397 0.9881573915 -0.06952323765 -0.0268395599 -0.1163604259
0.83264 0.01140544843 -0.1238912866 0.9884406328 -0.0693166703 0.9882891774 -0.06922545284 -0.02650546096 -0.1167189851
0.83328 0.0114674978 -0.1240012273 0.988689363 -0.06922561675 0.9887357354 -0.0689438507 -0.02675540186 -0.1168084219
0.83392 0.01187053882 -0.1242784336 0.9883683324 -0.06961688399 0.988019228 -0.06928307563 -0.02670925297 -0.1165728793
0.83456 0.01176326163 -0.1243502498 0.9881467223 -0.06929921359 0.9880622029 -0.06961824 -0.02665847167 -0.1172765493
0.8352 0.01156536862 -0.1243325919 0.9887262583 -0.0694931671 0.9878607988 -0.06922836602 -0.02678797953 -0.1166213676
0.83584 0.01144986972 -0.1247543767 0.988250792 -0.06962144375 0.9881109595 -0.06933958083 -0.02661748976 -0.1171994284
0.83648 0.0113474587 -0.1249967888 0.9883730412 -0.06907443702 0.9878692031 -0.0690465346 -0.02639654092 -0.1168390512
0.83712 0.01127138734 -0.1249563843 0.9884175658 -0.06974282116 0.9880583882 -0.0695963949 -0.02690996416 -0.1168338954
0.83776 0.01125470828 -0.1249726862 0.9883330464 -0.06955354661 0.9878808856 -0.06976513565 -0.02677873895 -0.1175409481
0.8384 0.01137828082 -0.1247781366 0.9883776903 -0.06937573105 0.9879438877 -0.06950566173 -0.02688853443 -0.1173596084
0.83904 0.01120749488 -0.1252566278 0.9882926345 -0.069871068 0.9876838326 -0.06946204603 -0.02684282698 -0.1171394959
0.83968 0.01130941696 -0.1248417571 0.9885665774 -0.07000592351 0.987875402 -0.06969112158 -0.02686521597 -0.1174159572
0.84032 0.0112984078 -0.1247877479 0.9883493781 -0.06991672516 0.9878895283 -0.0698068887 -0.02666108124 -0.1178015396
0.84096 0.01118513756 -0.1255384982 0.9884607792 -0.06991172582 0.9880708456 -0.06932170689 -0.02608681843 -0.1179514751
0.8416 0.01107012387 -0.1252711266 0.9888612032 -0.07032018155 0.9880274534 -0.06977753341 -0.02646022104 -0.1177875996
0.84224 0.01100854762 -0.1258752644 0.9882566929 -0.06985773146 0.9882606864 -0.069780536 -0.02653369866 -0.1178816035
0.84288 0.01099516451 -0.1259109378 0.9885419607 -0.07021740079 0.9879692197 -0.07000793517 -0.0268733073 -0.117810145
0.84352 0.01068271231 -0.1257936805 0.9888032675 -0.07018375397 0.9880357981 -0.07010442019 -0.02668918855 -0.1180729493
0.84416 0.01103382464 -0.1257550567 0.9882927537 -0.06998510659 0.9881801009 -0.06962752342 -0.02649040334 -0.1183013618
0.8448 0.01083887089 -0.126229763 0.988075912 -0.07035502046 0.9880096912 -0.07001914829 -0.02640199661 -0.1182450056
0.84544 0.0109092826 -0.1259423941 0.9886462688 -0.07026703656 0.9876662493 -0.07007908821 -0.02613853477 -0.1180013791
0.84608 0.01094923075 -0.1262062341 0.9884015322 -0.07038857043 0.9883500338 -0.06958848238 -0.02656436339 -0.1181382015
0.84672 0.01076101698 -0.1262534857 0.9884315133 -0.07085778564 0.9879709482 -0.06979495287 -0.02637713961 -0.1182716265
0.84736 0.01105640549 -0.1265677661 0.9883118272 -0.0705480352 0.9881523848 -0.07044383138 -0.02611875907 -0.1184744313
0.848 0.01089237817 -0.1262116432 0.9882917404 -0.07060918957 0.9882423878 -0.07022581995 -0.02666324377 -0.1183690578
0.84864 0.01083465479 -0.1264937222 0.9885622263 -0.07053589821 0.9874492288 -0.07068539411 -0.02640238963 -0.1184938625
0.84928 0.01125198044 -0.1268199235 0.9884129167 -0.07061999291 0.9877702594 -0.07057283819 -0.02675799653 -0.1184510291
0.84992 0.010968877 -0.1265940219 0.9881256819 -0.07074656337 0.9876515865 -0.07038389891 -0.02650080249 -0.1188623086
0.85056 0.01108063944 -0.1267911941 0.9882058501 -0.07052893192 0.9877104163 -0.0705145672 -0.02646220848 -0.1192339063
0.8512 0.01078969426 -0.1270510256 0.9881725311 -0.07074303925 0.9873917103 -0.07022649795 -0.02653773688 -0.1183399409
0.85184 0.01138185617 -0.1271285862 0.9879068136 -0.07137367874 0.9875309467 -0.07032237947 -0.0268257428 -0.1184601113
0.85248 0.01127501111 -0.1273023337 0.9883054495 -0.07065650076 0.9875961542 -0.07056201994 -0.02698759548 -0.118616499
0.85312 0.01119407732 -0.1272381544 0.9884049892 -0.07101034373 0.9876542687 -0.07048449665 -0.02676839568 -0.1187861189
0.85376 0.01139578223 -0.127221629 0.9883313775 -0.0713717714 0.9877291322 -0.07040408254 -0.02678718977 -0.1188834384
0.8544 0.01144145243 -0.1271601319 0.9882585406 -0.07150574028 0.9880866408 -0.0704768151 -0.02718514577 -0.11932116
0.85504 0.01116451435 -0.1275876164 0.988468051 -0.07118406892 0.9875096083 -0.0708829239 -0.02695249952 -0.1194167435
0.85568 0.01159443706 -0.1275939643 0.9879587889 -0.07109597325 0.9875985384 -0.07072336972 -0.02705102414 -0.1196652651
0.85632 0.01157456636 -0.1277920455 0.988355279 -0.07139068842 0.9878696799 -0.07144908607 -0.02716012672 -0.1196561009
0.85696 0.01190309599 -0.1276033521 0.9879236221 -0.0714276433 0.9874289036 -0.07061187178 -0.02715658024 -0.1193814501
0.8576 0.01194753312 -0.127698943 0.9879817367 -0.07149925083 0.9877805114 -0.07120021433 -0.02734064125 -0.1196071953
0.85824 0.01224226411 -0.1273997575 0.9881864786 -0.07107327133 0.9876231551 -0.07125341147 -0.02746710554 -0.1194117367
0.85888 0.01199058257 -0.1279193014 0.9878136516 -0.07145729661 0.9877445102 -0.07089608163 -0.02774499916 -0.1195497215
0.85952 0.0119016692 -0.1281080693 0.9881544709 -0.07161069661 0.9874286652 -0.07134132087 -0.02759802714 -0.1196734011
0.86016 0.01235112641 -0.1283753812 0.9885182381 -0.07167625427 0.987431407 -0.0711183995 -0.02790505067 -0.1194618195
0.8608 0.01225048304 -0.1283394545 0.988201499 -0.07183162123 0.9871187806 -0.07113443315 -0.02802967839 -0.1201408878
0.86144 0.01220559701 -0.1285684556 0.9879012704 -0.07202420384 0.9873034954 -0.07101938874 -0.02771936916 -0.1197966337
0.86208 0.01214654464 -0.1287750006 0.9882142544 -0.07216804475 0.987434864 -0.07086942345 -0.02813437581 -0.119988583
0.86272 0.01249938551 -0.128511861 0.9880873561 -0.07211636007 0.9873406887 -0.07134815305 -0.02801401541 -0.119990699
0.86336 0.01227730606 -0.1287795305 0.9878706932 -0.07209214568 0.9872814417 -0.07099792361 -0.02815983444 -0.1205020621
0.864 0.01225396059 -0.1291792691 0.9879564643 -0.07167885453 0.9874687791 -0.07164934278 -0.0281415116 -0.1204885095
0.86464 0.01226299535 -0.1291766465 0.9881131649 -0.07220544666 0.9874967933 -0.07133791596 -0.02836534567 -0.1205431148
0.86528 0.01228120923 -0.1289811432 0.9879559875 -0.07220197469 0.9871226549 -0.07125490159 -0.02802988701 -0.1203719378
0.86592 0.01178222708 -0.1291971356 0.9877737164 -0.07213768363 0.9875823259 -0.07188518345 -0.02881953865 -0.1206020117
0.86656 0.0124293305 -0.1293207556 0.9878998399 -0.07220584154 0.9865919948 -0.07146409899 -0.0283711385 -0.1206673384
0.8672 0.01257513836 -0.1296454817 0.9880775213 -0.07241639495 0.9869824052 -0.07130362839 -0.02872702852 -0.120985359
0.86784 0.01246239711 -0.1294752657 0.9877581596 -0.07277124375 0.9874256849 -0.07137224078 -0.02930781431 -0.1208449826
0.86848 0.01215561479 -0.129599005 0.9882028103 -0.07245522738 0.9875617027 -0.07154040784 -0.02853894234 -0.1205248609
0.86912 0.01248599682 -0.1291090697 0.9881320596 -0.07245634496 0.9872667193 -0.07158997655 -0.02892297879 -0.121190764
0.86976 0.01218186598 -0.1296024919 0.9879094362 -0.07258411497 0.9877764583 -0.07140357792 -0.02841932699 -0.121427089
0.8704 0.01190022938 -0.1298741847 0.9879542589 -0.07296729088 0.9875363708 -0.07198221236 -0.02865568362 -0.1211785004
0.87104 0.01235137321 -0.1296309233 0.9878628254 -0.07276723534 0.9876309037 -0.07201924175 -0.02887060307 -0.1213874295
0.87168 0.01204494108 -0.1299531758 0.9878635406 -0.07266145945 0.9871925712 -0.07154837251 -0.0289891623 -0.1214177608
0.87232 0.01221866161 -0.1300353557 0.9879603386 -0.07293744385 0.9876785874 -0.07132604718 -0.02868382074 -0.1216642484
0.87296 0.01193690766 -0.1299552172 0.9881138206 -0.07277510315 0.9874370098 -0.07200174034 -0.02905909345 -0.121358864
0.8736 0.01187664364 -0.1298490614 0.9876683354 -0.07310813665 0.9872913361 -0.07136250287 -0.02862558141 -0.1218781993
0.87424 0.01216603629 -0.1299833804 0.9877539277 -0.07314962149 0.9872292876 -0.07150585204 -0.02839700878 -0.1220344976
0.87488 0.01203951798 -0.1301115155 0.9876875281 -0.07283207774 0.9871557951 -0.07141654938 -0.02831213549 -0.1222442016
0.87552 0.01172983274 -0.1302156746 0.9874570966 -0.07300704718 0.9871947765 -0.07198999077 -0.0284590032 -0.1224559471
0.87616 0.01157810725 -0.1306237578 0.987991631 -0.07320722193 0.9876765609 -0.07214677334 -0.02881675214 -0.1222910285
0.8768 0.01197258383 -0.1301165819 0.987839222 -0.0730374828 0.9870064259 -0.07187282294 -0.02862961404 -0.1226156279
0.87744 0.01152846403 -0.1306049824 0.9877831936 -0.07293792814 0.9873869419 -0.07144852728 -0.02882064879 -0.1222523078
0.87808 0.01180216018 -0.1305443048 0.9879153967 -0.07310264558 0.9867641926 -0.07162005454 -0.02852169797 -0.122587122
0.87872 0.01170178037 -0.1305724084 0.9879574776 -0.07324116677 0.987267077 -0.0713481009 -0.02855402976 -0.1224119365
0.87936 0.0113739837 -0.1308277845 0.9878062606 -0.07346331328 0.9871552587 -0.07167067379 -0.02880691178 -0.1229562536
0.88 0.01162668411 -0.1305388063 0.9881282449 -0.07346484065 0.9872283936 -0.07233814895 -0.02896595933 -0.1228792071
0.88064 0.01153893117 -0.1308037937 0.9879236221 -0.07343155891 0.9874455929 -0.07214429229 -0.02894792892 -0.1229628995
0.88128 0.01142651495 -0.1309383363 0.9879660606 -0.07345370948 0.9872069955 -0.07225249708 -0.02935951762 -0.1230412722
0.88192 0.01171629876 -0.1308872849 0.9881885648 -0.07337122411 0.9873436093 -0.07233380526 -0.02873153239 -0.1234892607
0.88256 0.01180897281 -0.1308253109 0.9880950451 -0.07348386943 0.9875634909 -0.07194813341 -0.02933499962 -0.1235248148
0.8832 0.01167469285 -0.1308888048 0.9876420498 -0.07352613658 0.9871463776 -0.07206787169 -0.02893168479 -0.123272039
0.88384 0.01178923808 -0.1312673688 0.9878143072 -0.07342091948 0.9872916341 -0.07226288319 -0.02881961316 -0.12353158
0.88448 0.0120495148 -0.131438002 0.9879529476 -0.07352668792 0.9872943163 -0.07153372467 -0.02900616266 -0.1235186681
0.88512 0.01177853532 -0.1313030571 0.9877374172 -0.07368839532 0.9872928262 -0.07237561792 -0.0290028546 -0.1238017827
0.88576 0.01212135889 -0.1313457638 0.9875431061 -0.07405272126 0.9869756699 -0.07198117673 -0.0288140662 -0.1236025766
0.8864 0.01205165312 -0.1317558736 0.9881566763 -0.07357949764 0.9874954224 -0.07218913734 -0.02925576456 -0.1237930506
0.88704 0.01212403458 -0.1319070309 0.9878918529 -0.07353062928 0.9873358011 -0.07226953655 -0.02887624316 -0.1235537082
0.88768 0.01201088727 -0.1321763396 0.9880083203 -0.0740583092 0.9871381521 -0.07228001207 -0.02951047756 -0.1234736815
0.88832 0.0120622348 -0.132227689 0.9879029989 -0.07364001125 0.9875935316 -0.07232865691 -0.02894701809 -0.1236753315
0.88896 0.01206268463 -0.1323987693 0.9883141518 -0.07400880009 0.9874857068 -0.07241921872 -0.02917131968 -0.1236363947
0.8896 0.01199125592 -0.1326564103 0.9880826473 -0.07408352941 0.9870840907 -0.07239030302 -0.02913578227 -0.1238923967
0.89024 0.01216985937 -0.1324675083 0.987866044 -0.07397562265 0.9869369864 -0.07253517956 -0.02888934687 -0.1239124313
0.89088 0.01238424983 -0.1325889081 0.9880811572 -0.07392376661 0.9868507385 -0.07247976214 -0.0298542846 -0.1238497421
0.89152 0.01281305589 -0.1332927048 0.9881207943 -0.07426731288 0.9875587225 -0.07257211208 -0.02966142632 -0.124010019
0.89216 0.01266594231 -0.1330163479 0.9879714847 -0.07399663329 0.9865856767 -0.07309763134 -0.02974493615 -0.1240055114
0.8928 0.01255294401 -0.1332453936 0.9876990914 -0.07398127019 0.9867326617 -0.07299713045 -0.02984149009 -0.123702608
0.89344 0.01263792347 -0.1335135251 0.9878932834 -0.0741199553 0.9869654179 -0.07253751904 -0.02996861376 -0.124040775
0.89408 0.01286808029 -0.1336153299 0.9877787828 -0.07474271953 0.9868382812 -0.07270751894 -0.02987465821 -0.1241568848
0.89472 0.01263328828 -0.1334621012 0.987793684 -0.07447247952 0.9865505099 -0.07294086367 -0.02973450534 -0.1239154115
0.89536 0.01291642059 -0.1338117123 0.9876716733 -0.07458615303 0.9868917465 -0.07336737961 -0.02985087968 -0.1244114786
0.896 0.01272211038 -0.1338653266 0.9878547192 -0.07441840321 0.9876260757 -0.07300729305 -0.03037438914 -0.1242497191
0.89664 0.0129895173 -0.1343179196 0.9876115918 -0.0744157657 0.9872023463 -0.07269247621 -0.03049151599 -0.1239425763
0.89728 0.01300436258 -0.1340956688 0.9879111052 -0.07453726232 0.9871125817 -0.073022753 -0.03038366698 -0.1239955574
0.89792 0.01279948838 -0.1343328953 0.9876182079 -0.07453474402 0.98725003 -0.07385683805 -0.03038822673 -0.1242149994
0.89856 0.01272608247 -0.1342906952 0.9877930284 -0.07479788363 0.9871478677 -0.07315265387 -0.03065061755 -0.1241727546
0.8992 0.01306993328 -0.1346607208 0.9874516129 -0.07461956888 0.9872610569 -0.07348469645 -0.03037818894 -0.1242729947
0.89984 0.0128956968 -0.1346855015 0.9877864718 -0.0746833235 0.9870402813 -0.07347563654 -0.03061808087 -0.1240370944
0.90048 0.01288907416 -0.1347537637 0.9876943231 -0.07479338348 0.9866554737 -0.07323554158 -0.03044771403 -0.1248119473
0.90112 0.0127671659 -0.1347700506 0.9877644181 -0.07507020235 0.98690027 -0.07312154025 -0.03044137917 -0.1246804297
0.90176 0.01294946019 -0.1347354203 0.9880004525 -0.07478761673 0.9874791503 -0.07355945557 -0.03046708554 -0.1248612404
0.9024 0.01279886719 -0.1349940598 0.9876600504 -0.0752588734 0.9870026708 -0.0737837404 -0.03025899641 -0.1248032376
0.90304 0.01278667897 -0.1349273175 0.987891078 -0.07515124232 0.9873409867 -0.07385697216 -0.0304865092 -0.1248733103
0.90368 0.0129166143 -0.1352319717 0.9875750542 -0.07517420501 0.9872395396 -0.07367132604 -0.03073467687 -0.1251635551
0.90432 0.01263963524 -0.13489151 0.9878645539 -0.07524484396 0.9866856337 -0.0740749985 -0.03059006482 -0.1249593645
0.90496 0.01269913465 -0.1348305047 0.9874683022 -0.07529443502 0.9868846536 -0.07406307012 -0.03090512939 -0.1252795011
