!Created with skrf (http://scikit-rf.org).
# GHz S RI R 50.0 
!freq ReS11 ImS11 ReS21 ImS21 ReS12 ImS12 ReS22 ImS22
0.8 -0.02628063597 -0.1310820729 0.9835907817 -0.0793459788 0.9834049344 -0.07861825824 -0.007211658172 -0.1318692863
0.80064 -0.02638134733 -0.1310722679 0.9833663106 -0.07907386124 0.9832197428 -0.07919073105 -0.00741857104 -0.1321134716
0.80128 -0.03176943213 -0.1287350357 0.9838047624 -0.07981744409 0.9843151569 -0.07931362838 -0.00164821092 -0.1315656602
0.80192 -0.03175712749 -0.1285145432 0.9834270477 -0.07978289574 0.983595252 -0.07931680232 -0.001637729816 -0.1313853562
0.80256 -0.03167291731 -0.1289292723 0.9839696884 -0.08024477214 0.9836547971 -0.07936827093 -0.001416171435 -0.1315206438
0.8032 -0.03192972392 -0.1287999451 0.9833285809 -0.07994178683 0.9835441113 -0.07967823744 -0.0009771194309 -0.1314482838
0.80384 -0.03183663636 -0.1288217902 0.9837280512 -0.08001478016 0.983379662 -0.07943784446 -0.00148534216 -0.1315865368
0.80448 -0.03200940788 -0.1289120317 0.9833381772 -0.08050721139 0.9831243157 -0.07974845916 -0.00122837536 -0.1316542774
0.80512 -0.03204910457 -0.1293137372 0.9835885167 -0.08017724007 0.9835964441 -0.0800589174 -0.001075266278 -0.1316895634
0.80576 -0.03195349127 -0.1290132254 0.9832069278 -0.08037935197 0.9839094877 -0.07985527813 -0.001268700231 -0.1318821162
0.8064 -0.03218054026 -0.1294548362 0.9835720658 -0.08011922985 0.9837566614 -0.07995636016 -0.001109545003 -0.1320741624
0.80704 -0.03253188357 -0.129205972 0.9834518433 -0.08043328673 0.9835058451 -0.080198057 -0.001188867376 -0.1320074499
0.80768 -0.03215447068 -0.1300102025 0.9833106399 -0.0801840499 0.9828649759 -0.07958207279 -0.0009621498757 -0.1321034133
0.80832 -0.03245351836 -0.1301462352 0.9832540154 -0.08076409996 0.9838035107 -0.08009549975 -0.001147275325 -0.1318742484
0.80896 -0.03246638924 -0.1302349269 0.9834520817 -0.08037821203 0.9837118983 -0.08008179069 -0.001216336968 -0.132140696
0.8096 -0.03259997815 -0.1300933957 0.9833404422 -0.08043903857 0.9841110706 -0.08016613126 -0.0009721898241 -0.1328887194
0.81024 -0.03223110363 -0.1300037205 0.9833515286 -0.08059863746 0.9834067225 -0.0804053694 -0.00127825723 -0.1327638626
0.81088 -0.0330597125 -0.1301716715 0.9833938479 -0.08057315648 0.9833617806 -0.08036734164 -0.000759387156 -0.1322552413
0.81152 -0.03284978494 -0.1304351538 0.9831704497 -0.08053389192 0.9836825132 -0.08061982691 -0.0009401635034 -0.1325533092
0.81216 -0.0329269357 -0.1304639578 0.9833674431 -0.08077558875 0.9833188057 -0.08005836606 -0.000759016606 -0.1328660846
0.8128 -0.03275491297 -0.1307317019 0.9833184481 -0.08028043807 0.9833818674 -0.08025923371 -0.001188093331 -0.1326715648
0.81344 -0.0333140716 -0.1309130192 0.9830451608 -0.08092645556 0.9835349917 -0.08046387136 -4.042923683e-05 -0.1325831413
0.81408 -0.03314160556 -0.130788669 0.9830706716 -0.08102402836 0.9833792448 -0.08063966781 -0.0008977117832 -0.1331307143
0.81472 -0.03308741376 -0.1306601316 0.9829486012 -0.08086435497 0.9831248522 -0.08068015426 -0.0006161750644 -0.1332249045
0.81536 -0.03319631517 -0.1306603104 0.9829883575 -0.08097947389 0.9828115702 -0.08075039089 -0.001096998109 -0.1332811713
0.816 -0.03346627578 -0.1308806688 0.9831370115 -0.08092879504 0.9830804467 -0.08046553284 -0.0009207719704 -0.1332080066
0.81664 -0.03314707801 -0.1309106201 0.983255744 -0.08115646243 0.9827417135 -0.08056857437 -0.0008574469248 -0.1333247274
0.81728 -0.03352961689 -0.131124422 0.9830884337 -0.08117522299 0.9833585024 -0.08060290664 -0.0004988288274 -0.1336866468
0.81792 -0.03342891857 -0.1310192347 0.9829935431 -0.08128701895 0.9830318689 -0.08085481822 -0.000394693925 -0.1334528923
0.81856 -0.03303710371 -0.1310814917 0.9830421209 -0.080937244 0.9831578135 -0.08080251515 -0.001131286961 -0.1340429038
0.8192 -0.03327490389 -0.1310506463 0.9826640487 -0.08143523335 0.9831485748 -0.08082723618 -0.0009532434633 -0.1339998841
0.81984 -0.03329715133 -0.1313517988 0.9830256104 -0.0814967528 0.9829739928 -0.0811739713 -0.0004887175164 -0.1336628646
0.82048 -0.0332277827 -0.131309092 0.9830956459 -0.08141020685 0.9829891324 -0.08109128475 -0.001202231739 -0.1344668418
0.82112 -0.03299379349 -0.1314681619 0.9827616215 -0.08112068474 0.982901454 -0.08050303161 -0.001185831497 -0.1344413608
0.82176 -0.03299764916 -0.1315352917 0.9829272032 -0.08143594116 0.9832731485 -0.08115481585 -0.0007352742832 -0.1342562735
0.8224 -0.0332322754 -0.1313745081 0.9830386043 -0.08144112676 0.9833141565 -0.08114575595 -0.001544656116 -0.1341316104
0.82304 -0.03309999406 -0.1314735264 0.9828438759 -0.08136227727 0.9830827713 -0.08164469898 -0.001059151837 -0.1346498579
0.82368 -0.03341608867 -0.1317159832 0.9830357432 -0.0813485533 0.9831557274 -0.08111493289 -0.001114453073 -0.1348818988
0.82432 -0.0331871137 -0.1318417341 0.982630372 -0.08175390214 0.9827181101 -0.08128934354 -0.00125555275 -0.134766385
0.82496 -0.03297283873 -0.1319651306 0.9828532934 -0.08181361854 0.9830127954 -0.08134502172 -0.001199182239 -0.1347880065
0.8256 -0.0333366096 -0.1319342256 0.9827414155 -0.08165621012 0.9829403162 -0.08167941123 -0.001289320411 -0.1348120868
0.82624 -0.03320393339 -0.1318603754 0.9825693965 -0.08172337711 0.9824928045 -0.0812933296 -0.001019339543 -0.1355646402
0.82688 -0.03304388747 -0.1319818199 0.9825994968 -0.0819138065 0.9828458428 -0.08169168979 -0.001546610845 -0.1352236867
0.82752 -0.03332255408 -0.1320938468 0.9826536179 -0.08156642318 0.9830545187 -0.08155909181 -0.001200306811 -0.1352210939
0.82816 -0.03337251022 -0.1322518885 0.9827749133 -0.08246693015 0.9834982753 -0.08139568567 -0.001478148159 -0.1351197213
0.8288 -0.03318449482 -0.1322825104 0.9825508595 -0.08210795373 0.9826843739 -0.08159957826 -0.001155238482 -0.135491699
0.82944 -0.03317971155 -0.1321172714 0.9826747179 -0.08181264997 0.9827256203 -0.08153037727 -0.0009831266943 -0.1359781027
0.83008 -0.03343262151 -0.132562384 0.9826853275 -0.08250518143 0.9826916456 -0.08221441507 -0.001469901181 -0.1357346773
0.83072 -0.03321010619 -0.1326740384 0.9824903607 -0.08252306283 0.9827612638 -0.08166979253 -0.001255694078 -0.1360994726
0.83136 -0.03378824517 -0.1330637187 0.9823814631 -0.08225367963 0.9825425148 -0.08168197423 -0.001117525273 -0.1360059381
0.832 -0.0334690325 -0.1329838037 0.9827882648 -0.08278657496 0.9827926755 -0.08241959661 -0.001714815968 -0.1358737648
0.83264 -0.03387777135 -0.1329492331 0.982519269 -0.08259096742 0.9826028943 -0.08193054795 -0.001354456297 -0.1362688541
0.83328 -0.03386024013 -0.1329482943 0.9826165438 -0.08236785233 0.9827708006 -0.08154113591 -0.001444853609 -0.1363127083
0.83392 -0.03335628286 -0.1332708299 0.9824463129 -0.08267704397 0.9828109145 -0.08191543818 -0.001576286624 -0.1361342967
0.83456 -0.03361974284 -0.13322483 0.9821255803 -0.08254411072 0.9824360013 -0.08213165402 -0.001497567864 -0.1369172782
0.8352 -0.03379501775 -0.1334161311 0.9823585749 -0.08285994083 0.9823449254 -0.08220940083 -0.001622507581 -0.1362187415
0.83584 -0.03391360492 -0.1336301863 0.9825143814 -0.08254555613 0.9823305607 -0.08203344047 -0.001404087758 -0.1367618442
0.83648 -0.03419486806 -0.1337664872 0.9822664857 -0.08251185715 0.9822506309 -0.08198614419 -0.001218747231 -0.1365813613
0.83712 -0.03420833498 -0.1337005496 0.9824807644 -0.08273099363 0.9827132821 -0.08277130127 -0.001670403173 -0.136612922
0.83776 -0.0342897512 -0.1338256747 0.9824440479 -0.08266155422 0.9822254777 -0.08221903443 -0.001333474414 -0.1371540129
0.8384 -0.03436738253 -0.1336821616 0.9823425412 -0.08275719732 0.982167542 -0.08222997189 -0.001513269264 -0.137104243
0.83904 -0.03441063315 -0.1339242011 0.9823812842 -0.08319352567 0.9824330211 -0.08233038336 -0.001327258535 -0.1370112747
0.83968 -0.03436939791 -0.1338026226 0.9823737741 -0.08354846388 0.9823931456 -0.08269631863 -0.001366041601 -0.1372000128
0.84032 -0.03454555571 -0.133743614 0.9821294546 -0.083052665 0.9819679856 -0.08280674368 -0.001021557138 -0.137606889
0.84096 -0.03457830474 -0.1343018264 0.98209095 -0.08324727416 0.9824430943 -0.08237920702 -0.0005688789533 -0.1376532167
0.8416 -0.03474128246 -0.1339783221 0.9821676016 -0.08334002644 0.9821794033 -0.08276636899 -0.0008401433006 -0.1374249011
0.84224 -0.03497651964 -0.1344841719 0.9820333123 -0.08355688304 0.9823114276 -0.08278618008 -0.001096500782 -0.1376700252
0.84288 -0.0348797217 -0.1345788687 0.9822546244 -0.0833716169 0.9821596146 -0.08304101974 -0.001354923123 -0.1377358139
0.84352 -0.03540609777 -0.134386152 0.9824950099 -0.08345402777 0.9822682738 -0.08311910927 -0.001004764461 -0.1381199807
0.84416 -0.03506399319 -0.1344963163 0.982260108 -0.08347605914 0.9822977185 -0.08301100135 -0.001043481519 -0.1382081509
0.8448 -0.03515131399 -0.1348085105 0.9819974899 -0.08393226564 0.9817506075 -0.08274271339 -0.0007802483742 -0.1380939186
0.84544 -0.0351966098 -0.1347568482 0.9823739529 -0.08365406096 0.982085824 -0.08300158381 -0.0006284130504 -0.138073042
0.84608 -0.03527846932 -0.1349721253 0.9822338223 -0.0837335214 0.9824107885 -0.08249329776 -0.0008741830243 -0.1380240619
0.84672 -0.03549066931 -0.1348418742 0.9822331071 -0.08420373499 0.982070148 -0.0829525739 -0.0007492725272 -0.1381653398
0.84736 -0.03536815196 -0.1352884769 0.9821227789 -0.08364379406 0.9819492102 -0.08333452791 -0.000390722591 -0.1383708566
0.848 -0.03534339368 -0.1348834038 0.9821484685 -0.08400521427 0.9822776318 -0.0832856968 -0.0009469848592 -0.1384429336
0.84864 -0.03556874022 -0.1351938546 0.9820368886 -0.08377187699 0.9820186496 -0.08380752057 -0.000568400952 -0.1385563463
0.84928 -0.03533605114 -0.1355019361 0.9822360873 -0.08406268805 0.9827070236 -0.08366894722 -0.0006640757783 -0.1385725439
0.84992 -0.03556836769 -0.1353885978 0.9823246002 -0.08417484164 0.9815787077 -0.08377567679 -0.0004461006902 -0.1389632076
0.85056 -0.03556128219 -0.1354166865 0.9821086526 -0.08412605524 0.9821266532 -0.08343327045 -0.0003402424045 -0.1393806636
0.8512 -0.03584096581 -0.1357990652 0.981867373 -0.08399495482 0.9814747572 -0.08366776258 -0.0001711730438 -0.1387492418
0.85184 -0.03539320081 -0.1359365135 0.981970787 -0.08476684988 0.9814695716 -0.08354088664 -0.000851488905 -0.1386143863
0.85248 -0.03551535681 -0.1359914541 0.9818521738 -0.08432614058 0.9819402695 -0.08375664055 -0.0006192285218 -0.1389754862
0.85312 -0.03560125083 -0.1358890384 0.9820675254 -0.08428306878 0.9819850922 -0.08417904377 -0.0004675581586 -0.1390866637
0.85376 -0.03556183353 -0.1359502226 0.9822492599 -0.08454535156 0.981967032 -0.08369643241 -0.0005423980765 -0.1390009969
0.8544 -0.03553116694 -0.1359458566 0.9819169641 -0.08451491594 0.9819162488 -0.08359882981 -0.000865081558 -0.1395095885
0.85504 -0.0359147042 -0.1361975372 0.9819471836 -0.08461819589 0.9822152853 -0.08400136232 -0.0003837076656 -0.1398399472
0.85568 -0.03564135358 -0.1364639103 0.9820129275 -0.08460957557 0.9816403389 -0.08418208361 -0.0005347980186 -0.1400554329
0.85632 -0.03560055047 -0.136443764 0.9821276665 -0.0844392553 0.9818125963 -0.08451142162 -0.0006266430719 -0.1400737464
0.85696 -0.03533421084 -0.1363237202 0.9819044471 -0.08459508419 0.9818695784 -0.08395156264 -0.0005538303521 -0.1398712099
0.8576 -0.0354803279 -0.1365593225 0.9819157124 -0.08476294577 0.9816409349 -0.0838624984 -0.0007266087923 -0.1397234052
0.85824 -0.0353574045 -0.1361737847 0.9819155931 -0.08486809582 0.981500864 -0.08410309255 -0.0008297477616 -0.1396691501
0.85888 -0.03552846611 -0.1367779523 0.981703043 -0.08476883173 0.9819279313 -0.08393360674 -0.0009102225886 -0.1398249269
0.85952 -0.03586592525 -0.1367391646 0.981801033 -0.08532515168 0.9816331267 -0.08427251875 -0.0009033618262 -0.1400836855
0.86016 -0.03542529419 -0.1371354461 0.9819039106 -0.08518129587 0.9817152023 -0.08454395831 -0.0008685968351 -0.1399717033
0.8608 -0.03564878926 -0.1370634139 0.9820058346 -0.08526643366 0.9814108014 -0.08461564034 -0.001218702644 -0.1405765712
0.86144 -0.03572399169 -0.137389943 0.9816983342 -0.08539418876 0.9817188382 -0.08417201787 -0.000691523077 -0.140370369
0.86208 -0.03584298491 -0.1375097632 0.981720984 -0.08580809832 0.9811182022 -0.08410524577 -0.001049306244 -0.1405477673
0.86272 -0.03552880511 -0.1371358484 0.9816671014 -0.08517992496 0.9809630513 -0.08436409384 -0.0009794484358 -0.1404201835
0.86336 -0.03561761975 -0.1373694837 0.9817131758 -0.08530838042 0.9810310006 -0.08442170173 -0.0008097789832 -0.1409960836
0.864 -0.03588403016 -0.1378141046 0.9819261432 -0.08508518338 0.9818215966 -0.08494146913 -0.0007470227429 -0.1409819126
0.86464 -0.0360179618 -0.1376841068 0.9817977548 -0.08557987213 0.9815010428 -0.08407529444 -0.00101734791 -0.1410532743
0.86528 -0.03594165295 -0.1375650167 0.9818831682 -0.08563093841 0.9810225368 -0.08408151567 -0.000584282272 -0.1409147084
0.86592 -0.03635255992 -0.1378222853 0.9816717505 -0.08541852981 0.9817224145 -0.08517456055 -0.001349964994 -0.1412689686
0.86656 -0.03609008342 -0.137903437 0.9813268185 -0.08559665829 0.9806368947 -0.08466748893 -0.001057897462 -0.1414286047
0.8672 -0.03578548506 -0.1382103711 0.9818612933 -0.08569134772 0.9814309478 -0.08444232494 -0.001165207359 -0.1417137682
0.86784 -0.0360619314 -0.1381860226 0.9816312194 -0.08606533706 0.9814308286 -0.08464991301 -0.00146992458 -0.1415044963
0.86848 -0.03643368557 -0.1382559091 0.9819888473 -0.08581399173 0.9816855788 -0.08475503325 -0.0007719462155 -0.14118056
0.86912 -0.03614679351 -0.1376749575 0.9815840125 -0.08584423363 0.9812844992 -0.08482579887 -0.001157694147 -0.1417376846
0.86976 -0.0364978388 -0.1381538957 0.9814677238 -0.08595975488 0.9816460609 -0.08437855542 -0.000841254252 -0.1419253349
0.8704 -0.0365954116 -0.1384732276 0.9815522432 -0.08616619557 0.981792748 -0.08489685506 -0.001075049164 -0.1419521719
0.87104 -0.03634983674 -0.1382183284 0.9814410806 -0.08617120981 0.9815319777 -0.08498219401 -0.001028421801 -0.1421660781
0.87168 -0.03673940897 -0.1387342364 0.9815967679 -0.08621429652 0.9813585281 -0.08472470939 -0.001152583398 -0.1421006024
0.87232 -0.03663371876 -0.1386925578 0.9817128778 -0.08614265174 0.9820095301 -0.08473022282 -0.000725225138 -0.1422874331
0.87296 -0.03702563792 -0.1385015398 0.9816667438 -0.08620646596 0.9810572267 -0.08581954986 -0.001145514892 -0.1420479715
0.8736 -0.03704995289 -0.1384886205 0.9816703796 -0.08659303188 0.9809567332 -0.08504888415 -0.0007348218933 -0.1425109357
0.87424 -0.03688520193 -0.1384816021 0.981107235 -0.08641750365 0.9813308716 -0.08487794548 -0.0003012759262 -0.1427542567
0.87488 -0.03697273508 -0.1386862248 0.9812556505 -0.08614911884 0.9815458655 -0.08493322134 -0.0002429243323 -0.1426932514
0.87552 -0.03721562773 -0.1388587952 0.9812841415 -0.08648926765 0.9814243913 -0.08542764932 -0.0004859457258 -0.1432565004
0.87616 -0.03760423139 -0.1390849799 0.9814454913 -0.08652630448 0.9816104174 -0.08533652127 -0.0005639612209 -0.1428119838
0.8768 -0.03714603931 -0.1387009025 0.9814037681 -0.08661114424 0.9809862375 -0.08491684496 -0.0005783791421 -0.1433449835
0.87744 -0.03754223138 -0.139208436 0.9815728664 -0.08642688394 0.9810243249 -0.08508917689 -0.0004865892115 -0.1429272741
0.87808 -0.03747196868 -0.139215529 0.9815509915 -0.08662869781 0.9807149172 -0.08547431231 -0.0005314081209 -0.1433107257
0.87872 -0.03757346794 -0.1391465366 0.9815181494 -0.08663160354 0.9812411666 -0.08515739441 -0.0003613745794 -0.1431268752
0.87936 -0.03789940104 -0.1394150108 0.9812506437 -0.08668740839 0.9807288647 -0.0849961713 -0.0004385815701 -0.143469885
0.88 -0.03787440807 -0.1392192245 0.9816626906 -0.08706139773 0.9810479283 -0.08555679023 -0.000603235676 -0.1437522769
0.88064 -0.03791033104 -0.1394932121 0.981271565 -0.08692728728 0.9812170267 -0.08568225801 -0.0004848919634 -0.1436686665
0.88128 -0.03807576746 -0.1397202909 0.981695652 -0.08682686836 0.9812224507 -0.08520907164 -0.0007205862785 -0.1438420415
0.88192 -0.03789260611 -0.1396035999 0.9813786745 -0.08683963865 0.9811608791 -0.08551161736 -0.00033697451 -0.1441815943
0.88256 -0.03784304485 -0.1395194381 0.9814737439 -0.08715457469 0.9816493988 -0.08577667922 -0.0008052734775 -0.1445734203
0.8832 -0.03805014491 -0.1395763606 0.9811975956 -0.08708520234 0.9811695814 -0.08556491137 -0.0004783420591 -0.1443134844
0.88384 -0.03803240135 -0.1399385929 0.9815478921 -0.0870673582 0.9812213182 -0.08575355262 -0.0003478149883 -0.144389838
0.88448 -0.03766464069 -0.1401208192 0.981721282 -0.08731842786 0.9808603525 -0.0854234919 -0.0003720732057 -0.1446419954
0.88512 -0.03820910677 -0.1400122941 0.9815942049 -0.08714216202 0.9811308384 -0.08572088182 -0.0001895021414 -0.1447670758
0.88576 -0.03781289235 -0.1400483549 0.9813804626 -0.08714276552 0.9812917709 -0.08549014479 -0.0001251803187 -0.144705981
0.8864 -0.03793692961 -0.1403336972 0.9818350673 -0.08716476709 0.9807819128 -0.08624923229 -0.000509702717 -0.1446317732
0.88704 -0.03796178848 -0.1406011879 0.9816922545 -0.08699345589 0.9811064005 -0.08596980572 -5.267781671e-05 -0.1447434723
0.88768 -0.03837471455 -0.1408553571 0.9816955924 -0.08738761395 0.9813741446 -0.08589924127 -0.0007155081257 -0.1447261572
0.88832 -0.03822235018 -0.1408613622 0.98133111 -0.08702077717 0.9807685018 -0.08602191508 1.277422416e-05 -0.1446384341
0.88896 -0.03828856349 -0.1410395354 0.9816784263 -0.08754347265 0.980828166 -0.08620248735 -0.0001923818782 -0.1445262283
0.8896 -0.0385280326 -0.1412681937 0.981333077 -0.08761186153 0.9810680151 -0.08587323874 -0.000193957414 -0.1450058967
0.89024 -0.03845487162 -0.1410623789 0.9815047979 -0.0872919634 0.9808815718 -0.08616379648 0.0003129930701 -0.1452604085
0.89088 -0.03812494501 -0.1412242204 0.9817481041 -0.08730930835 0.9812436104 -0.08621124923 -0.0006210691645 -0.1452054232
0.89152 -0.03798932582 -0.1418540627 0.9818241 -0.08769043535 0.9813097715 -0.08625215292 -0.0005425037234 -0.145367071
0.89216 -0.03808835521 -0.1415349394 0.9815055728 -0.08762702346 0.9808854461 -0.08671499789 -0.0004970920272 -0.1455349475
0.8928 -0.03837130591 -0.1418031454 0.9813789725 -0.08753391355 0.9808775187 -0.08637280762 -0.0004587016883 -0.145351544
0.89344 -0.03846131265 -0.1420996785 0.981384933 -0.0877712369 0.9809747338 -0.08639800549 -0.0005227233632 -0.1454229653
0.89408 -0.03817320615 -0.1420749128 0.9813537002 -0.08801801503 0.9808811545 -0.0864437595 -0.0004110999871 -0.1454184651
0.89472 -0.03838407621 -0.1419905275 0.9811023474 -0.08804775029 0.9800536036 -0.08649013191 -6.162875798e-05 -0.145349443
0.89536 -0.03819539025 -0.1422223449 0.9810653329 -0.08812019974 0.981154263 -0.08722738922 -0.0003243607935 -0.1459160149
0.896 -0.03864218295 -0.1424010098 0.9811813831 -0.08817829937 0.9811220765 -0.08692156523 -0.0006882528542 -0.1457876563
0.89664 -0.03830722719 -0.1427057832 0.9810456038 -0.08820085973 0.9809604883 -0.08684252948 -0.0007318272255 -0.1453472227
0.89728 -0.03846654668 -0.1423091143 0.9811470509 -0.08846187592 0.9807693958 -0.08704102784 -0.0008100512205 -0.1455218643
0.89792 -0.03856254369 -0.1427651644 0.9810761809 -0.08818903565 0.9811221361 -0.08737265319 -0.0005294517614 -0.1456768662
0.89856 -0.03870892897 -0.1426775604 0.9809656143 -0.08855177462 0.9811592102 -0.08697200567 -0.0008365836693 -0.145810619
0.8992 -0.03850835562 -0.1429834217 0.9808135033 -0.08846272528 0.9810219407 -0.08695353568 -0.0005317603936 -0.1458990872
0.89984 -0.03869231418 -0.1431403607 0.9812871218 -0.08834575862 0.9807953238 -0.08712952584 -0.0007306027692 -0.1457103193
0.90048 -0.03880629316 -0.1431328654 0.9810763597 -0.08853323013 0.980618 -0.08678499609 -0.0002826417331 -0.1462758929
0.90112 -0.03884773701 -0.1431218833 0.9812172651 -0.08844336122 0.9810584188 -0.08701830357 -0.0004679965787 -0.1462001354
0.90176 -0.03883984685 -0.1429844946 0.9812883735 -0.08833905309 0.9809340835 -0.08711799979 -0.0004332650569 -0.1466633528
0.9024 -0.03896588832 -0.1432792544 0.9808824658 -0.08862420917 0.9809783101 -0.08774393797 -0.0002819193178 -0.1465568095
0.90304 -0.03918013722 -0.1432729959 0.98099792 -0.08889516443 0.9808541536 -0.08776087314 -0.0003065387427 -0.1465570629
