!Created with skrf (http://scikit-rf.org).
# GHz S RI R 50.0 
!freq ReS11 ImS11 ReS21 ImS21 ReS12 ImS12 ReS22 ImS22
0.01 0.04208566993 0.1291924119 0.1714406312 -1.035828352 0.1320215613 -0.9510982037 -0.04505562782 -0.06290789694
0.011799179917991799 0.1473549157 0.05193316564 -0.1453433633 -1.031608939 -0.1431708187 -0.9258441925 -0.02722211741 -0.02130061947
0.0135983598359836 0.1489242762 -0.06297977269 -0.4367955327 -0.9543985724 -0.336261034 -0.878031671 -0.03940049559 -0.001811251277
0.015397539753975398 0.08135990053 -0.1426528543 -0.683552146 -0.7805665731 -0.5757172108 -0.7641758919 -0.01247409359 0.02988816053
0.017196719671967196 -0.02725303732 -0.1539157778 -0.8608964086 -0.5608448386 -0.7574057579 -0.5790056586 0.02468978986 0.02089721709
0.018995899589958995 -0.1153548136 -0.09540319443 -0.9617466331 -0.3163516521 -0.8949770331 -0.3583579063 0.03281091526 0.004440261051
0.020795079507950794 -0.1444406509 0.01728276722 -1.002713799 -0.01371463761 -0.9545258284 -0.09969805181 0.03791997582 0.004994658288
0.022594259425942592 -0.1011238247 0.1131397858 -0.9787482619 0.2296382338 -0.9232618809 0.1587572247 0.04110541567 -0.01988955028
0.024393439343934394 -0.007836293429 0.1681971252 -0.8761351109 0.4817575514 -0.8632056117 0.4133248329 0.03040841036 -0.02031718753
0.02619261926192619 0.09796669334 0.1556441039 -0.706656754 0.6923446059 -0.7211157084 0.6108646393 0.02571717836 -0.0202173125
0.02799179917991799 0.1813083142 0.07787258923 -0.494086206 0.8402565718 -0.5260821581 0.7765622735 0.02542727254 -0.02021900937
0.02979097909790979 0.2034200877 -0.02664406598 -0.2554829419 0.9289665818 -0.3285794854 0.8860971928 0.01657485776 -0.03162281215
0.031590159015901585 0.1599541754 -0.1255897582 -0.00582708139 0.9606028795 -0.06319010258 0.9383208752 0.0192118641 -0.02416028269
0.033389338933893384 0.07039996237 -0.1852243245 0.228592068 0.9231287837 0.1838313639 0.9267522097 0.01147142053 -0.02210621722
0.03518851885188518 -0.03821842372 -0.1723022461 0.4759144783 0.8177501559 0.4205685258 0.8501669168 0.008882600814 -0.02185091749
0.03698769876987699 -0.1460979283 -0.09043760598 0.7982417345 0.5101435184 0.4602078497 0.8280469179 -0.0164907258 0.001863269019
0.03878687868786879 -0.1691773981 0.009967558086 0.8895353675 0.3092565536 0.6585898995 0.6598680615 -0.01144591905 -0.00420733029
0.040586058605860585 -0.1307602972 0.1075011045 0.9372211695 0.09253690392 0.8354090452 0.4333923459 -0.008529927582 -0.002140304772
0.04238523852385238 -0.03931168467 0.1638221592 0.9279007316 -0.12541686 0.9236644506 0.1755198836 -0.0001754756668 -0.003990635276
0.04418441844184418 0.07256983221 0.1591052711 0.866394937 -0.3367177248 0.9203002453 -0.1096136868 0.009667487815 -0.005305582657
0.04598359835983598 0.1613779664 0.091861099 0.7586671114 -0.527766943 0.8510253429 -0.3779376745 0.01045816299 -0.01414534729
0.04778277827782778 0.1973300129 -0.01618795469 0.6151714325 -0.6811956167 0.7044299841 -0.6120032072 0.01090634149 -0.02488123812
0.04958195819581958 0.1666227281 -0.1243174672 0.4433381557 -0.7992680073 0.4932666123 -0.7823612094 0.007614878006 -0.03326426446
0.051381138113811384 0.08076812327 -0.1948819757 0.2287861854 -0.8843252659 0.2601512671 -0.8885281086 -0.004409304354 -0.03427878767
0.053180318031803175 -0.03341378272 -0.2031093687 -0.008825789206 -0.9094560742 0.02129950747 -0.92504704 -0.01614416018 -0.02971008793
0.05497949794979498 -0.1337858588 -0.1464066207 -0.2419532835 -0.873342514 -0.2198412418 -0.8974077106 -0.02634588815 -0.01799802668
0.05677867786778677 -0.1873310953 -0.03782445192 -0.464271754 -0.7771974206 -0.4490178227 -0.8093395233 -0.02952409722 -0.001688536257
0.05857785778577857 -0.1714561433 0.08029808849 -0.6487420201 -0.6287479401 -0.640776813 -0.6616480947 -0.0219338648 0.0151613038
0.06037703770377038 -0.09265047312 0.168337062 -0.7845523953 -0.4364297688 -0.7889053226 -0.4707398415 -0.007434781641 0.02650319785
0.06217621762176217 0.02354194224 0.2009382844 -0.8679192066 -0.2191247493 -0.8822901249 -0.2463905811 0.01169129275 0.03129383922
0.06397539753975397 0.1374068707 0.1612167507 -0.8905805349 0.01374392863 -0.9197972417 -0.006595907733 0.02974679135 0.0242889896
0.06577457745774577 0.2098139375 0.06716819853 -0.8536886573 0.2402495295 -0.8886219263 0.2289589942 0.03977780789 0.00561737828
0.06757375737573758 0.2182445377 -0.05320433527 -0.7592047453 0.4491891265 -0.7946574688 0.4539481103 0.04233177379 -0.01476292126
0.06937293729372937 0.1608401686 -0.1577721536 -0.6177175045 0.6306311488 -0.6494709253 0.640483439 0.03144340217 -0.03583839908
0.07117211721172116 0.05258093402 -0.2147359401 -0.4372052848 0.7688421011 -0.4603454173 0.7910078168 0.01051031798 -0.04556393623
0.07297129712971297 -0.06975259632 -0.2010252774 -0.2245476991 0.8556045294 -0.2396522164 0.8770754337 -0.0101688141 -0.04506931454
0.07477047704770476 -0.1646671146 -0.1218055114 0.006023321766 0.8850792646 -0.001244314481 0.9140769243 -0.03365843743 -0.02766233496
0.07656965696569658 -0.2001261115 -0.002402124228 0.2349909097 0.8505904675 0.2377278805 0.8750578761 -0.04143370688 -0.002696915762
0.07836883688368836 -0.1648968458 0.1166953668 0.44685179 0.7621994019 0.4573996365 0.785474062 -0.03643734381 0.02536472119
0.08016801680168016 -0.06732917577 0.196260497 0.6280905008 0.6154852509 0.6492023468 0.6404372454 -0.01829672605 0.04554501921
0.08196719671967197 0.05520454049 0.2101933807 0.7637855411 0.4352275431 0.7858898044 0.4433891475 0.01242634188 0.05136600882
0.08376637663766377 0.1664266735 0.1542671621 0.8477092981 0.2268457413 0.8779485226 0.2150448561 0.03985286877 0.04452880099
0.08556555655565555 0.2278117836 0.04684987292 0.8757513762 0.00622576708 0.902312994 -0.02298971452 0.05935109779 0.02177988552
0.08736473647364736 0.221622318 -0.07601057738 0.8491842151 -0.2181679904 0.8626343608 -0.2630298138 0.06474735588 -0.00755542051
0.08916391639163916 0.1496532261 -0.1750218123 0.7638362646 -0.4289073348 0.7678854465 -0.4753259122 0.05112716556 -0.03610812128
0.09096309630963097 0.03542339802 -0.2195562422 0.6273298264 -0.6146134734 0.615994513 -0.6568725109 0.02712643705 -0.05497223884
0.09276227622762276 -0.08324624598 -0.1943253577 0.4468361735 -0.7569217682 0.4274825454 -0.7951347232 -0.007582805119 -0.05650127307
0.09456145614561455 -0.1687482446 -0.108533971 0.2329037338 -0.8473883867 0.208713904 -0.8783425689 -0.03624905646 -0.03878197446
0.09636063606360636 -0.1920275241 0.008669850416 0.001134255901 -0.8772713542 -0.02622023784 -0.902933836 -0.05270036682 -0.008971205913
0.09815981598159815 -0.1506307274 0.1180942133 -0.2279988676 -0.8512590528 -0.2581250668 -0.8650966883 -0.05020459741 0.02635953389
0.09995899589958995 -0.05484553427 0.185292244 -0.4388793111 -0.7658457756 -0.4756615758 -0.7620599866 -0.02880150825 0.05415631458
0.10175817581758176 0.05918953568 0.1887456477 -0.617657423 -0.6290131211 -0.6595784426 -0.6127347946 0.004122112878 0.07006160915
0.10355735573557355 0.1561785191 0.1298151016 -0.7618467212 -0.4491925836 -0.7955906391 -0.419831872 0.03974158317 0.06489723176
0.10535653565356534 0.2018074989 0.02882098407 -0.8526050448 -0.236262247 -0.8721299171 -0.2024576366 0.06802589446 0.04116962478
0.10715571557155715 0.1845564097 -0.07890387625 -0.8850567341 -0.005016143899 -0.8931068182 0.03114047274 0.08065138012 0.008653478697
0.10895489548954895 0.1081763878 -0.1547345519 -0.8309231997 0.3061190546 -0.8782874942 0.1806872487 0.07223664224 -0.02071451396
0.11075407540754076 0.005344406236 -0.179804042 -0.7408605218 0.4898397624 -0.7920809388 0.4244201481 0.05002873018 -0.04710594565
0.11255325532553254 -0.0940695554 -0.1414090097 -0.6084457636 0.6513396502 -0.6338766217 0.6406236887 0.01815698855 -0.05602551252
0.11435243524352434 -0.1535363793 -0.05426711589 -0.437795341 0.7805393338 -0.4227958024 0.7902718782 -0.009050575085 -0.04673134163
0.11615161516151615 -0.1521738917 0.05263485759 -0.2034101337 0.8670207262 -0.2161662877 0.8739501238 -0.02749909833 -0.02046609484
0.11795079507950795 -0.09144704044 0.1414091289 0.04281952232 0.8886213899 0.01066870242 0.9068552256 -0.02835060842 0.01034856867
0.11974997499749974 0.008089418523 0.1800378859 0.2782868743 0.8415177464 0.2412636578 0.8750963807 -0.009076150134 0.03570407629
0.12154915491549154 0.1149131134 0.1562507302 0.4902780354 0.7318992019 0.4552180469 0.7841959 0.02081718482 0.04488542303
0.12334833483348334 0.1904554665 0.07914839685 0.6622729897 0.5787686706 0.6407436132 0.6401922703 0.05334223062 0.03521451354
0.12514751475147515 0.2128800899 -0.02705030516 0.7879231572 0.3929508626 0.7850224972 0.4454411268 0.07557392865 0.008336773142
0.12694669466946695 0.1740728021 -0.1295128912 0.8642508388 0.1858821511 0.8762119412 0.2172836214 0.08066527545 -0.02896504477
0.12874587458745876 0.08733254671 -0.1949592084 0.8874541521 -0.0307169687 0.8968768716 -0.03181635588 0.0654040128 -0.06332638115
0.13054505450545054 -0.02069506422 -0.2048448026 0.85530442 -0.2511612475 0.8501238227 -0.272387296 0.03200151399 -0.08761573583
0.13234423442344234 -0.1171075702 -0.156001091 0.7700739503 -0.4613477886 0.7436896563 -0.4915036857 -0.009700929746 -0.08936905116
0.13414341434143415 -0.1721064597 -0.06429632008 0.6285570264 -0.6450755 0.5874224305 -0.672922492 -0.04942991957 -0.07162272185
0.13594259425942593 -0.1691089123 0.03909708932 0.4438156784 -0.7870451212 0.3865583837 -0.8023457527 -0.0744343549 -0.03545517847
0.13774177417741776 -0.1121533737 0.1220772564 0.2243667245 -0.8770789504 0.161577031 -0.8746097684 -0.07810962945 0.008124480955
0.1395409540954095 -0.02194239385 0.1605777889 -0.01505267154 -0.9072673321 -0.06996911019 -0.8873699307 -0.06078823283 0.04723326862
0.14134013401340134 0.07017709315 0.1428083777 -0.2510857284 -0.8725571036 -0.2984857559 -0.8394090533 -0.02604589798 0.07174596936
0.14313931393139315 0.1340551376 0.07955953479 -0.473869592 -0.7744030952 -0.5036754012 -0.7355537415 0.01488435734 0.07660698146
0.14493849384938493 0.1509408355 -0.006626423914 -0.6640507579 -0.6227900982 -0.6751475334 -0.5823082924 0.05075769499 0.06118383259
0.14673767376737673 0.1160177812 -0.08418433368 -0.8070040941 -0.42548123 -0.802831769 -0.3886554241 0.07117350399 0.03075529821
0.14853685368536854 0.04447454587 -0.1268491298 -0.8908318281 -0.198922962 -0.8778879046 -0.1662544608 0.07400021702 -0.003845917061
0.15033603360336031 -0.03824637458 -0.1204869971 -0.9134956002 0.04112767801 -0.8927550316 0.06886330992 0.05891874805 -0.03191303462
0.15213521352135212 -0.10208866 -0.06766916066 -0.8697329164 0.2821906209 -0.8418329358 0.2984243035 0.03324847668 -0.04538597539
0.15393439343934393 -0.1254721135 0.01251077559 -0.7645101547 0.5009208918 -0.7348645926 0.5103209615 0.005617070012 -0.04290664569
0.1557335733573357 -0.09879098088 0.09197562933 -0.6061595678 0.6830464602 -0.5763955116 0.6829208136 -0.01266801078 -0.02610577457
0.15753275327532754 -0.03228809312 0.1444659233 -0.4038939476 0.8159298301 -0.3785901368 0.8110719323 -0.01681614108 -0.00230010692
0.15933193319331931 0.05236390233 0.1523630321 -0.1763764024 0.8932519555 -0.1538864523 0.8802363873 -0.005499416962 0.01953259297
0.16113111311131112 0.1270845532 0.113007918 0.06070340797 0.9075616002 0.08083567023 0.891032815 0.01653509773 0.0301674325
0.16293029302930293 0.1702418476 0.04020576179 0.2959237397 0.8580108285 0.3098860979 0.8392080069 0.0414801836 0.02597789466
0.1647294729472947 0.1680732071 -0.04316839948 0.5116143227 0.7523254156 0.5125751495 0.7307419777 0.06094025448 0.006498544943
0.16652865286528654 0.1223770231 -0.1111065075 0.691057384 0.5922550559 0.6858482361 0.5710191727 0.06599925458 -0.02166865021
0.16832783278327831 0.04947840422 -0.1436832547 0.8253922462 0.3919442296 0.8073735237 0.3752322495 0.05727140605 -0.04939191416
0.1701270127012701 -0.02666555159 -0.1313791871 0.8998810649 0.1630354375 0.8780839443 0.1511913389 0.03307155892 -0.06952087581
0.17192619261926192 -0.08229108155 -0.08155538887 0.9132988453 -0.07815349847 0.8867534995 -0.08478750288 0.002939062892 -0.07403894514
0.1737253725372537 -0.09923265874 -0.011542405 0.8620226383 -0.3152160943 0.8334187865 -0.3144933581 -0.02579584345 -0.06330633163
0.17552455245524554 -0.07599561661 0.05219775438 0.7502752542 -0.5305398703 0.7209797502 -0.5232445002 -0.04539889842 -0.04011941329
0.1773237323732373 -0.02200286835 0.08935065567 0.5846281648 -0.7076455951 0.5583429933 -0.693225801 -0.05008127913 -0.01171449386
0.1791229122912291 0.04117945954 0.08830064535 0.3787637949 -0.8365337849 0.3568374813 -0.8167230487 -0.04074277729 0.01333608944
0.18092209220922092 0.09027408808 0.05144819617 0.1458654553 -0.9059631824 0.133220315 -0.8819830418 -0.02210751921 0.02824420296
0.1827212721272127 0.1085740402 -0.006145720836 -0.09597810358 -0.910631299 -0.1028737277 -0.885763526 8.508217434e-05 0.03252711892
0.1845204520452045 0.08887217194 -0.06250406802 -0.3311130702 -0.8548929691 -0.3291869164 -0.8267078996 0.01890704036 0.02541751042
0.1863196319631963 0.04136164859 -0.09777822345 -0.5432870388 -0.7373722792 -0.5348460078 -0.7115142941 0.02961209044 0.01068170182
0.1881188118811881 -0.01844185591 -0.09924452007 -0.7173426151 -0.569486022 -0.7009934783 -0.5469991565 0.03152084351 -0.006558910478
0.18991799179917992 -0.0690728128 -0.06616324186 -0.8410192132 -0.3605002761 -0.8216985464 -0.3462269306 0.02361564524 -0.01990542747
0.1917171717171717 -0.09336970001 -0.01053695846 -0.90669626 -0.1254491955 -0.8809383512 -0.1212778166 0.01066196058 -0.02643659525
0.1935163516351635 -0.0822077319 0.04917504638 -0.9067418575 0.1162092015 -0.8811755776 0.113690041 -0.002452424262 -0.02278451063
0.1953155315531553 -0.04045308381 0.09299886227 -0.8419602513 0.3492661417 -0.8216201067 0.3406988978 -0.01102559455 -0.01313896198
0.1971147114711471 0.01812975295 0.1063453853 -0.720058918 0.5572478175 -0.7033873796 0.5433037877 -0.01172876637 -0.0009345249273
0.1989138913891389 0.07340224087 0.08608839661 -0.5484672189 0.7243357897 -0.5375435948 0.7090016603 -0.004826814868 0.009201800451
0.2007130713071307 0.1069190726 0.03993510827 -0.339207381 0.8419228196 -0.3333253562 0.8235269189 0.007260247134 0.01330413576
0.2025122512251225 0.1088802516 -0.015903363 -0.1087657362 0.9004487395 -0.106010884 0.8813528419 0.01850748062 0.008957294747
0.20431143114311429 0.08058407903 -0.06113567203 0.1312742531 0.8970528245 0.1293250769 0.8779720664 0.02616785467 -0.00181991572
0.2061106110611061 0.03213602677 -0.08135887235 0.3607651591 0.832638979 0.35117504 0.8137746453 0.0281881243 -0.01595596038
0.2079097909790979 -0.0167305395 -0.06926038116 0.5660846829 0.7084572911 0.5520123243 0.6933137178 0.02118805982 -0.02883026749
0.2097089708970897 -0.04790227115 -0.03164182231 0.7321299911 0.5344614983 0.7127354741 0.5248565674 0.008670034818 -0.03705124184
0.2115081508150815 -0.04979763925 0.01680913195 0.8459109068 0.3228439689 0.8243576884 0.3208268285 -0.005995181389 -0.0384115316
0.21330733073307329 -0.02204363607 0.05679821223 0.8993756771 0.08926396072 0.8789938688 0.09479905665 -0.01956753992 -0.03369631246
0.2151065106510651 0.02532607689 0.0725158304 0.8897101879 -0.1510881037 0.8717029691 -0.1362258345 -0.02920759656 -0.02405922115
0.2169056905690569 0.07462891191 0.05607661977 0.8155810237 -0.3766176105 0.8059653044 -0.359564513 -0.03424612805 -0.01194525976
0.21870487048704867 0.1076855585 0.01147740334 0.6863347292 -0.5760352612 0.6830537319 -0.5569495559 -0.03438046575 -1.632937892e-05
0.2205040504050405 0.110155344 -0.04722351208 0.5113546848 -0.7335383892 0.5135653019 -0.7148766518 -0.03078247234 0.00952206552
0.22230323032303229 0.07663000375 -0.1014497578 0.3004763722 -0.8390011787 0.3092139065 -0.8235561252 -0.0254743211 0.01540390681
0.22410241024102406 0.01555600483 -0.1309474856 0.07148387283 -0.8858938217 0.08197528124 -0.8765223622 -0.02087578923 0.01805727743
0.2259015901590159 -0.05626771599 -0.1223704442 -0.1623302251 -0.8711112738 -0.1495363265 -0.8668630719 -0.01932359859 0.01845374331
0.22770077007700767 -0.11565198 -0.07503631711 -0.3822270036 -0.7978936434 -0.3690264225 -0.7962312698 -0.02113331854 0.02272398397
0.2294999499949995 -0.1418244541 -0.001201362466 -0.5741984844 -0.6687036753 -0.5638504028 -0.6714956164 -0.02271104231 0.03113978915
0.23129912991299129 -0.1263789386 0.07813767344 -0.727286458 -0.4940652847 -0.7181337476 -0.5003964305 -0.01820150018 0.04406633228
0.23309830983098306 -0.0752177909 0.1418935508 -0.860865593 -0.1640417278 -0.7706055641 -0.414572686 -0.009454076178 0.06085208058
0.2348974897489749 0.002595474478 0.1646725237 -0.8739324808 0.03751042858 -0.8569282293 -0.1737999469 0.01024092641 0.06750540435
0.23669666966696667 0.08072597533 0.144708544 -0.8417999148 0.2365278155 -0.8690549731 0.08099684119 0.03414205462 0.06417048723
0.23849584958495848 0.1364438683 0.08825133741 -0.7630829215 0.4244656563 -0.8071141243 0.3285644054 0.05597832054 0.05044187233
0.24029502950295029 0.1534927338 0.01367281005 -0.6458255053 0.5880506635 -0.6767457724 0.5480256677 0.06965129822 0.0278770607
0.24209420942094206 0.1291351765 -0.05523612723 -0.4925775826 0.723112762 -0.4906218648 0.718735218 0.07349516451 0.0009530265816
0.2438933893389339 0.07291010767 -0.09643650055 -0.2865693271 0.8276221752 -0.2868315279 0.8213677406 0.06400580704 -0.02300108038
0.24569256925692567 0.00544447545 -0.0981182158 -0.06001087651 0.8755007386 -0.06333132833 0.8677488565 0.04603912681 -0.03824268654
0.24749174917491748 -0.04894674942 -0.06068442389 0.1727350354 0.8606010079 0.1641814709 0.8558746576 0.02433030494 -0.04390503839
0.24929092909290929 -0.07000678033 0.0009145902586 0.3929754198 0.7837776542 0.3817431629 0.7817677259 0.005406132434 -0.03816708177
0.25109010901090106 -0.05001426116 0.06331277639 0.5836512446 0.6507781148 0.5719959736 0.6544728279 -0.00637341477 -0.02600167692
0.2528892889288929 0.004374526907 0.1030243784 0.7313344479 0.4726696312 0.7242761254 0.483050257 -0.009086373262 -0.01178307924
0.2546884688468847 0.07444100827 0.1039627939 0.8251562715 0.263381958 0.8231702447 0.2773963809 -0.003691592952 -0.001800331287
0.2564876487648765 0.1347893924 0.06341153383 0.8615439534 0.04086821154 0.8654493093 0.05311726779 0.004992443137 0.0006803579745
0.2582868286828683 0.1649963856 -0.006099528167 0.8391757011 -0.1822748035 0.84956038 -0.1751308888 0.01200363785 -0.004611269105
0.26008600860086006 0.1526927352 -0.08371239901 0.7617567778 -0.3910488784 0.7738313675 -0.3907803893 0.01175530907 -0.01470614411
0.2618851885188519 0.1000640765 -0.1456536353 0.6340595484 -0.5714745522 0.6440612078 -0.5774784088 0.003323283046 -0.02336169593
0.2636843684368437 0.02107180469 -0.1716828942 0.4652472138 -0.714691937 0.4700043201 -0.7247068286 -0.01257906575 -0.02628339455
0.2654835483548355 -0.06113007292 -0.1534028351 0.2657008171 -0.8106495738 0.26473248 -0.8216968775 -0.03041018732 -0.01879893243
0.2672827282728273 -0.1220284626 -0.09507024288 0.04714860395 -0.852178812 0.04290278256 -0.8611229062 -0.04366023093 -0.0004910373245
0.269081908190819 -0.1442963779 -0.01360483561 -0.176576674 -0.8355888724 -0.1836356521 -0.842214942 -0.04688315839 0.02532621101
0.2708810881088109 -0.1208455861 0.06553930044 -0.3876259625 -0.7613422871 -0.3959299922 -0.7628777027 -0.0359037146 0.05171766132
0.2726802680268027 -0.06070351973 0.1188861281 -0.5725330114 -0.6335128546 -0.5785483718 -0.6341868043 -0.01246077381 0.07107240707
0.27447944794479445 0.01595392451 0.1307673305 -0.7168082595 -0.461860925 -0.7233905792 -0.4607255161 0.01903754473 0.07694596797
0.2762786278627863 0.08387408406 0.1000458598 -0.8121241927 -0.2601006329 -0.8178394437 -0.2560114264 0.05026964843 0.06777321547
0.27807780778077806 0.1220735088 0.03950747102 -0.8517731428 -0.04031744599 -0.8555306196 -0.03598900512 0.07366461307 0.04412290454
0.27987698769876984 0.1192118973 -0.02978236414 -0.8330425024 0.1826183349 -0.8345431089 0.1870633215 0.08273185045 0.01238734461
0.2816761676167617 0.07838291675 -0.08320333809 -0.7570826411 0.3929593861 -0.7570238709 0.3980162144 0.07595150173 -0.0184645839
