!Keysight Technologies N9950B: A.12.38
!Date: Friday, 28 April 2023 16:35:38
!Timezone: (UTC-06:00) Central Time (US & Canada)
!Model: N9950B
!Serial: MY61131330
!GPS Latitude: 
!GPS Longitude: 
!GPS TimeStamp: 0001-01-01 00:00:00Z
!GPS Seconds Since Last Read: 0
!CHECKSUM:1501518841
!Correction: S11(ON U)S21(ON U)S12(ON U)S22(ON U)
!S2P File: Measurements:S11,S21,S12,S22:
# Hz S DB R 50
800000000	-1.09248084082477	164.177351851087	4.41070048387005	50.7777655638814	5.66508550340166	-27.6561693016373	7.88752703556069	-135.847011358601	
803200000	-13.3313925191159	93.1859131452512	4.40866158996705	2.43377485269642	4.40268549141355	2.70883594575115	-7.85616877236384	-94.4913440569667	
806400000	-12.905122454554	94.4949188712242	4.84896562538692	3.66523152384481	4.84615912824824	3.75421066902859	-6.8795709271087	-98.9735457005368	
809600000	-12.8713150941587	94.8746572179281	4.52963368124789	0.695169444124438	4.49703850430464	0.670724075486348	-6.46910708136944	-82.4900138537258	
812800000	-13.5095662372144	93.4769125162678	4.3913116870847	2.03654654550053	4.39139914423386	2.07249312078879	-7.74432416194009	-83.8818683030584	
816000000	-0.061133258846627	174.180982146815	4.61001525143523	56.2717058290144	6.02402546249956	-30.4041697310342	7.46969615188854	-142.018867599626	
819200000	-15.5796561320062	83.9460289503765	4.54385190553801	2.35987096979606	4.55432773126108	2.4086594099204	-15.3500545467227	-117.23855279842	
822400000	-0.262805586569431	173.306557894849	4.46059671922497	57.6877076514005	6.04967389598177	-31.5561767404908	7.56187569891154	-141.308956358362	
825600000	-0.372305700055401	-179.916718142959	4.92750922608443	70.044255850126	5.8406273624576	-23.9618699797962	8.42724092589896	-125.310582031521	
828800000	0.311924913881809	174.338634722838	5.48303690367272	57.6154842368608	6.35063304604228	-29.9196605867861	8.62799968316798	-140.532986191431	
832000000	-15.5250116408499	-65.0767753165513	-3.70749787043841	-4.46462079030042	-3.70686008149212	-3.95341333044019	-21.1425649883139	97.9920238132006	
835200000	-0.789608651892556	175.43559491434	3.92009484696639	62.9020615278117	5.57596742266066	-32.2390741914568	7.01851000239152	-137.218696054691	
838400000	-0.635305405748383	172.322463596764	3.97333454171033	59.882690935743	5.70163833198646	-34.2652259955654	7.0086153110197	-140.88870563576	
841600000	-0.420339482105879	170.663813308728	4.613693934057	53.7435619777153	6.11533923556442	-36.597532755054	7.81738236904892	-149.548023846244	
844800000	-18.5319522043345	-15.5075383691428	-4.64801951306042	-5.51782494163468	-4.62969281138387	-5.96171135025621	-21.8584349474344	109.260268942435	
848000000	-1.24415632399158	176.601344932656	3.80634817079325	59.4944700819342	5.06646584528778	-37.8894228042186	6.54429745315942	-148.238671036859	
851200000	-31.102307766084	-50.1330508669576	-4.15799848354752	-3.73592750591951	-4.13823206890101	-3.93436364871128	-28.341219024172	103.478972517451	
854400000	-19.1700324756298	-51.2363747622266	-3.31288672103146	-5.71558317497238	-3.33620755226801	-5.38141394031668	-22.2868707426	106.454024546879	
857600000	-25.044892581285	-10.0363804726072	-3.78485681024877	-2.72223218158056	-3.80106554741473	-2.91393728313696	-25.2590192730563	127.085885649527	
860800000	-0.437479068334025	163.724825584467	6.00349127646628	41.9243329176617	6.5581065845855	-45.5468588064136	9.538477435226	-168.42919342986	
864000000	-16.2975460224463	-66.2251261364546	-3.6877562970856	-4.42212638965305	-3.73249591462412	-4.50071393276983	-21.9124130785053	95.2306868749914	
867200000	-23.864861853794	-49.1824222105461	-3.9132632831431	-4.3686414018433	-3.94888019472926	-4.32464199505065	-23.3504000769147	113.200122681534	
870400000	-4.44277811559247	173.453022804828	2.38216224967671	53.975910709417	3.83925570470219	-46.9628610330468	6.56600956820835	-158.627086986734	
873600000	-35.8807858381494	-29.0861389830306	-3.37951195780667	-3.44710260831019	-3.41961959325334	-3.75957537678254	-30.6668159625756	162.609942121798	
876800000	-25.0452167298688	-19.0928064927341	-3.62311598849237	-3.09478675754089	-3.62207087024282	-2.66959479152306	-24.8152845899235	132.754827658653	
880000000	-19.8348892073696	-21.5669826270649	-3.37209786423913	-2.13149874493544	-3.34175196425724	-1.82591208139523	-22.2804335287297	121.415577744665	
883200000	-21.6889711932725	-16.3613362587169	-3.28781677919588	-4.75408967296456	-3.31365774401744	-4.672394584684	-22.5262886934781	128.711791215634	
886400000	-21.0774317825315	56.7580386249186	3.55464175938338	0.506831471954654	3.5420881821155	0.588223072231243	-21.002454817309	-146.181372781012	
889600000	-1.62985660678753	173.496001919315	4.81969833698052	54.6510612582535	5.36334378937909	-35.2211250423817	8.22955578871266	-148.444769644472	
892800000	-26.304531787902	70.4629335479566	-3.48308948394773	-3.66410188611471	-3.46976368184453	-3.69219814856087	-19.7696438655334	-162.133947434508	
896000000	-37.76002336597	-127.932962980374	-3.31766126562801	-5.73920351147694	-3.36474181103725	-5.87004306611679	-33.7265974854826	-173.51491971488	
899200000	-30.9247028433191	-14.5557960599804	-2.58312543576162	-2.03403928951744	-2.67045965418224	-1.65443696302057	-24.0340397120153	163.522237692537	
902400000	-24.8728801488944	26.3450101828378	-2.88786313442084	-4.86167075933673	-2.88257615620958	-4.96621234089758	-20.0403094636436	153.282948035746	
905600000	-25.2514441803426	0.346496649771467	-2.51143840002602	-2.46144809668303	-2.49078970783813	-2.76315098395104	-21.2905678406142	148.855898626087	
908800000	-23.1293413051532	101.267913569855	3.09341695045392	1.03524276355424	3.05396394049055	0.787961431354976	-20.3728592376367	-80.3582706194634	
912000000	-23.4136360352392	-38.080457666685	-2.92289681577787	-5.47652937499182	-2.87546416103349	-5.08204018653746	-22.9379502530257	117.428285427683	
915200000	-20.9757701807728	-21.7330511311999	-2.20159322887357	-6.21375486921913	-2.21864091054667	-6.23090661228483	-20.4903128165797	120.767749809171	
918400000	-19.8496094062603	-31.2623744430655	-2.1850677616517	-5.83970022567867	-2.17338495369607	-5.54410965724003	-20.4516016202671	112.412747195102	
921600000	-2.88471387802105	-166.611890023943	4.31654242891601	64.4792196164855	5.57679124318302	-33.0830295274913	9.39196297982127	-151.885815535721	
924800000	-22.2160746320177	10.6194780334529	-2.26267789450434	-4.09266000438181	-2.25199532564765	-3.68499444789956	-19.2253703168454	139.558328376344	
928000000	-20.5606368103552	-41.8609513362466	-2.55460252344735	-1.76466964537891	-2.62041383873084	-1.87556878236639	-21.4898366668686	114.372357954309	
931200000	-22.5724677656114	79.5008462111987	-2.08459229891138	-3.32552180538532	-2.11469559351811	-3.42538042107482	-15.1582890912451	163.489984486571	
934400000	-2.8948250781753	-159.141050438164	5.39479939852948	74.6639495404969	6.39404281842776	-28.0101694836367	11.8531572517841	-143.975616846543	
937600000	-31.2750180119426	-55.7191853589357	-2.17666896715727	-3.83720154497183	-2.16781584199518	-4.09017272337693	-27.4595908148754	171.511079244744	
940800000	-26.6543125582104	26.5737309104924	2.09506699809652	-2.565252344663	2.07135035984278	-2.70665692622825	-26.9335904959457	-121.459602973556	
944000000	-20.7760456668757	82.8367958366222	-1.62357050984634	-6.03923608921188	-1.63108364517242	-5.93091832386101	-15.3142712563637	163.888506103071	
947200000	-2.47916239489166	-164.657252684178	5.27270823673979	66.4045868021657	6.53821561427926	-36.0756889807025	11.3964959707294	-156.480071286444	
950400000	-13.6289396290694	82.9198825357065	0.860332622163138	-4.18932265556463	0.902600050858626	-4.06919261285773	-15.1347419787448	-171.494665382373	
953600000	-17.0830004029095	-1.89442879913432	-0.288063790579209	-8.57636955478742	-0.227749408399385	-8.60632572819859	-19.7178862040775	98.9953890623027	
956800000	-18.0920150077073	-26.2876730438748	-1.72536229606433	-12.6033109948405	-1.74145361695888	-12.6189609109986	-20.8857005176469	107.233554989144	
960000000	-16.4954504217142	4.53258408399844	-0.774015610039974	-8.32709772990343	-0.748826573454391	-8.32394240914883	-17.3430227240025	109.573596589526	
963200000	-21.9991554471396	-42.516039620741	-1.37285032076952	-9.04621577553601	-1.34650861847398	-9.35765000176432	-28.0775966164564	97.0719064813368	
966400000	-16.4076114682808	0.765670000631946	-1.50684921549077	-8.22716274881089	-1.48465859225035	-7.97385856354499	-17.373158055595	113.452587294739	
969600000	-18.5349967050876	50.5643693401402	-0.997288935544121	7.22821377636271	-0.979046964681485	7.39032870968373	-12.5910273005951	108.84162334469	
972800000	-23.8248951321518	-21.0495148736239	-1.2028606478776	-9.3649037421479	-1.23843202380172	-9.60296914942465	-22.7846168166358	154.454543018608	
976000000	-17.0200671606667	7.15832270569926	-0.519749490778494	-14.0109373292396	-0.519921565332502	-14.1848692816006	-18.5903004377533	126.65906402379	
979200000	-15.7159151772232	79.7226645178038	-0.0973942491189909	-8.3992614155034	-0.129985885783883	-8.71586839070924	-12.8353095446016	158.788319592929	
982400000	-17.6685397311956	-5.55916253291206	-0.212481381601991	-14.6392942037115	-0.236305213759202	-14.7811995218683	-20.3230100578057	129.442939559425	
985600000	-15.8227036400381	25.4893095245973	-0.912026589690465	-8.21405171856865	-0.921486097403147	-8.04054092662941	-15.9474549013434	123.33583856843	
988800000	-20.1176943324669	-19.2461490535403	-1.9339797495826	-16.9459750905895	-1.94941843300022	-17.0617143955628	-19.600847494263	124.238554538408	
992000000	-21.764545695094	17.3453966559911	-0.558211359320512	-13.9391301484433	-0.589463907429063	-13.803902169121	-18.6301761747741	148.973680332231	
995200000	-18.604944255188	-0.230256586656417	-1.03683379568557	-14.5585661236236	-1.02774795988151	-14.7412655834047	-18.4342374860666	121.182815590457	
998400000	-15.1874493340049	2.71962958245307	-0.0855332519920353	-16.907459974661	-0.0847660039272612	-16.8197784495203	-17.8297123110071	116.965293383888	
1001600000	-21.831869334235	5.96775647800053	-0.708207896748208	-15.3150022888746	-0.744215809039218	-15.650692870643	-18.1804356791912	143.84638436073	
1004800000	-18.845621328363	16.1237902845832	-0.993078688307311	-17.1670765189334	-0.97825173852266	-17.5811854649915	-16.5581196025066	136.032999980766	
1008000000	-18.2583241825181	22.3040341239484	-0.693275149618942	-15.2675750885504	-0.707904072240607	-15.0362933818172	-16.1636792854369	135.244210310993	
1011200000	-18.7718237042028	23.9538565030165	-0.282470840718644	-16.5077924829368	-0.33716449743128	-16.1186538846801	-17.0023580020547	140.726508581477	
1014400000	-16.6982954498947	-24.8530099632612	-0.97483412122447	-20.5348348137839	-0.96236311888262	-20.7179823723253	-20.5991327527381	122.895542313116	
1017600000	-18.6256953088097	1.8652226978392	-0.499941243620158	-23.716416319358	-0.490919344275644	-23.7027255883166	-16.1788381665676	138.426144243842	
1020800000	-14.193850477379	-1.02873617099402	-0.68903996728648	-21.8148838218887	-0.648235310058265	-22.0682268605782	-16.4115880015716	113.900205359465	
1024000000	-15.1002629863702	5.48009548506647	-0.600644640342689	-19.4538887201697	-0.620985392660437	-19.3962425753065	-16.4606382416152	117.106860566363	
1027200000	-15.9016844882781	-19.5162138193718	-0.443126413017254	-22.373272059202	-0.508530286894594	-22.2994068756916	-20.2680674814268	121.946371561567	
1030400000	-16.2519633543012	-6.01955115443412	-0.43713958607177	-24.2549409444421	-0.497419247348735	-24.3422079579313	-16.8798625411695	123.564724666844	
1033600000	-18.6623502365617	-9.69573526830135	-0.0157431154797241	-22.2891982013423	-0.0374935668615225	-22.2364991971757	-18.6077855344242	150.459398206753	
1036800000	-17.3105683197172	-0.886365009812772	-0.287851616187255	-22.8281224031839	-0.299584460243804	-22.7310204026748	-17.0712402480053	132.755346932935	
1040000000	-15.9845500632576	-6.33196876382468	-0.231195124701442	-26.5531493072712	-0.208661894545253	-26.5250440141605	-16.70408739027	127.626097071437	
1043200000	-18.8232548455359	-7.0513212149517	-0.755545904455621	-26.5098007968667	-0.792435580488022	-26.436772593376	-16.8991553114482	135.007924898987	
1046400000	-14.7815484152374	1.94272902413835	-0.502674357790149	-24.5945933663265	-0.538043324426013	-24.6492279198239	-15.9490567115014	118.878672572999	
1049600000	-15.3291582198298	-0.126367826819424	-0.84148775894998	-25.3900804604748	-0.864812131356307	-25.4601426866922	-16.2275629828017	113.658615394309	
1052800000	-13.826524256256	-17.1140839526562	-0.508657128273716	-25.3560030495183	-0.530490381971976	-25.5015225697688	-18.7928943640382	107.410413197885	
1056000000	-16.7280078458484	2.86790580066965	-0.407118231528678	-25.69980164116	-0.374550193980389	-25.7249010689275	-15.7642668609106	129.324381917487	
1059200000	-14.0394555571197	7.74382752258743	-0.444124546084975	-26.7404858147596	-0.424555000318383	-26.480072240141	-14.9409832693082	115.795271777936	
1062400000	-14.1694406926184	2.14298324517556	-0.475708248868612	-27.3363336089812	-0.495076861538572	-27.5966426002881	-15.0442042091577	114.649076613343	
1065600000	-15.5987473893584	-4.43310120523842	-0.380085737476861	-27.7119952186465	-0.365676315382467	-27.7438763139736	-16.3437170615287	122.493567253657	
1068800000	-11.6650551411623	-4.2185273231267	-0.257317912754397	-26.400246003984	-0.274432265412748	-26.3565547018061	-16.3755423917148	94.8017995352635	
1072000000	-14.4873121354769	-1.7913508007752	-0.10296954983699	-27.2080963041168	-0.0908532473005352	-26.9988919839343	-16.3089581971013	122.505600801602	
1075200000	-13.9821669662696	-1.82161569514411	-0.0331068197668234	-30.166180742329	-0.0686398532656517	-30.1143202008611	-15.4604082283746	115.864531132936	
1078400000	-14.3980014717464	2.55398551301917	-0.477637159412071	-28.7948516698624	-0.461878530727887	-29.0327114078063	-14.4133652244475	115.492904861346	
1081600000	-14.2356396285495	-0.928144530974035	-0.438904275215389	-29.0288054015451	-0.455380804168068	-29.1107432575402	-14.9990534393294	111.648281077956	
1084800000	-15.7694080863127	2.10265711724148	-0.275235862259485	-31.2063659265165	-0.307041060582226	-31.1252483682016	-14.2442688782967	127.847922541127	
1088000000	-14.9094859222257	5.58677460104829	-0.39681004831485	-32.2269055009318	-0.380141269507445	-32.010924162797	-13.5649483064322	118.76455000518	
1091200000	-13.3376902425585	-15.0493408571376	-0.433359365422623	-30.0633012620841	-0.418749837940451	-30.4394651864485	-17.4337316583219	108.789519833439	
1094400000	-13.6374517222003	-4.59012733650002	-0.223143493821914	-31.1381852045239	-0.23297956216097	-31.1943327441878	-14.9156162766973	113.871922629499	
1097600000	-14.4601646132515	-5.50374800530075	-0.603852486415981	-32.4553938522534	-0.62815868105008	-32.4328896225073	-14.8380933270713	116.366956587471	
1100800000	-14.5906654062676	-0.976657372094945	-0.523827435709437	-31.8283084928187	-0.543671659514997	-31.6833003059463	-14.5966537584064	115.616772068173	
1104000000	-14.1606722462484	-7.15680755314711	-0.614629513784225	-33.0255215844427	-0.638020738696988	-32.9126376084815	-15.1424334233475	110.739814895617	
1107200000	-13.7225660597762	8.3809173961154	-0.214166111034359	-31.0772553757872	-0.24841597375107	-31.0690175588924	-13.4244778029332	113.806559833137	
1110400000	-14.7807986484827	-5.51614320417407	-0.792327411888275	-32.4183389706146	-0.771012991684185	-32.3584328758293	-14.6101486426883	112.271679756229	
1113600000	-15.9458399114236	-2.57074266803868	-0.686894088181344	-32.1868385833739	-0.680957147095883	-32.3174178710526	-14.3353718964245	118.835081999185	
1116800000	-13.1078919485913	-12.6469389852405	-0.399712923845666	-33.8756725899123	-0.411244430179177	-34.1238690390155	-15.7834770934088	111.982421966536	
1120000000	-14.3629948693065	-3.11532923907818	-0.29718874776954	-32.3039240799616	-0.345247012812812	-32.2507320103174	-14.8494207299955	113.529248964442	
1123200000	-15.1024859478045	-8.78739747989718	-0.351289720786029	-35.2357234737802	-0.373100512828712	-35.3285369792355	-13.8918376951236	116.347707877591	
1126400000	-14.5117202127854	-5.18547605933613	-0.427479400821476	-34.1789137923244	-0.45224575757724	-34.5071194533613	-14.5707862538396	113.610166731816	
1129600000	-13.6116105195013	-6.15573795704691	-0.321365374178218	-34.2940376420194	-0.334299412117912	-34.4095755817096	-14.6047421923095	110.498307472723	
1132800000	-14.493209107543	-0.0496797917729237	-0.503595643305719	-35.6057806892311	-0.488094468032372	-35.3392673811154	-13.4554366858858	111.961621766172	
1136000000	-14.9039162737702	-10.5114500883233	-0.291504924162431	-34.5394377851654	-0.281645263286751	-34.4199372240643	-15.0970753042409	119.712029992847	
1139200000	-13.9836200311983	-10.4451859842972	-0.610942641852762	-35.1414654880801	-0.565474106629869	-35.2691216441014	-15.2210373773848	113.07026747367	
1142400000	-14.6085535975769	-14.7612251631257	-0.230671965165863	-35.3299633493087	-0.273575657589888	-35.4143132197345	-15.2241134446186	122.229728701462	
1145600000	-13.5672603301206	-5.24632444976647	-0.0977378110722755	-36.6398127127102	-0.0572668838009881	-36.4645533861856	-13.6869009162146	114.422670083641	
1148800000	-13.6383489505905	-9.00451512389654	-0.611929748017357	-37.4777980781895	-0.638554148810854	-37.6660814256493	-14.3222416252654	104.758155248922	
1152000000	-15.1594115048649	-7.86725445646093	-0.639853577902804	-36.8332604387622	-0.603727302007913	-36.8183044609214	-14.4223503876393	112.187203615805	
1155200000	-13.1856490264759	-0.778536569498531	-0.256565365238921	-36.8704464902785	-0.226799895209294	-37.1016605361961	-13.8748143937252	110.40220628843	
1158400000	-12.9925510100612	-15.6695048736097	-0.445801950728539	-38.7198587968407	-0.443462861951206	-38.4398428409777	-15.4604000819579	106.401463814667	
1161600000	-12.8375431538947	-8.07208368849861	-0.522439648352734	-38.394146952852	-0.563500126953361	-38.2711378134512	-14.3702095668781	103.336462812524	
1164800000	-13.296946221973	-13.9439255487842	-0.498469779903708	-38.6275968432325	-0.515013266399122	-38.5690206056743	-14.7302531885726	107.881012754776	
1168000000	-13.1922848540153	-5.76463743684704	-0.518262804204007	-38.5471925750277	-0.493664694642383	-38.5098268664803	-13.9382202900305	101.687695265573	
1171200000	-12.1370655131036	-8.22208208666396	-0.352979262621491	-38.6153704341849	-0.389930938655037	-38.5275793326385	-14.7332797428031	99.9954754831809	
1174400000	-13.4730419249095	0.812041529680852	-0.236462194282057	-38.8206900787459	-0.268233089717927	-38.9298088999122	-13.3103303750355	106.021776288797	
1177600000	-13.9625497253755	-9.6716272862869	-0.409233630437555	-39.2539494889974	-0.38198388386252	-39.4862867845819	-13.955086185881	109.264506678739	
1180800000	-13.1074473074265	171.502016698554	-0.479729561004328	-41.0636677578942	-0.450251796393476	-41.1051790125691	-13.75843131035	-77.2581110788056	
1184000000	-14.2613251089417	-7.56550254869976	-0.492948835076037	-41.9758521704413	-0.478199785503826	-41.7932794755247	-12.9685899975223	106.830748821499	
1187200000	-12.4640045477752	171.225740007216	-0.425722247681739	-41.7506334419131	-0.392355419157986	-41.6491290324721	-13.5986504957759	-80.5563257179512	
1190400000	-13.3267365293886	-13.7933977744969	-0.346984014970199	-42.2673888951861	-0.345019587989902	-42.2939641689615	-13.8845109064307	106.306428709375	
1193600000	-12.8806605987394	-3.76681463494511	-0.49091673073377	-40.4263560453135	-0.489771023790074	-40.7331555496626	-13.0049626188058	100.219515542215	
1196800000	-11.8261468496537	-12.5345443666099	-0.311859928122709	-42.0909419222036	-0.317040693931532	-42.2354996724221	-13.9799950766002	99.2954861120842	
1200000000	-12.739613469502	-14.6884629856037	-0.276048333760339	-42.6968336964286	-0.272788764925861	-42.8276459586957	-13.9977411252645	104.383884426018	
1203200000	-12.3100834408722	171.118177652619	-0.439597671574477	-42.8939789088452	-0.444698666494023	-43.1307453216821	-13.2630604611646	-82.3311930447931	
