!Keysight Technologies N9950B: A.12.38
!Date: Friday, 28 April 2023 16:35:12
!Timezone: (UTC-06:00) Central Time (US & Canada)
!Model: N9950B
!Serial: MY61131330
!GPS Latitude: 
!GPS Longitude: 
!GPS TimeStamp: 0001-01-01 00:00:00Z
!GPS Seconds Since Last Read: 0
!CHECKSUM:0604874008
!Correction: S11(ON U)S21(ON U)S12(ON U)S22(ON U)
!S2P File: Measurements:S11,S21,S12,S22:
# Hz S DB R 50
800000000	-4.49165027764884	158.577986627384	5.44557782730066	39.7936039324137	5.76384961296827	-32.6325221537905	3.4947070823539	-150.103097290999	
803200000	-4.43505495493924	115.389357116231	5.44585672620495	15.4806981119098	5.78034034726197	-8.6962799476661	3.47947174562699	-114.318691632366	
806400000	-4.31535685865785	105.373731218417	5.56214181368012	10.4715344517335	5.85911966942092	-4.08981166182048	3.60481147849387	-108.337102814891	
809600000	-5.65067623448716	111.320235461141	4.89048453923981	15.6997067563585	5.16082317020036	-6.74403795671278	1.41809119162932	-117.24131642432	
812800000	-5.60262890574898	125.730906808543	4.86004381600749	25.6690714416908	5.17313693712238	-11.6472217813698	1.34650987740966	-121.988352969105	
816000000	-5.5890820120216	143.688494739669	4.76935913987298	26.0855642241902	5.15719402916454	-12.4597734577197	1.20566869342309	-136.662865977351	
819200000	-5.56599714270042	147.531876680826	4.74124284051927	29.8081952098858	5.17689369166211	-16.4295879560387	1.17109225654005	-139.226791923466	
822400000	-6.71088897259631	160.031818235741	4.06180634214855	28.6960035299013	4.47300453015434	-17.2767278382418	-0.876676375950626	-148.399029107764	
825600000	-6.72159560651628	161.339821142535	4.0090805305634	29.8729180953277	4.43971271765585	-17.6386804739906	-0.968425345979012	-148.655697831585	
828800000	-7.22545947898836	171.670011950696	3.48189773447657	29.339210090248	3.91301676916324	-18.1763695608787	-2.19314247265677	-162.370575039941	
832000000	-7.85154929495213	-174.213288281909	2.93272030792678	28.5404955971012	3.36404165800867	-18.9583529807986	-3.45574510300598	-171.723312235662	
835200000	-8.72192667447325	-162.877412309248	2.38850674854081	27.8473040187238	2.81956669688254	-19.6771781858678	-4.85635981488321	177.457818773597	
838400000	-7.80814494342007	-157.892018726606	2.5293291508748	30.8343985893721	2.97506724859531	-22.6595184384193	-3.52078497098806	172.327728583799	
841600000	-9.13393730654453	-151.594440876265	1.87432763961952	26.7985927890645	2.2623367715152	-21.0919794574415	-5.67599402750063	163.950093430731	
844800000	-9.62702434312149	-138.383369408264	1.3260632803109	26.117337147825	1.71076845028923	-21.7840300912631	-6.46960630296152	155.352377533454	
848000000	-9.79030827117966	-138.980142002838	1.25075694303126	24.4899536011636	1.6257385387696	-23.5601422717501	-6.5694532902937	152.214796816124	
851200000	-11.4550198269403	-135.449008154308	0.649724579226167	20.1042887695942	0.978429795726926	-22.1145487318782	-9.40150411452584	139.940923740413	
854400000	-12.9834483439096	-130.815110403739	-0.0749621385902938	15.3206519764273	0.264129211895919	-20.9676191845886	-11.902756563672	130.276638009332	
857600000	-13.1388571214229	-130.183032331233	-0.0128093457581905	15.3248645152221	0.328996676133094	-20.9868161872601	-11.9778828675217	129.871984865333	
860800000	-14.6168446432598	-122.526923600055	-0.576323538880021	11.2645780038313	-0.30331016178789	-19.11599629779	-14.2050378607433	122.413082778245	
864000000	-15.6134407347601	-105.164340132675	-0.691329990306631	8.16453819799628	-0.520479078718322	-16.3234421663834	-15.482842483983	124.42783892854	
867200000	-15.7234973917656	-81.1477577719223	-0.735828590446386	8.07604579067019	-0.597979159249299	-16.3276136044755	-15.5300242748056	124.454060883443	
870400000	-16.4251460109058	-61.7860274267398	-0.629085814112858	7.98052043520719	-0.492027325285134	-16.4019373265438	-16.6947445453225	133.540559552057	
873600000	-17.6404846152082	-35.8864456662388	-1.17277547326383	3.24417914987777	-1.08309803644948	-14.7689510744864	-18.7615056824895	142.525723359582	
876800000	-17.7403248144227	-13.4940542821014	-1.07986752680436	3.01706756265625	-0.997421422531572	-14.9656791312984	-18.6862261456698	160.960081366136	
880000000	-19.183751819323	-4.54424392484365	-1.04507765915926	2.88197425388048	-0.960568723019692	-15.1269737362504	-18.7261016898324	165.176327617436	
883200000	-18.8833556049497	-3.1815341331426	-0.930902768124304	2.79402347918278	-0.845137560836277	-15.1931665161964	-18.5733858276171	163.487603381146	
886400000	-20.0210710312427	12.0797960120254	-1.17824364526454	0.0839671053139721	-1.10640217431755	-11.9384996838437	-20.2379284095605	165.573339617376	
889600000	-20.1326092144641	12.4052933732919	-1.0906086602092	-0.0833505952981694	-1.01201344855022	-12.0501203777302	-20.3129058109219	165.119568687475	
892800000	-20.8447196541445	10.871002338933	-1.02624847759736	-0.39855515611099	-0.944686021876997	-12.3839597378814	-20.5915146479529	169.984252550829	
896000000	-22.3307068839075	20.4104325809173	-1.49993562080918	-3.51342422816919	-1.46771048170795	-9.26813367060625	-22.7253871347711	166.622553808804	
899200000	-20.7808759765456	18.2917238743808	-0.875237235957724	0.962376200213504	-0.794686808564436	-11.0119807028671	-19.7533194332574	177.374622555367	
902400000	-21.0273840246119	19.0391044775989	-0.804374167300042	0.703205484701674	-0.723376451715754	-11.2595984111086	-20.6278078755945	-170.638516851143	
905600000	-20.7547978782821	18.0071397848158	-0.738611587303816	0.607910058735992	-0.662040704386484	-11.3605365495901	-20.4100638004849	-148.985839625824	
908800000	-21.6179871903485	7.55829002546195	-0.668712708611637	0.666807178659381	-0.593394015755137	-11.3258744014874	-19.9309135681837	-119.075075051581	
912000000	-20.7062527810274	-7.74919033004876	-0.408457096907699	4.92414601566331	-0.276645063914669	-13.6289205021781	-18.2769106204532	-97.1576980098502	
915200000	-22.1631443053939	-25.9793607506508	-0.85027822959649	1.06190436824509	-0.762770194576328	-11.7082688584274	-20.3401983111902	-64.4469947862316	
918400000	-20.9336865782399	-38.0366922378392	-0.580666100131354	1.89725683733645	-0.495323744875458	-10.8685845197116	-18.9371298403242	-42.646493155131	
921600000	-21.5358622243988	-46.0826208010955	-0.474614602788576	2.19159606764054	-0.389769737525869	-10.5774135063412	-18.5487733936315	-29.5533261080135	
924800000	-20.2960020856162	-47.1326181580537	0.0516959077179132	8.46328926919127	0.182094748080926	-11.4965869551348	-16.1120970781921	-14.2801550348471	
928000000	-18.1815694036552	-47.475244603777	0.315652938050459	8.93431777700375	0.448454142395293	-11.0080544018916	-15.4751900393759	10.0237283338825	
931200000	-17.9110660111769	-45.2207017665817	0.429149032176177	8.51578567576339	0.564810280541806	-11.4307802294583	-15.9034028988197	31.5030814623624	
934400000	-17.9898320514889	-49.7104303171021	0.117239794296137	7.19006739053007	0.25141996232105	-12.7307694740543	-16.3954289443265	47.4566344094108	
937600000	-18.111819180897	-44.2634406219897	0.212106765027608	7.01469008087833	0.346637818368228	-12.9351505239759	-16.1217599844866	75.1045706827241	
940800000	-17.1010133871874	-41.1838252550962	0.335748581016937	6.96111388308833	0.47101246200292	-12.9703926607717	-15.9124623551472	88.633842622757	
944000000	-16.7729771152982	-38.5024607953391	0.3880925065766	6.80177199118111	0.523303283603199	-13.162305563948	-15.600600329577	112.565985692035	
947200000	-17.9221213928653	-30.7718252469367	-0.0519311467972711	2.29476645046867	0.0407974828174227	-11.4183456219808	-17.4769705775077	120.734972240305	
950400000	-17.7389984910497	-29.5767387373115	0.0072137957747327	2.16939923452918	0.0988197353032544	-11.5811374172718	-16.4108580670509	118.176145849985	
953600000	-17.7463455221257	-23.0991847672481	0.119629609456636	1.70852843590371	0.211969184080406	-12.0572204796959	-16.3212071498767	99.7861280746911	
956800000	-17.3324967390274	-0.954707824225068	0.261048024700516	1.25827566786682	0.353186637158204	-12.4948098672263	-16.1567754109267	75.7206568245228	
960000000	-18.6176436096437	11.154507382096	-0.234218423599637	-4.06344550188121	-0.199200050456268	-11.2936879925777	-18.1667742553045	47.6311672519148	
963200000	-18.3933616053617	18.9100598145019	-0.184612563391268	-4.26528053099924	-0.146271384252275	-11.4784928892838	-17.8782012522776	10.457480538635	
966400000	-19.0386157399834	12.7169534500929	-0.393885401358437	-5.70262618905737	-0.357185728692621	-12.9323297591183	-18.0729678745123	-19.0402130161576	
969600000	-19.4050463501794	5.57754879340454	-0.350631048258019	-6.24879259920004	-0.316010220139145	-13.4745897047214	-18.1457984588868	-43.0609946973954	
972800000	-20.9305852802134	-8.55842396384975	-0.827721320359382	-12.9862491943363	-0.833599291537378	-13.0605411523252	-20.2358427125806	-71.8253145021053	
976000000	-21.5529868641734	-10.6785467413304	-0.959794178421143	-14.0954022592874	-0.969289689384009	-14.1688266993283	-20.2834179690666	-97.7251370633164	
979200000	-22.4315815265829	-4.66781480709276	-1.02919180520402	-14.2484977676694	-1.0443467981107	-14.3349560612871	-19.2855383170848	-112.496067366889	
982400000	-22.8113303795408	-5.34212379238889	-0.982339044121162	-14.8641309035969	-0.994929319388074	-14.9661074233276	-19.0798440009611	-132.741353288514	
985600000	-22.9614264082269	-3.68868567513494	-0.966655782691674	-15.2968118787406	-0.984379992499801	-15.3769279766294	-18.8064362319314	-155.488273549076	
988800000	-23.8818039766203	3.26634272451534	-0.951883628780356	-15.8616803098775	-0.975583117104603	-15.9258867010861	-18.2369698509849	-169.300353527563	
992000000	-23.7853947498512	1.91257204242654	-0.910715264772296	-16.5638008671334	-0.936134976317308	-16.6320964771679	-18.3036626009344	167.214185692217	
995200000	-23.8563395677192	4.36194484295819	-0.918657202768016	-17.7112850814414	-0.946546824819932	-17.7778688107548	-18.2997436181387	155.493217783675	
998400000	-23.5113814233046	8.63225973804468	-0.895158276334331	-18.4307738387231	-0.919905654331361	-18.5087531868126	-17.8990082584594	149.627708558941	
1001600000	-23.6555056334151	7.84543881657514	-0.922710719564231	-18.9629165329732	-0.947558813785805	-19.0238976325	-17.7252172968713	150.043588378297	
1004800000	-23.1077818561214	1.12427395338477	-1.00487990021161	-19.414805620382	-1.03085299498306	-19.4663012408063	-17.8124147017516	146.831876784533	
1008000000	-23.0870127069325	0.149725280453586	-1.0179623939666	-20.1569764654928	-1.04667198303846	-20.1978092423229	-17.6835466693562	146.286470191944	
1011200000	-23.2325044252836	-2.16615533784702	-0.964254404013377	-20.9553400880576	-0.994377634108854	-20.995143591634	-17.6043737137593	147.985503065951	
1014400000	-23.3209519619189	-0.759590159989983	-0.878751288758746	-21.3985757059408	-0.908268158334687	-21.4310397481945	-17.3336941829392	149.600369317815	
1017600000	-22.2773195109593	1.08481118838839	-0.862224918279143	-21.9606774532373	-0.885933486086153	-21.9991795425763	-17.1131886829539	146.476585857634	
1020800000	-21.7349369122457	0.639962774608652	-0.807049409345627	-22.5706875453661	-0.835703367867491	-22.5872603335299	-17.0067405657099	145.499913561729	
1024000000	-21.3853245436647	-2.8147796968093	-0.773893194152472	-23.1430528814329	-0.805933418186141	-23.174460181519	-17.1126302597625	144.210416142056	
1027200000	-20.2636855043841	-6.82715094152023	-0.727807735466051	-23.8482590435901	-0.759126443517282	-23.8540671052833	-17.2496386714734	140.886530106788	
1030400000	-19.7156786957108	-6.04542023894737	-0.710146558258991	-24.1788638378289	-0.742458252793931	-24.1921803854411	-17.2875514407501	138.320326374644	
1033600000	-19.2727059071832	-8.79883264286407	-0.670197139173278	-24.860512420588	-0.698742914503459	-24.892979317355	-17.3155829185405	137.573001637981	
1036800000	-18.202391165949	-11.7520261584093	-0.659762167740347	-25.4246861341985	-0.682222344815643	-25.4396037931963	-17.2551179692105	134.719554436636	
1040000000	-18.1356015629523	-10.6320984575026	-0.633189139074206	-26.0240057818129	-0.656199282390044	-26.0437851947412	-16.8880581379683	134.544713924747	
1043200000	-17.8886064049196	-9.66471252360949	-0.635134892195701	-26.1329944013972	-0.657716333727489	-26.1581010879957	-16.7878784465764	132.954127015377	
1046400000	-17.645879919853	-9.73315437341873	-0.602522102549166	-26.441773133969	-0.628716073082078	-26.4424794551604	-16.8211290929031	131.602026907744	
1049600000	-17.3439993564919	-9.03475277288642	-0.559308664484585	-26.7306825156957	-0.582126011814485	-26.7349290743647	-16.7008242118562	130.793119241014	
1052800000	-16.9575639084611	-9.03635905251673	-0.496927656295736	-27.2857882173936	-0.519630799804124	-27.2963888486428	-16.5715153352387	129.5502751485	
1056000000	-16.5981527773534	-9.34364959948237	-0.4699608460364	-27.5863526386895	-0.485607710975952	-27.5891580082796	-16.5172807491219	128.368076817858	
1059200000	-16.0746366017163	-8.7172537647348	-0.475333325292154	-28.0391305849348	-0.491853572984189	-28.0483636776432	-16.4270260840547	125.184826807701	
1062400000	-15.8323615984147	-7.97261563903407	-0.469160558154234	-28.5267284514419	-0.484936805048571	-28.5327559267949	-16.2388171349965	124.327219942795	
1065600000	-15.6983995969444	-8.32256638943173	-0.45983918921508	-29.0081167442512	-0.476653764126967	-29.0041531304423	-16.1489196091082	123.780058193104	
1068800000	-15.4576743293839	-9.09419575101505	-0.453941060481618	-29.3292305101459	-0.464482394392071	-29.3515134855369	-16.1640594699676	122.696904484467	
1072000000	-15.3928484180425	-8.46673978708398	-0.451149805447828	-29.6513328544856	-0.458168605774556	-29.6733890032311	-15.9889225595587	122.168074315862	
1075200000	-15.545927814873	-8.16789755433033	-0.471873930639794	-30.1005443738619	-0.4771545541281	-30.1308321046747	-15.7235436022181	123.055821499365	
1078400000	-15.5520146195773	-6.29727930907569	-0.46858697804839	-30.433775530382	-0.474905044466539	-30.4418861088292	-15.3800540457293	122.748636461666	
1081600000	-15.4004071089199	-5.73447619242354	-0.498624806278194	-30.8174920637779	-0.506257210065297	-30.8223862575559	-15.2420878321094	121.104435720314	
1084800000	-15.4599810338266	-5.58990622347295	-0.494172028658301	-31.1401928587269	-0.506215368576572	-31.1690886386023	-15.1017567367411	121.125526111031	
1088000000	-15.3212707921083	-5.35970077672706	-0.499952015336239	-31.3049737926888	-0.510304532871973	-31.3169849005266	-15.0683733734394	120.107438613342	
1091200000	-15.3891585891072	-5.58928811836514	-0.520346274411026	-31.6757847158429	-0.530468916578187	-31.697406948371	-14.9726674109248	120.098597978197	
1094400000	-15.4983923997137	-5.45006206031094	-0.538881397954735	-32.0184026087309	-0.548412501786551	-32.0692409207253	-14.7626095856563	120.714806925337	
1097600000	-15.4161092034696	-5.94033128954365	-0.5389329385489	-32.3880546695333	-0.553933284739881	-32.4461116871935	-14.7267477790844	119.989912848842	
1100800000	-15.5955491683401	-6.53647883588906	-0.571085451016207	-32.7781601619318	-0.586323772993421	-32.8408074935836	-14.6039824549978	120.238633213349	
1104000000	-15.6486878776968	-6.97691772671569	-0.576912818135032	-33.1474264186668	-0.596601315693452	-33.2106447600126	-14.5772415902281	120.271500745098	
1107200000	-15.7738524787503	-7.04495577241309	-0.596490184638017	-33.5121697960197	-0.615284263364992	-33.5810263421585	-14.4380675625003	120.565269579651	
1110400000	-15.7820658762758	-7.32414919708255	-0.622203229301628	-33.8585633226197	-0.637913336315354	-33.9110164161575	-14.366216787076	119.692657700235	
1113600000	-15.8094610692756	-8.44020804209549	-0.622245962876385	-34.0167645391727	-0.636244705533332	-34.0738162766483	-14.4366518871871	119.815644791168	
1116800000	-15.865116258818	-7.71318548825664	-0.63748228338001	-34.2894411168201	-0.650338714743115	-34.3345693879982	-14.2481263280809	119.715802659329	
1120000000	-15.8675305668083	-8.98625046147633	-0.625526881569544	-34.6149985757478	-0.639927450094919	-34.6487510078623	-14.3064359779301	120.217521701654	
1123200000	-15.7924937983577	-8.13071481724316	-0.59767568971324	-34.7857830423081	-0.609739838763073	-34.8139062552501	-14.1870803040347	119.709254685447	
1126400000	-15.6399642303577	-9.39349374924663	-0.588535790114914	-35.2375044294782	-0.600200588950741	-35.2792914918658	-14.2367233911478	119.023560960031	
1129600000	-15.6499725558774	-9.59776480465103	-0.582933480848271	-35.4834153639688	-0.591529535928726	-35.5345816629071	-14.1986572585117	118.97827862569	
1132800000	-15.4783443831402	-9.91426585792823	-0.575081643091806	-35.7524890075451	-0.578460164707977	-35.8191000354881	-14.2311759687715	118.236603760181	
1136000000	-15.4694474666187	-10.6305003798787	-0.571762896196599	-36.2137735121159	-0.575053844812271	-36.2605887591746	-14.2268199877932	118.190210749392	
1139200000	-15.3007189089505	-11.278237883737	-0.567302112393599	-36.6728537665333	-0.573134625588848	-36.6993757354388	-14.2168063133235	117.294770072884	
1142400000	-15.2636923770371	-10.964568507989	-0.568904481224552	-36.9001735578515	-0.575006237168854	-36.9110004224557	-14.1476227461313	116.557497135735	
1145600000	-15.2310681958964	-11.1946075124655	-0.591405222138301	-37.3430118143419	-0.593189179307593	-37.3466267254563	-14.0596706892317	115.835101942284	
1148800000	-14.9706994809007	-11.7092661779354	-0.584216568682523	-37.6494387726245	-0.585799701349749	-37.6303121843409	-14.1540092333913	114.983805809591	
1152000000	-14.8477486147849	-11.3175271089484	-0.564455278242295	-37.9297597608447	-0.566184315127605	-37.9025196461993	-14.0853031565533	114.288375800799	
1155200000	-14.6396302081558	-11.6989188943781	-0.535827338396555	-38.2260189999331	-0.5371026897481	-38.202343464078	-14.1455301595992	113.817968672225	
1158400000	-14.3464356064843	-24.5475522015723	-0.505015244971957	-38.5720386597942	-0.508034576846807	-38.5591391111644	-14.2519622581744	124.939817203325	
1161600000	-14.2486662693925	-48.2379423387054	-0.511445416544579	-39.0434010427409	-0.516971567194458	-39.016005521703	-14.1227225553673	123.912124257765	
1164800000	-14.0899171031344	-60.6676338243727	-0.489243651252715	-39.5543424587881	-0.495227800129829	-39.5171235986569	-14.0609979109384	135.154879002922	
1168000000	-14.0190287297573	-83.9790213684852	-0.501251832186643	-39.9208177986478	-0.506679340508412	-39.8875065621548	-13.9434012364457	133.758553352166	
1171200000	-13.8809186588182	-108.423609839486	-0.50971450800378	-40.2248590966027	-0.516985588631892	-40.2052089295247	-13.9654290682514	132.840904439902	
1174400000	-13.8106475923977	-132.05223078413	-0.501826140806998	-40.4436999760534	-0.507843758135966	-40.43800951127	-13.877336932308	132.303547643427	
1177600000	-13.5951915532218	-156.13347255557	-0.471246451947304	-40.7777764013196	-0.481972429971067	-40.7619001522111	-13.8534667154062	131.515282255233	
1180800000	-13.5682662295371	167.057718031725	-0.488691076202078	-41.2156193122862	-0.501364834174172	-41.2022964488678	-13.8007988049777	142.758425461595	
1184000000	-13.4448048283379	119.246596455865	-0.474799576313813	-41.3847849589217	-0.487344333365818	-41.3865375997029	-13.762165951168	142.137130308813	
1187200000	-13.4411914285499	59.1108561989696	-0.464460462086682	-41.7449870177647	-0.4767952338407	-41.7872540516868	-13.6693505267062	153.787905596176	
1190400000	-13.3242279130241	-1.38499151747783	-0.443667010504909	-42.1788483371929	-0.452853662201349	-42.2291125924142	-13.6335744123268	165.486591246044	
1193600000	-13.2241192350381	-61.600714373088	-0.427077464747821	-42.5014786086148	-0.435430583421753	-42.5456429827654	-13.5873527557656	177.20724982106	
1196800000	-13.2008761963213	-121.246671678377	-0.433603400475382	-42.761239161655	-0.442825243884429	-42.8142795695867	-13.4912429985326	-171.596184315846	
1200000000	-13.188616781333	178.059379230019	-0.451125491012319	-43.1539049822578	-0.458348212320881	-43.1987289095143	-13.4508169274285	-160.033569418476	
