!Keysight Technologies N9950B: A.12.38
!Date: Friday, 28 April 2023 16:58:10
!Timezone: (UTC-06:00) Central Time (US & Canada)
!Model: N9950B
!Serial: MY61131330
!GPS Latitude: 
!GPS Longitude: 
!GPS TimeStamp: 0001-01-01 00:00:00Z
!GPS Seconds Since Last Read: 0
!CHECKSUM:0642349576
!Correction: S11(ON U)S21(ON U)S12(ON U)S22(ON U)
!S2P File: Measurements:S11,S21,S12,S22:
# Hz S DB R 50
800000000	-4.07598858804192	123.705314456264	3.68210118174454	-70.9217812549199	2.4024418582784	-55.9532747751379	9.02071392846273	78.3725877939595	
803200000	-4.13317687043925	100.585252698001	3.58693827745782	-20.2205435588204	2.09278960665446	-15.1819012119234	8.97339927830927	-33.218175961474	
806400000	-4.19299218895958	96.0134964517713	3.47726170827672	-10.825540453981	1.78964131144453	-7.8250647090784	8.91913900722284	-55.1295850340568	
809600000	-3.01088773034271	94.8347864841782	3.74650482753688	-24.0424958852464	2.14999000368353	-18.510323747326	8.52934763614988	-49.9109190019306	
812800000	-3.12505223949922	93.0419036583375	3.576861551213	-45.3996875384657	1.69883202107163	-35.2957078510488	8.48325981061164	-35.5150854409197	
816000000	-3.16363997515071	100.344780562785	3.48540026728317	-56.1871608587595	1.35304916104405	-45.5940169535772	8.50226901120083	-29.9431803554495	
819200000	-3.18580379989872	97.7866780483206	3.44831918564557	-67.672045760096	1.04736275265527	-53.5517541563623	8.60214587414047	-25.5211544689318	
822400000	-2.25843513638409	103.886472182504	3.49464488675221	-72.2058681109155	1.18967608510574	-58.3400128039413	7.90787726566553	-23.3773687019807	
825600000	-2.37034328505085	101.1960587284	3.16541621241324	-76.9102381162604	0.60247326070355	-61.3042236122586	7.76938870123495	-30.3539953425587	
828800000	-1.09460067252999	104.969954356608	3.77960358122571	-85.4872209663733	1.21601871825478	-69.8939115841797	7.88913924164338	-28.0771793152713	
832000000	-0.0843994296469717	109.997843943072	4.08560402200879	-92.9746537129832	1.52250150477447	-77.3816769295012	7.66444011479433	-25.6884123946686	
835200000	0.981539509496388	113.586159150072	4.52497366206635	-101.504460173358	1.96023987107192	-85.9246670871997	7.69298306972556	-23.7570849780418	
838400000	1.00733841158711	114.085032918793	4.74372407814397	-110.640553765083	1.93681826110898	-92.2712303055588	8.15188185704249	-18.5812012684282	
841600000	1.98675805452692	119.342284343528	4.89709160619541	-109.369229707284	2.30979425175775	-92.5894724906312	7.60392159457127	-21.9955782750925	
844800000	3.02531745007127	123.877086440171	5.34685398313776	-116.905640238222	2.75761138895851	-100.127582854751	7.58579614530491	-19.3203085369693	
848000000	2.78317275962016	124.11477407849	4.7424754666834	-118.628993856153	2.28101172681544	-100.608653843931	7.39596704238363	-23.5732852379856	
851200000	3.45557462235401	126.775606605742	4.61999387571519	-120.431993427243	2.46237114701749	-104.206935647693	7.05954927837847	-30.2017886141121	
854400000	4.2656162662283	130.354871340629	4.59817603429968	-121.270425117978	2.72683915643707	-106.69937756869	6.62929256697102	-36.0383775630097	
857600000	3.81558537721369	127.99347718664	4.18252647011497	-123.170779400771	2.31787527725797	-108.602947846488	6.5016274125476	-38.5273003907795	
860800000	4.51291569346942	132.573618491925	4.06772356919714	-122.11380222547	2.57703083594206	-110.103829972614	5.94217691534382	-43.2810850049391	
864000000	4.62446720914604	133.102354135219	3.52948189318237	-113.670503119424	2.38524870962082	-103.544961532073	5.2049700518842	-49.9407208556907	
867200000	4.61315898178033	134.56142451747	3.36130218409213	-111.852854083546	2.52623399366192	-102.097976825472	5.00073288773948	-48.8887621318243	
870400000	4.04575553425107	130.370147668403	2.86799649567081	-115.656940678097	2.03108206196589	-105.863117164215	5.25334659337197	-53.6472286786745	
873600000	4.65355596905138	133.693976752099	2.87665934547862	-115.160821238406	2.38815942323552	-108.100318575239	4.9548269326206	-57.2501860246028	
876800000	3.86372278118448	132.474947681254	2.16173393843575	-116.62640547891	1.66692756227149	-109.536950205767	4.86460076073816	-60.0883694427	
880000000	3.4210390225059	131.433926139801	1.71547842481038	-117.722696046457	1.22157945939012	-110.645605935575	4.84100797238151	-63.0260543413728	
883200000	2.87155048495923	130.956559715005	1.15721215736467	-118.672225758365	0.666253060635923	-111.598272046279	4.74836837093283	-65.7700448713189	
886400000	3.18121311073481	130.266155730971	0.661083258371418	-109.501869493958	0.409572858048657	-105.215347177432	3.87532438925827	-70.9914922569451	
889600000	2.6947731473164	128.452291021664	0.258922201522148	-111.603439058366	0.0122355525519816	-107.283592252171	3.90606826614363	-74.4031408516017	
892800000	2.14452811846763	128.007213197766	-0.255597169938167	-112.293283014702	-0.499079582971472	-107.981115787628	3.83087916798941	-77.70018217364	
896000000	2.77913731956114	131.959993949029	-0.0640942006509532	-110.730453537813	-0.129646531091075	-109.349614094025	3.40929678361633	-80.7555183695354	
899200000	2.00482181350604	129.277493721299	-0.2839128103607	-110.785863561696	-0.575035590836205	-107.529814621542	3.7254746782293	-78.1216904192497	
902400000	1.53850301984589	129.918137493332	-0.732324526078185	-110.713613258857	-1.02327331613221	-107.456756010183	3.6873807387351	-80.8230996656514	
905600000	1.31317152364734	129.128199995466	-0.869519542763191	-111.883379475667	-1.16546402179331	-108.653218028962	3.82716757574032	-82.1771379756527	
908800000	0.901203526956785	129.738903603276	-1.47000252327324	-112.075533569452	-1.76638219559958	-108.859283214246	3.85924427059337	-86.2248967610909	
912000000	0.559764675060773	128.662636508763	-1.28599987878682	-122.398764021061	-1.98093392637268	-117.154385275844	4.59211852586867	-82.8319755196599	
915200000	0.722318618970373	130.537041841675	-1.72467742470421	-125.908513531787	-2.36867069872496	-121.941879416673	4.41595252618858	-91.7998355716913	
918400000	0.875861290363979	129.18261990577	-2.17486269306095	-117.777935108829	-2.81858542645883	-113.821385208482	3.70370378186957	-93.5759461402078	
921600000	0.547245490296719	131.353697989208	-2.75910906791023	-115.463926610924	-3.40295750901487	-111.51548251409	3.46139722739081	-97.5797718695464	
924800000	-0.124741403510266	128.194940275177	-2.79581776740073	-116.414652442893	-3.96766248134999	-109.216018713522	3.80979941934352	-94.8846788441797	
928000000	-0.2205475394953	127.592435614365	-3.17372451706916	-110.233011900188	-4.34267392949397	-103.013000563315	3.43153797829994	-97.5151840976424	
931200000	-0.379252793861961	129.392393560205	-3.51667983111878	-107.440857822219	-4.68198738395391	-100.212020233554	3.14642750811427	-99.8222962628137	
934400000	-0.237471092838546	135.187401658654	-3.35410141492582	-114.75269111251	-4.51825088817172	-107.511262039009	3.23755215127043	-101.590513055792	
937600000	-0.590900110286934	136.66095316204	-3.78829073704093	-112.720356725251	-4.95270763989318	-105.49257274321	2.99261787343736	-104.516718078599	
940800000	-0.727199086661603	137.251637503481	-3.96073595334488	-112.891378775263	-5.12267398947461	-105.685690347389	3.05262471821023	-106.167037658636	
944000000	-0.893324046024879	138.544217661552	-4.12007466737229	-111.472323432719	-5.27967174701521	-104.28078206617	2.88782820733323	-107.491160129257	
947200000	-0.658122900237037	144.188718716567	-4.66589887840617	-112.261000180422	-5.59635897796305	-106.934769460801	2.57344034174581	-115.414129318268	
950400000	-0.758138485263663	145.420192702994	-4.8952211443243	-111.207780565013	-5.82749959896807	-105.914456511552	2.47246741425019	-117.299506367547	
953600000	-1.12705524713186	148.143755251702	-5.31249554487819	-107.451865095056	-6.24536794112909	-102.168783174587	2.02404049636732	-120.785815706217	
956800000	-1.14394877183545	148.135728065763	-5.2628574494582	-103.098602857372	-6.19441597570186	-97.8397601706397	1.71716537168461	-121.576270002958	
960000000	-0.733701283332445	154.505236102125	-5.55458683957324	-98.1365086839503	-6.08861916858086	-94.920515012248	0.874430411719027	-127.874743432241	
963200000	-0.709603005139681	157.045160596576	-5.62736216444867	-93.8570098143658	-6.16166149428975	-90.6412431163967	0.383850155153538	-129.051887515187	
966400000	-0.980967354873848	161.186149630346	-5.28709762075238	-99.3837327877976	-5.82336654304283	-96.1810806814202	0.659242182899414	-129.22327540638	
969600000	-1.01044332940078	161.490205265215	-5.16442318056869	-98.1637994568289	-5.7015341111817	-94.94857389433	0.527756326614992	-129.389814341239	
972800000	-0.481441916200939	167.906580185779	-5.2859111037772	-93.3072112257226	-5.28879633422723	-93.3802425420373	-0.291120205058164	-134.49494531856	
976000000	-0.649630193441945	170.174907503981	-5.09310215355291	-96.4026522980974	-5.09933149347398	-96.4789055877934	-0.244518754212135	-134.878771900118	
979200000	-0.68806711903092	170.831346767322	-4.98607816392001	-95.2768193372858	-4.9983044236805	-95.3679554545731	-0.375136882720394	-135.278283673062	
982400000	-0.878732204904315	171.144887598364	-5.13430840164895	-93.6189310143142	-5.14542594751517	-93.7286919545932	-0.549949131204193	-137.124409514712	
985600000	-0.956353789288558	171.67365474226	-5.12207978768382	-92.3438531324777	-5.13822250492874	-92.4259000589077	-0.684463483890899	-138.150158986145	
988800000	-1.06848311756833	172.424456837781	-5.17641740924051	-89.0033345751937	-5.19770000356195	-89.0315105002829	-1.04633332553927	-139.606702940798	
992000000	-1.15842696538315	173.192660950769	-5.21587652403647	-87.7682576441161	-5.23952946344768	-87.8080192737761	-1.26074867663214	-140.884113197886	
995200000	-1.16772221154411	173.826882252847	-4.85998895044983	-82.331032700688	-4.88382475286024	-82.3418941187635	-1.82427181477342	-140.231144268087	
998400000	-1.27491116611565	174.896330341261	-4.63712794016257	-80.1796008392769	-4.65654540302058	-80.1991869851501	-2.17855041732516	-140.584977103365	
1001600000	-1.30763410087729	175.503179742611	-4.54404121369608	-79.8480884464068	-4.56398845436686	-79.8482615763636	-2.30649241515625	-140.916470845264	
1004800000	-1.35841406769778	177.00665624076	-4.3389603901756	-81.4206985430097	-4.35958378031837	-81.3980141444648	-2.37044762976786	-140.65768749361	
1008000000	-1.43812258939341	177.779328149005	-4.19522586277397	-81.0710422392043	-4.21695305913033	-81.0537964351666	-2.5173946008723	-141.195674409368	
1011200000	-1.50458313116472	177.958268046465	-4.151197105736	-80.0238042029431	-4.17195193159117	-79.9998952250297	-2.63589734839187	-142.280827168908	
1014400000	-1.67668697717274	177.91474566484	-4.22441108106586	-78.8308028409012	-4.2465375910106	-78.7893783345245	-2.69824252967532	-144.253510294608	
1017600000	-1.77916602431631	178.846530472871	-4.02005909664138	-78.4153042392932	-4.03656076257738	-78.3884941348526	-2.86344819629269	-144.890201782271	
1020800000	-1.88843947398922	179.441052505736	-3.95187996072029	-77.7066813900824	-3.97223020281122	-77.6530660123468	-2.99470911365844	-146.023020104418	
1024000000	-1.95797384410773	-179.646079752391	-3.84062619049347	-77.6892204451118	-3.86268821149046	-77.6494614107023	-3.07923010234142	-146.480488789333	
1027200000	-2.02803914261917	-178.467843257513	-3.64057919455072	-77.5914960078769	-3.6642877639607	-77.5275133300868	-3.23495513139164	-146.689440171193	
1030400000	-2.04749995455767	-177.497316209052	-3.51561404376963	-77.6407807294888	-3.53972471563503	-77.5700274897077	-3.31218351341339	-146.841662308472	
1033600000	-2.14337048877613	-176.818006448867	-3.38935573070904	-77.4138522811367	-3.4087128875133	-77.3840126724805	-3.38264959235886	-147.416002862507	
1036800000	-2.25920230208311	-175.577099147411	-3.20970693143531	-77.5030568722037	-3.22441113502405	-77.4840698315472	-3.51101132613044	-147.89223041185	
1040000000	-2.40763754341032	-174.909601281422	-3.12626195572603	-76.8303446398179	-3.14259214565869	-76.8138016062439	-3.62611415226951	-149.041525564297	
1043200000	-2.46875139338499	-174.133352156931	-3.04168302937227	-76.8737772075304	-3.05817793763867	-76.8746981235863	-3.65775791607465	-149.148721999634	
1046400000	-2.51240374641131	-173.442131884384	-2.98516038638116	-76.90630215691	-3.00563604861789	-76.8795579722412	-3.68577294023736	-149.668524724714	
1049600000	-2.6064925836967	-173.147100982525	-2.94738243123009	-76.681282953197	-2.96302267422895	-76.6397032898737	-3.69885760558505	-150.560719791116	
1052800000	-2.76350702112446	-172.532303802147	-2.8443590960239	-76.3654792070042	-2.86180626211165	-76.3264352833773	-3.74632404911873	-151.527040608949	
1056000000	-2.83853092050209	-171.866154348998	-2.77231456867886	-76.2826840110627	-2.78513838224771	-76.235571614476	-3.80710108523371	-151.992150729456	
1059200000	-2.93468093988218	-170.584090496236	-2.61723159918345	-76.3956928953674	-2.63238709549257	-76.3777763953997	-3.94874503972933	-152.279451198976	
1062400000	-3.06095434495953	-169.861892294848	-2.52038350335764	-76.3020660254458	-2.53430255760997	-76.29834622387	-4.0061056949652	-153.019674929745	
1065600000	-3.18157184401344	-169.170987189329	-2.45414931522966	-76.1680028447909	-2.46934753677596	-76.1536898430908	-4.08576911194401	-153.739745293094	
1068800000	-3.23343530217502	-168.334367585257	-2.39120343144858	-76.1917845537062	-2.40256291233254	-76.2042907532168	-4.14133737913262	-154.017790048051	
1072000000	-3.33111769268903	-167.799954399769	-2.34221396484708	-76.0086059599806	-2.35103430594774	-76.0354215236408	-4.20497027888885	-154.744043634742	
1075200000	-3.44836809623528	-167.272383129044	-2.32883182359233	-75.6305062227675	-2.33575285815449	-75.6717557811951	-4.30155264273996	-155.947063549699	
1078400000	-3.59688943835185	-166.825592838411	-2.30252677491467	-75.2182443737642	-2.31112211864991	-75.2364297611285	-4.38571045374099	-157.159600152932	
1081600000	-3.67439673934215	-165.816692962632	-2.23752767738053	-75.2025968202418	-2.24928358990664	-75.2080492414102	-4.53343706892943	-157.76630769698	
1084800000	-3.75162305234668	-165.433300393739	-2.20653342620482	-74.9969721013267	-2.22445992055094	-75.0273090144284	-4.58326619502451	-158.596875399248	
1088000000	-3.78678170681762	-164.79742618898	-2.18763640648987	-74.9777912716193	-2.20340687560159	-74.9998677282996	-4.65810533408967	-159.142009181893	
1091200000	-3.83393267260006	-164.255590419838	-2.17353697018301	-74.8801163021018	-2.18837463486188	-74.9167645555665	-4.74467321968836	-159.969594944272	
1094400000	-3.91414667946095	-163.873812673319	-2.17208530094235	-74.6628319033462	-2.18511963402334	-74.7173594063993	-4.8092920638063	-160.993565038388	
1097600000	-3.96697447779	-163.091532963935	-2.12489688756669	-74.6370696309892	-2.14445279415778	-74.7156910273459	-4.88655235028769	-161.662700735495	
1100800000	-3.98539068514289	-162.606353357653	-2.11980360991615	-74.6219837572341	-2.14141215892394	-74.704495014889	-4.95754389140875	-162.542624569227	
1104000000	-4.03899002517637	-162.266642122028	-2.13006881768103	-74.5889515862705	-2.15445992895919	-74.676228068233	-4.99755921215561	-163.542706669835	
1107200000	-4.09385476998894	-161.934664559874	-2.13349078857609	-74.4769636085956	-2.15564171418678	-74.5609309785147	-5.0593500666478	-164.583741863173	
1110400000	-4.11858135201999	-161.287077412873	-2.11669217876194	-74.5483225449079	-2.13712152543526	-74.6050899682101	-5.16158099587257	-165.403733771352	
1113600000	-4.07665168211736	-161.008518262889	-2.14488160420348	-74.7083152279312	-2.16361221213715	-74.7587525690943	-5.14216053047143	-165.983273246041	
1116800000	-4.12794790782092	-160.63506663857	-2.14687241447722	-74.6494641464432	-2.16247463086072	-74.6771293408881	-5.19155348839325	-167.079294577595	
1120000000	-4.11038877150131	-160.346856519344	-2.1575773582153	-74.796021545152	-2.17540405379533	-74.8192872778146	-5.1675561337413	-167.793447168187	
1123200000	-4.1673224531104	-160.295911431756	-2.14564573746407	-74.8125596207379	-2.15944022471787	-74.8199682494191	-5.12612283710615	-168.673864176815	
1126400000	-4.1646302726485	-159.694349657309	-2.13713241767689	-74.9596759620649	-2.15154627965477	-74.9772851628276	-5.20435322930048	-169.659710851411	
1129600000	-4.16364934719046	-159.51805131513	-2.1463007549804	-75.0808635481181	-2.15687925449658	-75.0975110308617	-5.18936953738092	-170.516491348467	
1132800000	-4.16931169994995	-159.081471343788	-2.14431893859367	-75.3227766148684	-2.14650013664513	-75.3374897505207	-5.20300389599776	-171.287052691544	
1136000000	-4.20162058451765	-158.708204005751	-2.12719499640773	-75.4508736453271	-2.1303052701114	-75.4432874703223	-5.22887642006578	-172.036766802839	
1139200000	-4.23794748775353	-157.978801783793	-2.09799911065976	-75.6249290489102	-2.10386374691809	-75.5906967720315	-5.29939596902129	-172.932682558142	
1142400000	-4.25005341165387	-157.530994672533	-2.07636752838586	-75.6828318909737	-2.08347087097386	-75.6396843615738	-5.35285027161931	-173.614293935402	
1145600000	-4.29514488281968	-156.83247655986	-2.05005039252893	-75.8335887467754	-2.0541465870891	-75.7904402376434	-5.43168866494508	-174.431025026273	
1148800000	-4.31033274605773	-155.990388042123	-2.02141955992623	-76.0293477273766	-2.02177081227477	-75.9755612653877	-5.49097401740857	-174.83818198293	
1152000000	-4.3667625742743	-155.499778095697	-1.97622861621856	-76.0970315730274	-1.97587142363094	-76.031496504628	-5.51127577198258	-175.474540073283	
1155200000	-4.37750592566453	-154.923078579783	-1.94867855538579	-76.3086283862183	-1.94543648037146	-76.2419878917768	-5.49946503674167	-176.020443433076	
1158400000	-4.39934227752742	-166.083835164117	-1.91092946354409	-76.5444597018735	-1.90683094091692	-76.4898268001985	-5.52044132457876	-164.496530007071	
1161600000	-4.48579047462864	-165.385113902844	-1.8584707485539	-76.6092883770624	-1.85584713808762	-76.5564781268408	-5.62053499478657	-141.353966912204	
1164800000	-4.55978863287022	-176.603357527123	-1.80888194311937	-76.7046692279448	-1.80856836748719	-76.644352387681	-5.66951852007536	-130.275716603944	
1168000000	-4.62952257210169	-175.920371850325	-1.76321501805299	-76.8265745820385	-1.76223780514786	-76.7602254573161	-5.7614445539875	-131.025338389673	
1171200000	-4.65196452841194	-175.081155417437	-1.72572473874045	-77.048041867929	-1.72802272971815	-76.9973478255815	-5.83261130916487	-131.34603506838	
1174400000	-4.72388552695292	-174.563154390633	-1.69516114475026	-77.1115162324463	-1.69542402623417	-77.0815467838785	-5.83264191755998	-131.838623824548	
1177600000	-4.80180829170611	-173.964531998746	-1.65396381198614	-77.127566443346	-1.65626272226077	-77.113430425542	-5.87396154359385	-132.48354868418	
1180800000	-4.84554399616799	174.874550323893	-1.62342807711675	-77.2667891103426	-1.62999034464432	-77.2540081228853	-5.96209485974428	-121.145664092075	
1184000000	-4.8879683393202	175.386793572316	-1.60528565997088	-77.3428964542165	-1.60958005663283	-77.3475704283348	-5.96215797336841	-121.693724452778	
1187200000	-4.96705528309213	-172.31683631465	-1.58424503332301	-77.3932777730863	-1.58690883893025	-77.4240400492572	-5.97286597187222	-110.470271835402	
1190400000	-5.05226080960273	-159.747336561229	-1.55691828103739	-77.4627170433423	-1.555975804816	-77.4981270241506	-5.98029539042034	-99.2390243335405	
1193600000	-5.13067748741277	-147.340396143115	-1.53827472894502	-77.4411118408303	-1.53619581989722	-77.461027055937	-6.01509189514648	-87.9365109455985	
1196800000	-5.18552499033092	-135.019682361336	-1.52284755664465	-77.5333366872735	-1.52227723717041	-77.5531224134046	-6.07187589999754	-76.6288336380837	
1200000000	-5.2338277571373	-122.500734751367	-1.5154278627585	-77.6508495897234	-1.51343780988277	-77.6701923157686	-6.14044019186904	-65.2892279802439	
1203200000	-5.30184227316963	-109.829375050885	-1.49884831295328	-77.7379829248194	-1.4973523340182	-77.7235710745153	-6.23073901645435	-54.0304073580124	
