!Keysight Technologies N9950B: A.12.38
!Date: Friday, 28 April 2023 16:37:15
!Timezone: (UTC-06:00) Central Time (US & Canada)
!Model: N9950B
!Serial: MY61131330
!GPS Latitude: 
!GPS Longitude: 
!GPS TimeStamp: 0001-01-01 00:00:00Z
!GPS Seconds Since Last Read: 0
!CHECKSUM:1011136914
!Correction: S11(ON U)S21(ON U)S12(ON U)S22(ON U)
!S2P File: Measurements:S11,S21,S12,S22:
# Hz S DB R 50
800000000	-4.95928901051149	131.564834084625	-1.0367260975889	-92.0361744800263	1.74599371972023	-47.1818153639819	6.42547031026354	49.4619999464129	
803200000	-4.99601481231719	103.482768538202	-1.17291393445229	-26.96907422753	1.57964112200893	-12.0078439049375	6.34116384614745	-41.7364142061958	
806400000	-5.06111013028737	97.7474660536161	-1.31706509902877	-14.4855569289747	1.38717388410137	-5.55004630565386	6.26753837531114	-60.1971644343634	
809600000	-4.17072353245113	99.0512261087121	-1.31930833703449	-26.9235467062121	1.10081989364468	-13.1780098918255	5.72569702532603	-55.221177748885	
812800000	-4.2007571018217	102.013401948749	-1.51346482518506	-47.0223400820791	0.896331151490956	-25.0285306600461	5.68215735441769	-41.0704436358793	
816000000	-4.20853942533943	104.356486570761	-1.66176757867895	-62.902800373284	0.712976358884438	-40.0673489194312	5.67759867244141	-41.0605849617815	
819200000	-4.22973768505308	105.230121520523	-1.7811927059555	-72.5609192608256	0.529263017731726	-44.6744188502013	5.74007238593609	-35.4520773693865	
822400000	-3.33862065367908	107.601468612802	-1.76272463587433	-80.7416853013886	0.268211881200528	-52.7379334781622	5.14090061128514	-37.1358454598865	
825600000	-3.37948716663908	105.889187174661	-2.12262536801083	-83.6587010578908	-0.0530969941745699	-54.5876840393967	5.05365892683462	-42.4440238698925	
828800000	-2.69325752381223	107.206924178491	-2.18164395170274	-94.587940676951	-0.111625731103088	-65.5268068728835	4.48103334322197	-42.7384639065748	
832000000	-2.02255260774675	109.453709127177	-2.31680016295085	-104.864494249201	-0.247284997510946	-75.8035381770705	3.81917224459132	-43.3725764445245	
835200000	-1.43902006971083	110.965584752442	-2.46154154993441	-115.325315639315	-0.393630946684821	-86.2684373472507	3.26709899310518	-43.5609798026671	
838400000	-1.56455226709583	112.747380259558	-2.58460634494439	-124.499484355682	-0.19411379003062	-91.3742771489922	3.28092026515129	-38.7728855546757	
841600000	-0.75369482455745	113.101762455975	-2.53619465189684	-126.531089575655	-0.42300219579129	-96.8574442140241	2.73040729832957	-45.0851233190227	
844800000	-0.103015638048819	114.980653749201	-2.5118013779928	-136.845346195511	-0.400293722778908	-107.156438433004	2.23334170429327	-45.1628195565345	
848000000	-0.256616708736047	114.371464480147	-3.00864167845228	-138.543683899236	-0.744821107322614	-108.320354882344	2.26373885729259	-49.2708337218013	
851200000	0.258590283114082	114.312841967583	-3.21407150100682	-141.437680602847	-1.20419437476019	-114.5470588311	1.99504112807616	-56.461976070217	
854400000	0.937168537240092	114.668707902865	-3.31565459817394	-143.783573000878	-1.5393028196947	-120.395702335381	1.6111880484336	-63.3148931865083	
857600000	0.67914285944355	114.435743220704	-3.52929373384197	-143.764564453748	-1.74780438155367	-120.39561082998	1.69827439991103	-63.6797756500566	
860800000	1.27152298392108	115.487744547183	-3.60811148636698	-145.069270505875	-2.09957766159683	-125.4179481869	1.28756571758738	-70.20021495505	
864000000	1.57850249176803	114.354453961103	-3.81084908447318	-136.843976599416	-2.54973893951075	-120.872369273824	1.02238191818268	-76.4343874609297	
867200000	1.5569810594958	114.718284360806	-3.8918553417049	-135.795868203273	-2.51640645219005	-120.615938945073	0.929290928034018	-76.2089756918826	
870400000	1.00075552607853	113.838143984285	-4.38957336370273	-136.543661485285	-3.01512999147852	-121.31056131891	1.23546984699345	-77.5582734979096	
873600000	1.46431106209857	114.397779029345	-4.42434015803796	-137.788132163045	-3.37187262540189	-126.60032301725	0.980042898589113	-82.2456598254219	
876800000	1.00316536926486	114.912452298819	-4.79467548812299	-137.714968308305	-3.74991787812439	-126.493193695378	1.24613448317319	-83.3880627074149	
880000000	0.69646645380987	115.46777492551	-5.08072743666586	-137.263179101882	-4.0362494285948	-126.055317091508	1.38257704820753	-84.675936254908	
883200000	0.381195735386183	116.290839190006	-5.37890569580244	-136.992356504426	-4.329993340399	-125.790129497366	1.54974004210681	-86.1365405867527	
886400000	0.832114335565631	114.351653263398	-5.57589963494451	-127.828209943465	-4.85047414645447	-120.692740083375	1.07703527455264	-90.9329177691179	
889600000	0.465996131064897	114.665455700843	-5.85237127224816	-127.792566004237	-5.1226694868791	-120.616188082076	1.25465013939127	-92.1845846571602	
892800000	0.0970675876584646	115.735750926678	-6.18432293040117	-126.883510992665	-5.45197384604339	-119.722358696531	1.38182258573198	-93.902490186132	
896000000	0.626751529459075	117.631891323727	-6.0162346985263	-126.64020636034	-5.68786847150006	-123.463172685595	0.963997341277016	-98.0130388523918	
899200000	0.0462228999432212	117.014548931883	-6.04848338234197	-125.613840163265	-5.45816435198481	-118.987453501692	1.38201712091187	-94.6230076868928	
902400000	-0.249273586765353	118.421730647509	-6.32184660278022	-124.760363709031	-5.73064330133074	-118.130334914457	1.5285388058396	-96.5429052834732	
905600000	-0.464557313141089	118.397370664787	-6.45257424713562	-125.129075290293	-5.86639400878692	-118.509508819609	1.6852925631988	-97.0809498146441	
908800000	-0.766763248434554	120.183191940784	-6.93796019531538	-123.929529951678	-6.35158663626217	-117.334348679656	1.84030689056244	-99.8620536968619	
912000000	-1.2394571265021	120.422546522722	-6.97705768074841	-133.730797587621	-6.16501907003843	-123.435757943083	2.2518761702925	-96.5478572184563	
915200000	-1.06063060913774	121.336327326658	-7.3662409556581	-136.623627005517	-6.88593554116555	-129.414883469622	2.19020531598197	-104.516389065192	
918400000	-0.679170590295167	121.048062137458	-7.5286936959068	-127.466732761117	-7.04988094971781	-120.283552772244	1.73517321463689	-105.167526775211	
921600000	-0.805673126202786	123.856094315027	-7.90028124595466	-124.3857697397	-7.42067653530803	-117.22010243504	1.71329378107936	-108.507881891691	
924800000	-1.30793489108353	122.731619768691	-7.84572157410318	-123.862639847976	-7.14191150447973	-112.677434747402	2.06146549207133	-104.939984558376	
928000000	-1.21902580321397	123.101510618088	-8.03948692321486	-116.768366717885	-7.33102882419331	-105.559185117954	1.89064255816093	-106.566517452678	
931200000	-1.22646311383433	125.016049765783	-8.21302307507492	-113.943227827048	-7.50304865161004	-102.714696241091	1.76875342346923	-108.767617925704	
934400000	-1.22145250985554	129.508651646901	-8.20748736699855	-122.383695611177	-7.49844599248472	-111.145550405527	1.69317803371185	-111.934202090053	
937600000	-1.37684339885399	131.481290594636	-8.44231663876563	-119.906018209689	-7.73657286734697	-108.694905783413	1.66703709492949	-114.3571562184	
940800000	-1.49337813978273	132.372318887485	-8.62363564768089	-119.684340734691	-7.91464161275163	-108.492708061099	1.74713966847118	-115.687097301198	
944000000	-1.54925908638802	133.69274778272	-8.6684471502186	-118.260299796754	-7.95719162616313	-107.098471994627	1.70424283639871	-116.983588217703	
947200000	-1.31239986582894	138.064328081808	-9.21246641513198	-119.388695039984	-8.76019082451116	-111.654845279879	1.49924764637666	-124.853018384072	
950400000	-1.34543828418644	139.478433997	-9.38369702181278	-118.1940528525	-8.93421806855329	-110.48862712527	1.47415740889554	-126.547570787103	
953600000	-1.44877015475408	142.410320679228	-9.54620375375954	-114.185740680369	-9.09416169293675	-106.492428259742	1.31058909224213	-129.839451537202	
956800000	-1.34612971024844	142.514327628944	-9.40448006993729	-110.003005991981	-8.95314572333408	-102.324172033318	1.13587245385015	-130.56356354799	
960000000	-0.852238953413914	146.712643413797	-9.56584135417937	-106.325007538466	-9.34055636149668	-102.360924710441	0.536124866133664	-137.722249430277	
963200000	-0.674853269952839	148.713558264246	-9.524867753035	-102.798406706641	-9.30065270922676	-98.8182532977903	0.207098558765741	-139.509854531442	
966400000	-0.997968270307345	151.556705267919	-9.27224703218362	-109.530306277017	-9.04910695056458	-105.552663730454	0.420142203223014	-141.094568320137	
969600000	-0.978479353899576	151.762434868398	-9.09554339374531	-108.524264520994	-8.87435839522505	-104.542075762733	0.342465498315248	-141.386239392878	
972800000	-0.42429780666202	155.847340993123	-9.1087037634421	-105.374244661504	-9.10559327939176	-105.451674556983	-0.264010556760051	-147.702658884805	
976000000	-0.593805648064555	157.44193762163	-8.93109476379133	-109.13960397759	-8.93051426119231	-109.217855709063	-0.225996502536557	-148.765134016058	
979200000	-0.579641724587275	157.961831391239	-8.79321843944215	-108.337286135949	-8.79904983249871	-108.439640100978	-0.296209608297346	-149.316940945144	
982400000	-0.656609054711485	158.633566734007	-8.84276194105832	-106.578720033673	-8.84619348087243	-106.691207895355	-0.348083953023862	-150.791334638409	
985600000	-0.673176953218554	159.242568358189	-8.77176044516869	-105.29492556896	-8.77611556839219	-105.376616371728	-0.416373445469079	-151.719906949755	
988800000	-0.633957843981563	160.121665256358	-8.65147095308962	-102.028151084813	-8.66269460979718	-102.058118628353	-0.614195521109144	-153.065453167776	
992000000	-0.642566649203651	161.013781263779	-8.59885600073315	-100.731124138845	-8.61092091414041	-100.770899742419	-0.738714006398286	-154.204812708383	
995200000	-0.487064105428309	161.014726022989	-8.05480885138259	-96.050996013634	-8.06730084351038	-96.0891579084739	-1.12821572745979	-154.207172606618	
998400000	-0.46925405084274	161.753705218849	-7.70170481422458	-94.3180004650721	-7.70987411876529	-94.359638792411	-1.34509160512035	-154.879576537613	
1001600000	-0.46238781103525	162.220258193844	-7.5735938048	-94.1897548532539	-7.58538348670351	-94.2137552401376	-1.4264732089817	-155.365339197285	
1004800000	-0.508453550052122	163.183301548881	-7.35208715500381	-96.239934656989	-7.3658298106631	-96.2398034974853	-1.48846140193782	-155.633507089869	
1008000000	-0.538576772089894	163.785898584188	-7.15059039284192	-96.0566882953309	-7.16585586705939	-96.0578626164866	-1.58112671437169	-156.319506898385	
1011200000	-0.556680835840926	164.121815579003	-7.03471163949265	-94.7767381103156	-7.04969499733177	-94.7824236944882	-1.65209696323342	-157.228816352377	
1014400000	-0.659821817161656	164.555995167571	-7.03009236645768	-93.1435202217357	-7.04399418606386	-93.139245812487	-1.64576565493688	-158.642514203763	
1017600000	-0.704037102495665	165.253990342645	-6.76323565799202	-92.85125846885	-6.77201080003148	-92.8369362539181	-1.75263767151542	-159.475766933885	
1020800000	-0.758373659483328	165.884017399272	-6.62823830860821	-92.0474400219119	-6.64091114765024	-92.0041827699708	-1.82984356734368	-160.518061177994	
1024000000	-0.792868707372183	166.590516421137	-6.48229861891934	-92.150881099422	-6.49976586557665	-92.1240445947436	-1.88142466197388	-161.13510606783	
1027200000	-0.824541444565549	167.372632059095	-6.24309260243963	-92.1371428993066	-6.25943252605359	-92.0855995011753	-2.00013442655189	-161.728281296269	
1030400000	-0.835062750146462	168.03477281784	-6.10592350515288	-92.2037694232223	-6.12358390932894	-92.1567903077391	-2.06733585107173	-162.178978877711	
1033600000	-0.892394939836449	168.554570846914	-5.94232355359358	-91.9955244000577	-5.95714729508354	-91.9869050358559	-2.10482715265991	-162.891788586657	
1036800000	-0.955703743861195	169.410679061659	-5.73155914549601	-92.3233293660658	-5.74155502474753	-92.3054338693949	-2.18148983182441	-163.691663888958	
1040000000	-1.0371659348431	170.022344016604	-5.60041965917083	-91.6040035212948	-5.61478679784683	-91.5782009327396	-2.23075050066018	-164.82050337676	
1043200000	-1.07425569784993	170.526763681992	-5.52055912771404	-91.7773453252962	-5.53582976837344	-91.7621179497351	-2.24009076161983	-165.214934446765	
1046400000	-1.11204935670642	171.09686068319	-5.45306941337866	-91.6968142243283	-5.47122163938643	-91.6723695579771	-2.26783869444167	-165.830893919552	
1049600000	-1.18375882038286	171.477669324809	-5.37424774517175	-91.295890585844	-5.38717682485376	-91.2664351337241	-2.26606987373416	-166.583932868429	
1052800000	-1.2952520201977	172.019808205762	-5.23214479220482	-90.8519355876981	-5.24382447874636	-90.8321556032155	-2.27478745635247	-167.564192799998	
1056000000	-1.3430846707147	172.531014775772	-5.14073860435626	-90.7471459840048	-5.14697414719257	-90.7261330727003	-2.31126167110154	-168.13944454766	
1059200000	-1.39331079167003	173.400503811794	-4.96219881827235	-91.1187263912298	-4.96814996244919	-91.1081118436596	-2.39911272312506	-168.771851623462	
1062400000	-1.46993960910097	173.988173183874	-4.83585140879186	-91.1316697254949	-4.84211535325586	-91.1212195186649	-2.41361947695503	-169.598678423303	
1065600000	-1.5419705586974	174.562141434639	-4.74513546646873	-91.0685523455512	-4.7514697026182	-91.0645943240042	-2.4489910977336	-170.368727598051	
1068800000	-1.56854804037891	175.162625143224	-4.67742832019453	-91.2473831693331	-4.67989533131695	-91.2740550218673	-2.4738042652668	-170.873298736683	
1072000000	-1.62840859383878	175.68343111325	-4.59680065041613	-91.0693675765586	-4.59584344796753	-91.106856395787	-2.49868714613928	-171.540830647603	
1075200000	-1.68775579286034	176.290423791196	-4.54591937389798	-90.757814708802	-4.54339807836387	-90.8146662215915	-2.53344434321653	-172.553425591603	
1078400000	-1.77398779829313	176.835463745479	-4.4735136094257	-90.3574767323478	-4.47018824599184	-90.3930069634329	-2.55753335256948	-173.587898857005	
1081600000	-1.80295855300793	177.690285409956	-4.37428970485304	-90.5686116262623	-4.37375230153568	-90.588010820462	-2.64381977051196	-174.290297596667	
1084800000	-1.84429153856613	178.093396200934	-4.3272894255741	-90.3793211733282	-4.33071184186339	-90.4301734782891	-2.65845322596282	-175.054044430992	
1088000000	-1.86216181407561	178.670084453012	-4.29677470799429	-90.4332884042063	-4.29600746207163	-90.4622646475402	-2.70612136279042	-175.64479536097	
1091200000	-1.88533334161332	179.266413699878	-4.25240398688801	-90.3741535541673	-4.24993290895771	-90.4116397070071	-2.76040995534887	-176.360995137203	
1094400000	-1.92283873290426	179.76214258754	-4.22044522385014	-90.2641179921552	-4.21843022506073	-90.3194673080614	-2.77619933035574	-177.222169773656	
1097600000	-1.9525943829544	-179.560634174148	-4.16330460379829	-90.3258317905729	-4.16497049640483	-90.3928100603334	-2.82335725895017	-177.976436728393	
1100800000	-1.95029958905658	-178.993755713138	-4.13685542892821	-90.4046495069277	-4.13954449447858	-90.4645578417209	-2.8665565668852	-178.740796564287	
1104000000	-1.97801187351423	-178.422531663665	-4.10691130704611	-90.4802647674122	-4.11579544667448	-90.5381465327353	-2.87518099190328	-179.480802714036	
1107200000	-2.00779523771892	-177.946425681837	-4.08611106889175	-90.3775580610812	-4.09482744556571	-90.4295732151848	-2.91259320459766	179.643674942869	
1110400000	-2.02476458417879	-177.296045606199	-4.04747121494655	-90.4211070882884	-4.05375060177312	-90.4651405899778	-2.99906510576048	178.871154080534	
1113600000	-2.00637885839672	-176.872417617619	-4.06509645715198	-90.549714862733	-4.07139663046771	-90.5874571655852	-2.99601688289192	178.394910239274	
1116800000	-2.03913119927378	-176.347117853966	-4.03631098177311	-90.4380339876084	-4.03972789699991	-90.45873576285	-3.02735077254865	177.506238294423	
1120000000	-2.03988415099164	-175.95305954557	-4.04165197362878	-90.4996999070472	-4.04722049357379	-90.5168986126508	-3.0222897889403	176.854114402491	
1123200000	-2.09226892723356	-175.682255519195	-4.00025707788824	-90.4214479126693	-4.00602393852978	-90.4280489588137	-2.9835735652669	176.184795692169	
1126400000	-2.08471728124811	-175.017857494532	-3.96818250882925	-90.5704654836909	-3.97589134542851	-90.5923397022608	-3.04855249944144	175.281560162305	
1129600000	-2.10182976343807	-174.67557437985	-3.96105392995227	-90.5088253689168	-3.96587754299544	-90.543281024374	-3.05897703606712	174.576747188559	
1132800000	-2.11697340074255	-174.142771909597	-3.93174607733241	-90.673585235058	-3.93112727281707	-90.7244816613879	-3.08805081623781	173.915884776665	
1136000000	-2.14177471625337	-173.721053100711	-3.89596383566117	-90.7431513263212	-3.89709138274167	-90.7819811725418	-3.11326005680484	173.216598326482	
1139200000	-2.16956469565079	-173.035199847277	-3.84579542486338	-90.8540668623037	-3.85096093327854	-90.8761603787197	-3.17872222864466	172.334535226831	
1142400000	-2.17982927908778	-172.590476810465	-3.814896015378	-90.8123388803487	-3.82043859176159	-90.815955240422	-3.23327747835041	171.658785309993	
1145600000	-2.20707513657747	-171.915677489467	-3.76280286289387	-90.9846177329373	-3.76637843325854	-90.9810064204393	-3.29450245042772	170.863536440633	
1148800000	-2.2176495084494	-171.243722457348	-3.72757215880137	-91.186146400509	-3.72982229999369	-91.1756377171471	-3.34945728648235	170.325485826589	
1152000000	-2.25836521550387	-170.881234002492	-3.6842780832561	-91.1767021707451	-3.68572449184501	-91.1489938794337	-3.36569428746236	169.565434666697	
1155200000	-2.27801112780859	-170.359235376716	-3.64626159812254	-91.3018492716191	-3.64570585539331	-91.2919091375839	-3.36520036789055	168.970396665478	
1158400000	-2.29207762893083	178.28322917305	-3.60818517756439	-91.5850689055829	-3.60798345585297	-91.592144200344	-3.37631191513485	-179.695057227856	
1161600000	-2.34196720092297	178.889274874015	-3.53388218335789	-91.6634403524215	-3.53533382927863	-91.66562542994	-3.44436574588972	-156.557322657108	
1164800000	-2.39386436344116	167.500008619501	-3.47941061308519	-91.7289595754026	-3.48182919379788	-91.7099437993252	-3.47333116738816	-121.581387335419	
1168000000	-2.44285871688911	168.081803857601	-3.41540581092845	-91.8124906182347	-3.41520794809216	-91.7856639976089	-3.5421908011185	-98.3825221576056	
1171200000	-2.45674780921518	168.622619320307	-3.38670901028683	-92.058489394929	-3.38552962127936	-92.0388854542938	-3.59899568432827	-74.9574599402587	
1174400000	-2.51414144319847	169.023453275057	-3.35177365779604	-92.1200158738137	-3.34845801626857	-92.1068530321783	-3.58531860360353	-51.5252590721446	
1177600000	-2.56685247152347	169.48754002823	-3.30675267728476	-92.1515156074129	-3.3047061056774	-92.1368061192813	-3.60114457982531	-28.2567647510322	
1180800000	-2.59059223327023	158.223913090014	-3.26022439504939	-92.3585889695552	-3.26149909026717	-92.3466957016634	-3.65232390814016	7.03642239709075	
1184000000	-2.62782338515136	158.668648889193	-3.23779520024869	-92.4201795688823	-3.23786581958852	-92.4227356755818	-3.64438676944257	30.4378814493224	
1187200000	-2.68827965512184	146.987450326416	-3.20463835142075	-92.4510669661146	-3.20368087247495	-92.4769967528908	-3.63503529796504	65.6859458080334	
1190400000	-2.7575099666408	135.471953736718	-3.17051086912685	-92.5005062430965	-3.16427741438515	-92.5374865980995	-3.62359877245432	100.879454212764	
1193600000	-2.80433148137875	123.842372535674	-3.14371736628309	-92.5235962960499	-3.13617497324203	-92.5578664552451	-3.62503361429753	136.206201479091	
1196800000	-2.84795370992895	112.149866416761	-3.11899655436838	-92.5673998368981	-3.11148643971051	-92.6084321000823	-3.6652616171627	171.51505877258	
1200000000	-2.88073049408274	100.7018491482	-3.08964672297713	-92.712101985183	-3.07926343386444	-92.7671186333805	-3.70775021786806	-153.062492756339	
1203200000	-2.9192571263279	89.3015120859923	-3.05949475611009	-92.8872586241493	-3.04951594781095	-92.899728220982	-3.76012450456835	-117.811816968033	
