!Keysight Technologies N9950B: A.12.38
!Date: Friday, 28 April 2023 16:33:14
!Timezone: (UTC-06:00) Central Time (US & Canada)
!Model: N9950B
!Serial: MY61131330
!GPS Latitude: 
!GPS Longitude: 
!GPS TimeStamp: 0001-01-01 00:00:00Z
!GPS Seconds Since Last Read: 0
!CHECKSUM:0400610263
!Correction: S11(ON U)S21(ON U)S12(ON U)S22(ON U)
!S2P File: Measurements:S11,S21,S12,S22:
# Hz S DB R 50
800000000	-19.2264840383887	155.65837917883	1.35374034578742	29.4419806916175	2.31162044766575	-21.6257040738171	-7.08608979720327	-130.605312415443	
803200000	-19.1775768031463	-129.825932074062	1.36454875637857	10.2144230632608	2.31037763729715	-6.80382866698288	-7.05421476281046	16.9367560003944	
806400000	-19.1160773184984	-30.3183865178719	1.36374783879546	6.37974393544319	2.32148574225031	-3.83023481787226	-7.06396675367016	131.142812388158	
809600000	-20.1185246687807	31.3337056539079	1.14784410026163	9.21982518920514	2.0146648535731	-6.31055473096389	-9.31559379959016	179.954950349769	
812800000	-20.0311692671869	60.6689226152482	1.13482014861457	15.0496147148106	2.02716077583835	-10.1922100959886	-9.36475466493484	-169.57380072778	
816000000	-19.9340440003148	66.0413132406083	1.09729090195794	15.2428594705071	2.04270413783805	-10.5150036046595	-9.44614838794672	-168.522284811745	
819200000	-19.8707236467831	81.2110216035923	1.05932937267569	18.0893487516028	2.05090046260538	-12.8982339219571	-9.48110533568837	-163.863252547884	
822400000	-20.4909938274598	82.5420546667028	0.83329666646387	17.8777495305039	1.73704681761753	-13.0804602955312	-11.5515800817844	-164.676303854077	
825600000	-20.4410773854687	107.286336841252	0.782680254878546	18.4203327227549	1.70956236764907	-13.45252845657	-11.6267387103086	-141.201446599147	
828800000	-20.109121300852	122.468767265805	0.411661372078073	18.4633357972037	1.33907450269378	-13.4254630360938	-12.1715097338853	-127.694228989964	
832000000	-19.059244200948	126.080676173829	0.0591451231391024	18.2890791132024	0.985073980843097	-13.5955669447767	-12.1000339742526	-125.980275134886	
835200000	-17.4649182906884	124.709879207339	-0.301582937194876	18.1319742803739	0.624037161780621	-13.760498030634	-11.4546438271534	-128.720485325825	
838400000	-15.5248262275476	126.276266808949	-0.408071104248756	20.5300177852253	0.572952281603325	-15.5757151039289	-9.25672912539828	-136.198213459317	
841600000	-16.8311581692537	118.952111201466	-0.60303114181566	18.0834994876822	0.256688685574294	-14.1919165104674	-11.8672123413525	-138.290112905306	
844800000	-16.4875492915601	106.52264866948	-0.934631417530716	18.1731117096361	-0.0749155339801542	-14.1182338061845	-12.306406359652	-152.398897096562	
848000000	-16.6550291962786	107.061585671043	-0.948750449918285	18.3270806347441	-0.141146723906988	-14.3800450533044	-12.2458185684476	-153.528724547918	
851200000	-17.4190739656813	100.713283660692	-1.17217910375275	15.9311422955222	-0.445009494126164	-12.7891550624867	-13.8139311010773	-153.818048569526	
854400000	-18.362869538403	93.2687114538828	-1.37220811882999	13.6563930934456	-0.74784284565419	-11.2866000624739	-15.7518953893766	-155.211191782693	
857600000	-18.1029799849454	94.5977545688117	-1.34942366326699	13.7631707817152	-0.723401556797468	-11.1911069303695	-15.4196538615274	-154.251567422187	
860800000	-18.9575004198651	84.8005081987679	-1.50409269669198	11.4595624162281	-0.993988656655987	-9.5126093152356	-17.1761746446479	-158.632996559961	
864000000	-20.0347968654388	66.2901997140642	-1.36375698132999	9.09983562572665	-0.99643663652619	-7.88410055106148	-18.8486805830626	-169.882987621206	
867200000	-20.1107729732392	42.3900629367457	-1.33302893051997	9.04439986799201	-1.01818401863029	-7.77612049048913	-18.8108413117705	-170.101345839628	
870400000	-20.4934325772228	23.4842299756156	-1.28875683223486	8.99405576063139	-0.976598291771798	-7.81977973146583	-18.3667077079376	-165.284862869848	
873600000	-22.0368440378095	-4.45702654456506	-1.41164354028157	6.28095489886019	-1.21336975064539	-6.21601581536782	-20.4808628407037	-162.970090145422	
876800000	-22.1174388066781	-30.1972547280937	-1.33148849269678	6.5107568036663	-1.13976515452592	-5.96425513177237	-19.8577132477057	-166.917216587855	
880000000	-22.1212127399717	-53.125733237082	-1.29031037845168	6.57206189598326	-1.09662109081988	-5.91110403202522	-19.4718327915442	-167.805507196574	
883200000	-22.3443096377462	-77.7135167715277	-1.2298684965981	6.6450624740813	-1.03247930021432	-5.82580620332113	-19.2428061636293	-170.821974281043	
886400000	-23.1211736783494	-99.0492076982827	-1.17066009153457	4.09699744396137	-1.02809349573141	-4.1854732935874	-21.2232821946838	176.693185697046	
889600000	-23.5308139757846	-106.081636038708	-1.09612178469457	3.96720865376143	-0.951197919183284	-4.2677449608567	-20.9160761838871	168.634384808635	
892800000	-23.9566609314814	-105.819707772769	-1.03084289157239	3.73819443945546	-0.885126582954106	-4.49146748312585	-21.0116105231823	166.424481651267	
896000000	-24.6017865266423	-114.079373080738	-1.15621841840418	1.34352474112947	-1.08364737521257	-2.56549994095635	-22.5637905606186	163.433410778028	
899200000	-23.9177605184705	-106.391590378185	-0.975645000574962	3.4918449481239	-0.761652840053793	-4.31720078972553	-21.0114697326577	162.238410607896	
902400000	-23.9954972834424	-107.82895027311	-0.896141992551935	3.4624274346696	-0.682674363672119	-4.35110826307522	-20.7448099403695	157.421007302994	
905600000	-24.7546028713339	-101.993602669466	-0.879068570550381	3.1904566909793	-0.667020980904792	-4.63544377225645	-21.0367347548913	163.545436584954	
908800000	-24.9099328094068	-94.2787608852456	-0.848023203451142	2.94903911757732	-0.636218337609332	-4.88626558616492	-20.7987824576881	166.457905986216	
912000000	-23.9794725404714	-74.4401615963149	-0.960790675059983	5.46536477331456	-0.611951845972903	-6.47399891717949	-18.9191544366946	176.730646501196	
915200000	-25.7173235347089	-54.3591931608794	-1.09382695638636	3.08129431102064	-0.829424469402195	-4.92750476225156	-20.859081007781	176.125129885624	
918400000	-25.5449871365478	-21.7553471321551	-0.874389956687264	3.03656199458056	-0.609352654710945	-4.97221985804947	-21.7386436153659	-175.794789899793	
921600000	-24.5049538443011	0.587340926467732	-0.80929383318456	3.38675313524798	-0.544504253209583	-4.62633017256407	-20.806193546643	-159.324030379399	
924800000	-23.6574667552586	34.7299180259822	-0.65544630724731	5.84279229617337	-0.27051437362741	-6.48162776285241	-19.1659697672382	-133.235192864538	
928000000	-23.2675882017162	61.3590351992407	-0.522709745592669	5.77485542793355	-0.135291541759429	-6.53407977039653	-19.2870031539702	-108.485695487673	
931200000	-24.1862154718766	96.5131301967198	-0.433931061877816	5.28144289078961	-0.0458892428515895	-7.02754961884176	-20.1724575324534	-75.0764657080144	
934400000	-25.3984392675186	111.716630997692	-0.646808163884598	4.82695937175134	-0.258061095675828	-7.45976095626349	-21.1239420669605	-42.045461218476	
937600000	-24.2839096492063	116.380739003601	-0.550977003366562	4.98540304460125	-0.163407048785449	-7.32407773119017	-20.1274130928913	-17.0243167756886	
940800000	-24.7350273877853	113.701154177935	-0.518865360023029	4.91925256536277	-0.129065885928278	-7.40415238865449	-20.4004955514258	2.02821340923867	
944000000	-25.061418401213	109.678368134984	-0.449964390485268	4.44258451037811	-0.0574241743221677	-7.8907059499571	-20.838138040526	19.6365890821828	
947200000	-26.4153754694614	89.0467925782444	-0.519556172007693	1.95148346243716	-0.264304441811047	-6.45204851773079	-22.6150823102709	23.4349709632664	
950400000	-26.3970226861144	82.801193998393	-0.455003701703193	1.5181497536921	-0.198509242047062	-6.89779640054156	-22.645108803289	38.4014273743613	
953600000	-25.7264417840101	76.7199376341598	-0.333586074950581	1.30991352498857	-0.0774367620586528	-7.10432685438521	-22.2093219833768	50.153331686648	
956800000	-26.1444435500673	73.9087847692313	-0.217887817646078	1.13148108063548	0.0392787337480745	-7.29289062750476	-22.8140383553255	70.4332003101381	
960000000	-26.986460847844	59.0188244309004	-0.235157670314785	-1.90816593572595	-0.116065706378823	-6.23322899222873	-24.7762132265844	81.9163017950036	
963200000	-26.0588988367338	54.4823670405586	-0.16588752873659	-2.12057042728933	-0.0461192770077795	-6.44144068363087	-24.5799203288577	98.5587954963219	
966400000	-28.104309169733	42.7097715014943	-0.3234736056496	-2.65154954403591	-0.203324494240109	-6.98676275897619	-25.1996013270736	106.909235395119	
969600000	-28.7668378429357	35.0055082457602	-0.246182228110294	-3.40502540980878	-0.127005404422707	-7.74093720091131	-25.8611874063564	98.7259832348765	
972800000	-29.3912671782112	24.6606909648814	-0.323762386742931	-6.41959170961422	-0.320765335542927	-6.46864369514872	-27.616055548285	91.2992276652886	
976000000	-30.8210350621806	14.7794801168658	-0.348926417087379	-7.23786693369159	-0.348781469908496	-7.2951953489672	-28.6120938582369	80.6907150090645	
979200000	-29.9709210138068	-3.83741243563782	-0.313026022949561	-7.38931403515546	-0.318153459456334	-7.46533492037368	-28.0595500764855	59.8765760656958	
982400000	-29.0473425627147	-5.55109423711572	-0.25328622709321	-7.4791343798636	-0.25706127426657	-7.57951543056636	-27.3139680072119	55.7835551706489	
985600000	-30.312168808611	3.97581820983527	-0.269816283322021	-8.1331690457593	-0.275539498919595	-8.21112643443353	-28.683970512752	63.2248185189521	
988800000	-29.6447192392977	9.90505615003952	-0.218510047895812	-8.45189663668408	-0.229289208948577	-8.49645026992714	-28.4154458074134	66.7992017571242	
992000000	-29.6844268104502	12.7127412199167	-0.212373358567428	-8.7021597538177	-0.222848448177089	-8.75727956835746	-28.5371182407126	68.5320960543362	
995200000	-30.2031752010713	23.3186113250074	-0.163197286808606	-9.40182133841774	-0.173630609719705	-9.46634678550306	-29.6110096100278	81.0353755897559	
998400000	-30.4633623158244	27.4334827437898	-0.171607156939484	-9.87312894992946	-0.178397573302297	-9.93849900160398	-30.1603750894387	84.9960393800954	
1001600000	-31.1091035430197	24.7434105929617	-0.176691640608781	-10.3369822478903	-0.183460751280483	-10.384488524629	-30.7496425671009	82.289997849557	
1004800000	-32.1676712832678	23.6562847741028	-0.230899040523404	-10.8072651245621	-0.239136693683764	-10.8430762760736	-31.66070156712	80.1421405415146	
1008000000	-32.3400030845267	24.8815699166399	-0.241456015736704	-11.1468186279639	-0.25183320010743	-11.1860752369466	-31.8155340139387	81.1228987796132	
1011200000	-32.8570319146576	27.9273985436668	-0.223076775733138	-11.6153644037297	-0.23192717073905	-11.6620636393761	-32.4087785882199	83.4527686628849	
1014400000	-31.3238133623518	24.2176246611392	-0.141995006194917	-11.797357809304	-0.151627922611637	-11.8373983248696	-31.4894362490825	78.8078127470667	
1017600000	-31.4676258759958	28.9910937096793	-0.15986594929615	-12.203307701213	-0.165187668268007	-12.2340470392875	-31.744384467121	82.8117655532546	
1020800000	-31.9458643386853	30.4714723246598	-0.153000985389276	-12.7890168046873	-0.160572123714502	-12.8122684840557	-32.3179518161192	82.7307209662076	
1024000000	-31.6110431830729	37.4357641559443	-0.167276887635872	-13.0018403413366	-0.17570671778567	-13.0328456612162	-32.0981978546784	88.2854847931475	
1027200000	-32.0181258681379	38.3321321764251	-0.1920855389655	-13.4863377513712	-0.200494578239867	-13.4956194227035	-32.4153377685398	87.9626407054838	
1030400000	-32.0874193565485	31.034672264226	-0.183075197524667	-13.9993073777366	-0.191667742377857	-13.9907211698412	-32.4418117428062	80.1863217666046	
1033600000	-31.7029673596071	14.6826302056654	-0.157727139254241	-14.4077816053876	-0.162592057794807	-14.4255166530347	-31.9891762271795	64.2431812659757	
1036800000	-32.0939001355989	12.2128964835356	-0.161004772427058	-14.9753408651967	-0.163488544405071	-14.991875539817	-32.4864060213691	60.6737584940085	
1040000000	-32.6729588809346	10.9272775627215	-0.13101277715493	-15.4899723380761	-0.136415364972408	-15.5097354150808	-33.0354917555468	58.9721565283004	
1043200000	-32.4808593862306	9.07753471035085	-0.128919818671629	-15.6937172023091	-0.136821659340155	-15.7212181344225	-32.7262174200757	54.5687073294364	
1046400000	-32.4487502791431	8.35402626285422	-0.118530140443791	-15.9415507054442	-0.130958744158892	-15.9657850305115	-32.5671118806313	52.0033550517952	
1049600000	-32.5941335930071	15.2236924394661	-0.116531478850933	-16.1897873625295	-0.125076431308256	-16.2087514965855	-32.8997626606213	58.1152719233513	
1052800000	-31.727395631028	14.3300109918239	-0.0892605769690242	-16.5369679879442	-0.0991277318337969	-16.559510048015	-32.3202830305188	56.024284440836	
1056000000	-31.6804738748338	18.5141932605156	-0.104861037010486	-16.6777361421207	-0.108130943450604	-16.7013975507447	-32.2659766341577	59.0586684406277	
1059200000	-32.3255688278834	10.5728019485145	-0.109180408854259	-17.1950420116639	-0.112367183712993	-17.2185257229139	-32.7625101790925	51.833311007157	
1062400000	-32.24762024157	19.1357560246256	-0.130004405765715	-17.5808541908445	-0.133441547938768	-17.599304639983	-32.8096566216131	59.8577826848243	
1065600000	-32.1858317710506	20.8181320290385	-0.131036931099091	-17.873917367503	-0.1348361793996	-17.8893396790738	-32.8037924576336	60.6013078515143	
1068800000	-32.0834288112253	18.4659302288146	-0.127248878807105	-18.0889748123265	-0.126926457693302	-18.1189135836224	-32.6916504485679	57.9630204127136	
1072000000	-31.928822640977	16.8849744205154	-0.108838308367605	-18.3285253810842	-0.106893227100953	-18.3636684157127	-32.5419506868933	55.3165046460788	
1075200000	-32.1963784422021	24.098820637499	-0.113401724586334	-18.5382167446332	-0.110331089625074	-18.5870899122243	-32.8621920275666	63.2216933869946	
1078400000	-32.2344038276065	30.8169430608078	-0.104474341842324	-18.6615508920385	-0.103312258056821	-18.7046980011111	-32.93209225032	68.4031594430762	
1081600000	-32.3969365138697	41.1594097980713	-0.131958010303419	-18.8669164189919	-0.131849137699484	-18.9005350559835	-33.3136798724078	76.8995406894473	
1084800000	-32.198916332916	44.5029327747139	-0.13005296087852	-19.002648891914	-0.131790152635593	-19.0663854600698	-32.8648591064979	80.8654656955179	
1088000000	-32.0077288946918	47.8756458123606	-0.146532963701667	-19.1367055390586	-0.145872193764231	-19.1821074876541	-32.5804906076828	83.0793438662792	
1091200000	-31.4139305743442	49.5191214694214	-0.144974950201669	-19.2285025171116	-0.143531777619118	-19.2782839270625	-32.139864194397	85.0810526018475	
1094400000	-31.7895909939034	50.7098966970123	-0.149655458095406	-19.4290919485543	-0.146874550813415	-19.495885612826	-32.8200603108114	86.5316855541865	
1097600000	-31.7617727439671	46.3843700294398	-0.13980067083412	-19.6175246448325	-0.14154316308744	-19.7124946046648	-32.5594092746208	80.5502115615124	
1100800000	-32.1906021174808	33.1947561684905	-0.142444708477247	-19.881562905554	-0.143188424302204	-19.9779504650884	-33.4444988034897	87.9487517067496	
1104000000	-32.4953733994586	9.75125824138442	-0.142753851955578	-20.1246118783071	-0.146663118738578	-20.2218289835882	-33.8083903437671	87.0066639450599	
1107200000	-32.4688184397691	-18.2571105827862	-0.139707208749596	-20.345684776639	-0.143990109528256	-20.4403486494323	-34.1810100532084	79.7046720437025	
1110400000	-32.645318823145	-67.2020305635055	-0.141548241761999	-20.5498203191563	-0.144522362537279	-20.6311991417456	-34.2943208279734	52.4068096437627	
1113600000	-33.2766248073653	-102.013864298622	-0.141465892680092	-20.7366824391748	-0.144335655479554	-20.812366774883	-34.8620220183365	40.9069604263409	
1116800000	-33.6100561800552	-126.300937011212	-0.140480515457202	-21.0252448766838	-0.141568005804565	-21.0850271397948	-35.4384685932665	39.3041860306778	
1120000000	-33.9317518178649	-158.509741355938	-0.144251067362703	-21.2641811858908	-0.145214536276367	-21.318310433034	-35.7323756242603	28.9505706009894	
1123200000	-34.2479915391532	170.462009649342	-0.116002726000183	-21.4779200157301	-0.115324508941764	-21.5134878812746	-36.6916220771244	20.1408914221856	
1126400000	-35.1403405901155	139.051650916041	-0.124872658474264	-21.8376039851368	-0.123260706548724	-21.8783927838165	-37.8419944493018	15.0173855950299	
1129600000	-35.2053530314229	106.574867344873	-0.104330904323481	-22.0459809371994	-0.102514288007455	-22.0927144205863	-37.6057004954364	6.35923946473987	
1132800000	-35.1827385436163	80.5507907085104	-0.0982202093518326	-22.2459000973313	-0.0924932123768363	-22.288853051248	-37.9166564351771	2.9587586939191	
1136000000	-35.6012492441921	55.3729308022701	-0.0874870327616068	-22.5036979799663	-0.0832781896428422	-22.5466774513261	-38.2448085021197	-1.41557393279724	
1139200000	-35.8474951849047	30.1060382697952	-0.0905988816334602	-22.8667216728059	-0.0889617023207667	-22.8999186417387	-38.5294398162015	-3.53582485963225	
1142400000	-36.0445255988371	9.25253047593583	-0.0934574114405744	-23.0431672082473	-0.0919857199480206	-23.0630040406928	-38.3316892948105	-1.33277381647281	
1145600000	-35.8291521220057	-16.4403385103629	-0.0927123627345194	-23.3470041507321	-0.0886318638355752	-23.3480253261534	-38.1168167745594	-3.98535468783323	
1148800000	-35.0479004365281	-31.6863181433989	-0.086585751128407	-23.4798795928619	-0.0827136109930933	-23.4772843631836	-36.9358709763519	-16.8464997515824	
1152000000	-35.8985326487189	-30.5749688967795	-0.0747134941468454	-23.8070555538706	-0.0725281073738202	-23.7881171779548	-37.6512241303181	-21.3848293605529	
1155200000	-36.6852761895944	-24.0453698672847	-0.0734550084289647	-23.9493820263614	-0.0699298813571519	-23.9304504693804	-38.4553052982359	-18.9530960542771	
1158400000	-37.0137562951168	3.15415669167322	-0.0622626528476606	-24.2397809778798	-0.057624895828832	-24.2246201485316	-38.706799165613	-17.6511162569984	
1161600000	-36.8076248376046	17.7772257854771	-0.0674377856350314	-24.5181532502654	-0.0648781228923499	-24.5069493818408	-38.7109242613753	-29.2682113044821	
1164800000	-36.9784967854111	26.9455118429825	-0.0575900845353558	-24.9015761304108	-0.0564024508506548	-24.8705710661639	-38.7739633234986	-45.0790753289726	
1168000000	-37.4563859182388	39.5291922672114	-0.0615269642314445	-25.1431819606298	-0.0606691955489937	-25.1103330243732	-39.1819934150071	-59.456333929614	
1171200000	-36.6395763577044	44.1408194213315	-0.0723087817493834	-25.2696994802794	-0.0724913393257281	-25.2485599729848	-37.85932927041	-80.389648598367	
1174400000	-36.5875179634942	47.6831852011059	-0.0675651730566636	-25.4588218741076	-0.0677111257917756	-25.442771418105	-38.1776859509298	-103.938462072871	
1177600000	-37.0630493335464	54.3426121550104	-0.0707564462250862	-25.653226560727	-0.0700033689560467	-25.6323239470302	-38.7591524260588	-122.450166000229	
1180800000	-37.4879925157622	43.0857458589746	-0.0838583444987741	-25.9486302780749	-0.0830434300082932	-25.94218289609	-38.7584558350681	-157.890737177816	
1184000000	-38.3824097494818	38.0273027078454	-0.0846431076060534	-26.1563183483102	-0.0828339590913259	-26.149501287523	-39.6879172542232	168.783971175957	
1187200000	-38.8382558857919	35.2916437047171	-0.0924073826339042	-26.440431413406	-0.0879339364306722	-26.447060686249	-40.1301326524529	139.724005883515	
1190400000	-38.8228330678297	40.9081850065337	-0.0804966517760502	-26.7572422147332	-0.0738466839265185	-26.7672977965222	-40.3986705804734	118.442219568127	
1193600000	-39.5450440396958	56.4625707061457	-0.0873550141707069	-27.0002738414361	-0.0802958988710265	-26.9944549768093	-41.4244097716428	109.501723036799	
1196800000	-40.3160901486805	71.9777236260744	-0.102951718296903	-27.2631207359545	-0.0949784271445317	-27.2521559153325	-41.9767486476285	99.7748812843635	
1200000000	-40.0886088006079	80.4726329717697	-0.109214003653349	-27.4870956964648	-0.0992575041594896	-27.47406410693	-41.6910167029218	87.4940330532758	
