!Keysight Technologies N9950B: A.12.38
!Date: Friday, 28 April 2023 16:52:44
!Timezone: (UTC-06:00) Central Time (US & Canada)
!Model: N9950B
!Serial: MY61131330
!GPS Latitude: 
!GPS Longitude: 
!GPS TimeStamp: 0001-01-01 00:00:00Z
!GPS Seconds Since Last Read: 0
!CHECKSUM:1612262541
!Correction: S11(ON U)S21(ON U)S12(ON U)S22(ON U)
!S2P File: Measurements:S11,S21,S12,S22:
# Hz S DB R 50
800000000	-4.14846875720118	81.7306289681305	5.98264997514389	-77.5629656527968	0.696154928410927	-92.9852392709882	10.0098901164779	74.5861440707544	
803200000	-4.2642229649633	87.1125140010579	5.88475848715331	-23.5580002945364	0.0655922500531598	-28.6794197583607	9.94364333191545	-33.9827783142874	
806400000	-4.34822774957938	88.1067593709124	5.75473420883529	-13.4205185142962	-0.405156740313576	-16.5339951163856	9.84293772145167	-55.4610269567332	
809600000	-3.6024144393011	82.6548237036705	5.58231453256965	-26.7132545428186	-0.11342406256811	-33.6269704161588	8.84937077610165	-50.1966666960924	
812800000	-3.86094081825882	72.6467269136816	5.39521970187088	-49.130047061564	-1.2825601224291	-62.7069815297281	8.75670319651277	-36.6089049145663	
816000000	-3.90937826050359	53.6317166273904	5.37497766408988	-53.4787214482008	-1.75853496739665	-66.7587416443785	8.80767674053978	-24.4696264377123	
819200000	-4.08774848841275	50.7825476726156	5.3276834585429	-66.1750940902806	-2.4379271095782	-84.8696747332535	8.87876786408667	-21.150528915908	
822400000	-3.58858452611381	38.7444757604013	4.96147594233925	-68.7550924908853	-2.33769507294496	-89.2519531871668	7.58720465831593	-16.7695198776539	
825600000	-3.91889915586069	36.9494013009814	4.57529662662023	-73.3514424250486	-3.88585412959598	-88.8601417904794	7.36621362504285	-23.6391114746757	
828800000	-2.75222237456229	22.9782399817749	4.99864399862441	-75.7175924157281	-3.46429734596348	-91.2469775463086	7.15523564226045	-15.0838053931398	
832000000	-1.74399831133902	8.43101484162181	5.24497292723835	-78.9562365007127	-3.2168653430214	-94.4834739238139	6.7101460183868	-8.38103127485815	
835200000	-0.763997293048105	-6.55917454621016	5.55077200244658	-81.9656238475247	-2.91105501772828	-97.5165668143388	6.43684914028607	-1.0503752473787	
838400000	-0.846126573449157	-32.6604749246719	5.7946383184143	-91.3340040795638	-4.00320504137761	-105.08649198534	6.94259670546785	3.96457509206643	
841600000	-0.158235086761222	-67.9776845027787	5.59597988742226	-85.6305752261932	-3.49530649277836	-97.2020575582839	5.91004083465788	4.96891750000183	
844800000	0.707467932008642	-106.317498617331	5.84019067314628	-88.1324603443857	-3.25396410313447	-99.714208567827	5.49257461037526	12.8052454866999	
848000000	0.400739143139126	-152.343386865964	5.31663951538585	-89.6724905416624	-4.25879330503648	-98.0064481800526	5.31414522278949	8.78133045695529	
851200000	1.58181672252403	170.34640336867	5.70291224620845	-86.4785219311831	-2.88038691546307	-92.4604946867651	5.29010770648005	7.16014251284885	
854400000	2.34550144467171	133.396644750545	5.70008248811889	-82.3578967006517	-2.07544582967182	-86.6977590822969	4.6728276664603	6.11177752930436	
857600000	2.37318915043829	107.736244922558	5.8338002532403	-83.8290922755275	-1.94043386668143	-88.1677810936999	5.0338080153352	4.14871354501855	
860800000	3.2363679159109	70.9088965566104	5.80651574346328	-79.2152927858765	-0.523334134578342	-80.7197089043316	4.37533243911453	2.89044952487174	
864000000	3.18978906151989	26.7603589125647	5.1536092982772	-70.516141193583	-0.257891914772973	-68.3580909996584	3.50274708326037	-3.792094903124	
867200000	3.24980049859094	-18.2441725907562	5.00841776003078	-68.3141230603536	0.104082834013414	-62.1769255321755	3.32106151546014	-2.28686139419645	
870400000	3.26515531335873	-47.3631176029315	5.13788766263188	-72.9667100944668	0.230728016201704	-66.7908977335262	4.17554818283335	-8.26221762294118	
873600000	4.2582822830852	-87.4732396901578	5.39204481252421	-69.6272706071024	2.10620428644887	-67.402367042776	3.9665021621362	-9.20317787383926	
876800000	3.95685473648912	-117.076526097918	5.20924486308086	-75.4464485330014	1.91624452706234	-73.1927836017221	4.3908208627615	-16.5172829284325	
880000000	3.73548788330171	-144.550627837857	5.00258083260227	-78.8946509939638	1.70849064360112	-76.6544373433433	4.61044453810626	-22.0834759409202	
883200000	3.5904040971533	-172.56278356428	4.84582343279561	-83.5488108350846	1.55252367538619	-81.294894606429	4.94470534094625	-28.502353288008	
886400000	3.99284965431848	165.306295225642	4.32462965358333	-74.1459325450191	2.36525699940804	-73.684966377742	4.01684949631976	-33.5928092650447	
889600000	3.90325209119045	161.935597545169	4.33982634043531	-77.7446680655187	2.38381315738818	-77.2492344585369	4.44727277661208	-38.7050393563238	
892800000	3.70845346852785	158.575566618666	4.16228182220143	-81.3703491787035	2.20665999633656	-80.8851353217238	4.73174660950182	-45.2833866266795	
896000000	4.56977023365591	166.042722842661	4.38571362389789	-77.9219614194348	3.77651739855004	-78.120234042401	4.26306310671627	-46.6396824000346	
899200000	3.24678733160528	157.120031769633	3.68418669723486	-82.4051097681509	2.13905515626192	-83.774345285616	4.25104258857745	-48.5016066189686	
902400000	2.96395061734402	154.570603193463	3.39694554710645	-85.8660829386021	1.84968053975653	-87.2403214765651	4.41871426090813	-54.6484618613762	
905600000	2.99705931146778	150.521141801586	3.4427224887533	-90.1354096160101	1.89083505089844	-91.5329605751263	4.81242003552816	-59.2763535388458	
908800000	2.55304815067228	148.541814173421	2.81697139167581	-92.5812083649381	1.26459019169985	-93.9976403204758	4.87626492533284	-66.0612511933084	
912000000	2.16442704389191	146.065252089228	2.98834096572169	-103.158908530259	-0.692091381776685	-107.846900283093	5.62585747962922	-62.7242138277174	
915200000	2.55817928982725	151.009700163473	2.71167522812406	-105.347871922714	-0.380965793332154	-109.756280886476	5.47053585569842	-70.7860884314992	
918400000	2.41312066029116	147.357967056498	2.01998600745365	-99.331389488356	-1.07324555327036	-103.740982427075	4.64320227110364	-74.7666355325516	
921600000	1.86729023716851	147.772997897727	1.27270584186468	-98.8402691226373	-1.81876712650602	-103.256092320518	4.26276779816322	-80.8535311417737	
924800000	0.788679347757381	140.876501653305	0.964041772383665	-101.750287962091	-3.38530919904813	-91.1564234950161	4.47728184938063	-79.9382046181398	
928000000	0.442823696369301	138.474247864295	0.438134904869092	-97.1510224431096	-3.90755027972001	-86.5449831206207	4.03036776757429	-84.4155637364651	
931200000	0.0710268994451333	139.405538304424	-0.100006927666431	-95.4785563012909	-4.44080585190033	-84.8471072054096	3.58511396090541	-87.9507397742685	
934400000	0.319968962369369	147.025935809101	0.0860314597016994	-101.128692244005	-4.25241550776727	-90.496892105154	3.55333819895186	-88.4586709461627	
937600000	-0.193602666181239	147.055998541479	-0.445168704483198	-100.826489557127	-4.78582886474082	-90.2218535684435	3.1998354474453	-93.2875859490784	
940800000	-0.319708779854175	146.637708830475	-0.644170876152858	-102.025690758063	-4.97936510218704	-91.4326118689193	3.29409790568549	-95.9940188489335	
944000000	-0.617232441327462	147.682666822851	-0.89544211865951	-101.021491018479	-5.22864364352715	-90.4675387352762	3.00778485349504	-97.9098427282357	
947200000	-0.223927128119961	155.315314948623	-1.35826626480176	-101.268609938199	-4.75079476870881	-89.5182253643278	2.68441608112074	-105.613127447763	
950400000	-0.431770370895183	155.966883502282	-1.68778756779268	-100.755401397877	-5.08368556883959	-89.0400972295168	2.50532765410295	-108.219354537491	
953600000	-1.22085921888843	157.991446472907	-2.41474069763321	-97.8706422058402	-5.809439443735	-86.1651508070073	1.71086840029447	-113.200435392299	
956800000	-1.3877735810393	157.66702860413	-2.4464991211773	-93.9617988386047	-5.84008322138919	-82.265003548872	1.36244368761884	-114.658163384241	
960000000	-0.867453923494414	166.579724555442	-2.71745672807062	-88.0488142826413	-3.98320998980658	-73.0995648359539	0.425636724848692	-120.610192903666	
963200000	-1.07321439086974	169.587101902238	-2.96373239266107	-83.7623293781558	-4.22989967478509	-68.8077118023058	-0.265895017171045	-121.988933976805	
966400000	-1.29320251947064	175.240299618299	-2.65503159797069	-88.135577501785	-3.92176491959024	-73.1844667621628	-0.143232914934234	-121.402147880804	
969600000	-1.37735885488487	175.712479298321	-2.57373860255583	-86.9525767051477	-3.84004312907403	-72.003583521192	-0.316121235639936	-121.720531990713	
972800000	-0.796218264027285	-174.62068043147	-2.76033242007568	-80.8518904350015	-2.76201109912059	-80.94516169536	-1.33457100815123	-126.34760481825	
976000000	-0.939047576167265	-171.332005920967	-2.59395158743461	-83.4260491745055	-2.59695932157395	-83.5290941403224	-1.36385638658309	-126.526511218654	
979200000	-1.04306556717403	-170.61988775788	-2.55373985403385	-82.2510344472977	-2.56698984344812	-82.3805249518953	-1.54705263593036	-127.224870570505	
982400000	-1.30110363655712	-170.789720887296	-2.72931864799057	-81.3861650189318	-2.74138232386523	-81.5294545198199	-1.71343864302367	-130.122086973099	
985600000	-1.47355598761084	-170.565311379446	-2.81155800191251	-80.2653372031295	-2.82324335950885	-80.3651298437499	-1.89960297740819	-131.854522712527	
988800000	-1.75818688432525	-169.97034518818	-2.97346047280459	-77.3335738055675	-2.99125268278146	-77.373770342741	-2.34887244204099	-134.121872728758	
992000000	-1.93312909098503	-169.443448945659	-3.08850778208405	-76.4875492301775	-3.10819391510963	-76.5477539846102	-2.63651086741833	-136.161370141676	
995200000	-2.16812292000948	-167.923091624785	-2.91657911094677	-70.7944746864189	-2.93609999242797	-70.829998173281	-3.38199468511404	-135.951694437756	
998400000	-2.40145632167069	-166.356641448612	-2.82501935748318	-68.6707728229457	-2.84083742789567	-68.707082642684	-3.87029107995159	-136.865253035546	
1001600000	-2.46000886807224	-165.701797901298	-2.78716835460517	-68.4142883297343	-2.80429821955597	-68.4325159083056	-4.03726555821203	-137.578750699843	
1004800000	-2.46180324001688	-163.368697438742	-2.6025780805841	-69.8111100089944	-2.62295077179392	-69.8080080551141	-4.1599828314916	-137.07773993428	
1008000000	-2.55688952242382	-162.194350770763	-2.49164916932024	-69.5717791448622	-2.51602657195578	-69.5756311158085	-4.33917759081132	-137.841859530834	
1011200000	-2.69622575727954	-162.367373770061	-2.52631463593947	-68.7815513795581	-2.55112648752282	-68.7829186896703	-4.46842601860627	-139.665111375925	
1014400000	-2.92172241293205	-162.703944367729	-2.60731338714867	-68.15624080622	-2.6333295881723	-68.1581811683805	-4.47466966085145	-142.43656048338	
1017600000	-3.07737704446545	-161.45404708058	-2.47936538212777	-67.7859428835885	-2.50065354420754	-67.790427616038	-4.69298913077135	-143.610122551895	
1020800000	-3.20690104526248	-160.867200201313	-2.45531858440644	-67.5140437503942	-2.48174628599334	-67.4806840653271	-4.81137263583089	-145.340037563387	
1024000000	-3.272472544835	-159.649595188116	-2.38261422569797	-67.557089079326	-2.4124574372119	-67.529606723169	-4.92270024338287	-146.062073879961	
1027200000	-3.37119919727203	-158.155296262761	-2.2581737629909	-67.4256755227298	-2.28555935138825	-67.375226037646	-5.15585880087209	-146.718776031185	
1030400000	-3.39614009043428	-157.086615580029	-2.19136879803029	-67.4622665938051	-2.21818887719578	-67.4079869412937	-5.28257125822923	-147.193282377761	
1033600000	-3.48884649794325	-156.053919466389	-2.08782753283642	-67.4455983697589	-2.11392005860223	-67.4494121425081	-5.35589580648443	-147.973230088294	
1036800000	-3.62047713431026	-154.146164617377	-1.94649361741692	-67.5069599275202	-1.97088957352366	-67.5332722971117	-5.54329386351318	-148.719879517265	
1040000000	-3.81661329514686	-153.511285247765	-1.92790918471099	-67.1451799117367	-1.95514655573649	-67.1564203864704	-5.66418636830209	-150.748497991724	
1043200000	-3.85971067880799	-152.630809355324	-1.87874773979054	-67.2780170982932	-1.9073965500703	-67.310629297202	-5.70279673113818	-151.106505839995	
1046400000	-3.90883444642675	-151.787088763073	-1.8444357654913	-67.2994380647715	-1.87405930879444	-67.3188838368822	-5.75501243552702	-151.814564203387	
1049600000	-4.01266547889355	-151.361238045763	-1.81874661446774	-67.2732147080961	-1.84349925284611	-67.2769493443097	-5.74374727959823	-152.962263013331	
1052800000	-4.22417761506395	-150.475663326004	-1.76007663215195	-67.0266474255268	-1.78394092079572	-67.0338553495367	-5.81127946771055	-154.481064786157	
1056000000	-4.36402227401167	-149.804529275987	-1.74436649547329	-66.7997754669726	-1.76024084248395	-66.8166834889631	-5.92314975968704	-155.573639965685	
1059200000	-4.44583514720806	-147.991369981476	-1.62699642076599	-66.9619134433176	-1.64277235456701	-66.9942078304957	-6.11631470664021	-156.172041596276	
1062400000	-4.61021968566708	-147.038726714157	-1.57299041295595	-66.8969241716969	-1.5876265585761	-66.9172888843499	-6.19362261516916	-157.392604138315	
1065600000	-4.74417833693867	-146.165341841434	-1.54013899867264	-66.8620170221391	-1.55699545062249	-66.870582649146	-6.26930341931809	-158.588653407072	
1068800000	-4.77952856870779	-145.143769468482	-1.50178793899895	-66.9058414985155	-1.51410491031152	-66.9458455602357	-6.34826139389144	-159.091157236143	
1072000000	-4.91352665540707	-144.629359665605	-1.49463704701322	-66.7783096960978	-1.50559328402871	-66.8043524248508	-6.41469909598835	-160.399117328144	
1075200000	-5.0725483740406	-144.055850015231	-1.5058235299227	-66.4909362360753	-1.51565716024179	-66.5409358095789	-6.48925878796625	-162.188324600539	
1078400000	-5.24280661073226	-143.453931555476	-1.49650281117123	-66.2911044457947	-1.50896709067357	-66.3151292700024	-6.54582066499186	-163.922895973657	
1081600000	-5.34409366396198	-142.170441564852	-1.46987381255377	-66.2087542946403	-1.48530147998806	-66.2007440748439	-6.74461027512311	-165.019685800039	
1084800000	-5.42748084413674	-141.938494292393	-1.47543499845755	-66.1543838559294	-1.49271266650182	-66.1673726741807	-6.75265514436212	-166.331784179704	
1088000000	-5.46315747147743	-141.255233580691	-1.47525661279819	-66.1673313762646	-1.4907544200606	-66.166179927695	-6.82974550576407	-167.158121475567	
1091200000	-5.50670746566147	-140.636391690678	-1.47573877929765	-66.1635650953717	-1.48979122673732	-66.1613827412504	-6.89974972349896	-168.256296510472	
1094400000	-5.60746313297664	-140.383814890045	-1.50249591483619	-66.0816439435224	-1.51865806637591	-66.0824255664701	-6.93406155283209	-169.796226035899	
1097600000	-5.66041834384707	-139.542081612224	-1.48631465153348	-66.0860422119866	-1.50738528348272	-66.1084178371332	-7.01845855854083	-170.834424698924	
1100800000	-5.67621622197797	-139.160409704643	-1.50375495420168	-66.1234343281824	-1.52561430297596	-66.1560058926364	-7.0691405067571	-172.046895603224	
1104000000	-5.70426686304754	-138.716081937009	-1.50857644877399	-66.2564354198881	-1.53514071769002	-66.2908195297765	-7.06450959004096	-173.068078139553	
1107200000	-5.75143662554807	-138.412291253652	-1.5263683219009	-66.3135657175358	-1.55087206165958	-66.3376527806174	-7.0748887386504	-174.379124576598	
1110400000	-5.79193127418757	-137.553303565795	-1.52194069751897	-66.3318964488968	-1.54475728970407	-66.3535219279314	-7.1888457064232	-175.502207616143	
1113600000	-5.75325185063382	-137.317191645697	-1.54312845773242	-66.4060398860897	-1.56336438038663	-66.4357554582266	-7.17227709057437	-175.984509360205	
1116800000	-5.82467631645421	-136.790321607197	-1.54814351170416	-66.3768113548896	-1.56580565253034	-66.3846057411035	-7.20930373036418	-177.28501677524	
1120000000	-5.77212242295417	-136.532575528991	-1.5514656733189	-66.6183766152459	-1.57085805567668	-66.6359484747698	-7.15110223384591	-177.850014181089	
1123200000	-5.80771907765962	-136.190476386095	-1.52129722106802	-66.7847206898949	-1.53796628252014	-66.776031685627	-7.06977399312828	-178.591854984789	
1126400000	-5.77917630185803	-135.516472706557	-1.51788455513953	-66.9944130660205	-1.53576285343014	-67.0127370621204	-7.13053889302892	-179.706863402026	
1129600000	-5.77727898071045	-135.40586822406	-1.52748749831628	-67.154452260609	-1.54205846649653	-67.181353372925	-7.0875185092039	179.407118156208	
1132800000	-5.78266967005855	-134.79006242093	-1.52360206632187	-67.3476797197557	-1.53206728114122	-67.3772685792481	-7.11168579220358	178.635521821229	
1136000000	-5.80955159558073	-134.35130883027	-1.51605414501918	-67.5143749272469	-1.52257978143796	-67.5266304491731	-7.12818347830275	177.725927592092	
1139200000	-5.82485827321014	-133.365869155299	-1.4912514708399	-67.7080519638838	-1.50123526449571	-67.7034018493876	-7.20240028400787	176.680812713214	
1142400000	-5.82010448469714	-132.866860291667	-1.47911187344282	-67.8382154031742	-1.48883845349823	-67.8233193765239	-7.23760425923933	175.839349894778	
1145600000	-5.84151585069654	-131.980294287544	-1.46440570380152	-68.0379692844189	-1.47228534905972	-68.0253163751068	-7.31359136401163	174.812429903086	
1148800000	-5.80632493252243	-130.975246492085	-1.44189103516825	-68.2997835821504	-1.44911922879326	-68.2628010647314	-7.37331773132607	174.361533929134	
1152000000	-5.84588209342511	-130.230846743235	-1.40347228663048	-68.4490291798377	-1.41126781987196	-68.3922580181972	-7.37790913297263	173.594082133023	
1155200000	-5.85077468736598	-129.533048394712	-1.37882640375598	-68.6102441338415	-1.38658360233368	-68.5700321874803	-7.37836653431165	173.009817078642	
1158400000	-5.79964688984039	-140.90962673782	-1.37093745280423	-69.0200738967795	-1.37595546851029	-68.9896745054772	-7.36225754275189	-175.680876432814	
1161600000	-5.83959938828282	-140.000692949517	-1.33776571595343	-69.2789726094244	-1.34644504642692	-69.2354861447734	-7.42471542631365	-152.826039936279	
1164800000	-5.89335732489202	-151.246847589674	-1.32040391677596	-69.4769545919686	-1.33064173075475	-69.428295102831	-7.44625153677147	-118.212666849091	
1168000000	-5.95626195270696	-150.402807260962	-1.30053766407127	-69.6297464774309	-1.30828995844423	-69.5654168839589	-7.53477668390525	-95.3640173833818	
1171200000	-5.96102177639622	-149.452957046277	-1.2861577352723	-69.7795003000578	-1.29498597657342	-69.7377835281618	-7.63026577792698	-71.9992143071952	
1174400000	-6.01129429124635	-148.830827713248	-1.26765533147552	-69.9010387683507	-1.27434201057476	-69.8600535645773	-7.61486512290158	-48.6796475092753	
1177600000	-6.05611320519921	-148.213588474506	-1.25077592977729	-70.0574180541711	-1.25803906234271	-70.0188424721941	-7.61988095257931	-25.648213925584	
1180800000	-6.03940810095026	-159.229630171521	-1.23060222108915	-70.2900168075385	-1.2413329988788	-70.2537623170206	-7.68943126955519	9.48490627584818	
1184000000	-6.04558406746697	-158.788654802157	-1.22489492576007	-70.482733435899	-1.23665559112015	-70.4605096552113	-7.65362467928863	32.7991729017915	
1187200000	-6.13137189479286	-170.412778715536	-1.2167974918607	-70.5689054500047	-1.22707912872686	-70.5788110625461	-7.64031205008124	67.7725253415275	
1190400000	-6.19493169585174	178.199435052983	-1.20505016835328	-70.7139035658341	-1.21211999013711	-70.7439027479401	-7.61993317052776	102.759747624172	
1193600000	-6.24500938436736	166.445106038713	-1.2111304735368	-70.8537057662609	-1.21617837410047	-70.8740513337297	-7.59275438039927	137.760538084165	
1196800000	-6.30566457557275	154.760349086269	-1.21677248311654	-70.9432168250987	-1.22109673774788	-70.9698799603135	-7.63538991339718	172.692675375162	
1200000000	-6.32513410168138	143.180491029518	-1.23115873145583	-71.1177269063357	-1.23308746729323	-71.1508849581537	-7.6737956115053	-152.277287804502	
1203200000	-6.38428090214598	131.779090746922	-1.24482213468404	-71.2337797165257	-1.2445479192911	-71.2394219385583	-7.74259408785053	-117.492057234091	
