!Keysight Technologies N9950B: A.12.38
!Date: Friday, 28 April 2023 16:36:41
!Timezone: (UTC-06:00) Central Time (US & Canada)
!Model: N9950B
!Serial: MY61131330
!GPS Latitude: 
!GPS Longitude: 
!GPS TimeStamp: 0001-01-01 00:00:00Z
!GPS Seconds Since Last Read: 0
!CHECKSUM:2093214538
!Correction: S11(ON U)S21(ON U)S12(ON U)S22(ON U)
!S2P File: Measurements:S11,S21,S12,S22:
# Hz S DB R 50
800000000	-5.34881740332769	131.564834084625	-0.473739237051747	-92.0361744800263	3.75320688661428	-47.1818153639819	5.99711872138594	49.4619999464129	
803200000	-4.46780902217682	89.050052411625	-1.69643289736148	4.40084340754305	-1.68216494285469	4.32467643133827	7.22637536066501	-86.481828295851	
806400000	-4.9241703342977	89.8334191183554	-0.863722152876964	6.72810838989322	-0.865435775268284	6.83360721783106	8.36738307346363	-88.1894142691492	
809600000	-4.54409192989756	90.3278494049204	-1.33663847720402	3.26968028619871	-1.33709891715486	3.21905596298079	7.6250936186442	-89.7557725471378	
812800000	-4.44164309863439	87.9611752485547	-1.75813991145997	5.20975775151764	-1.76462088499524	5.05424422356247	7.23554752292981	-86.020807006092	
816000000	-4.59299644514293	114.31822302014	-1.98259354374841	-119.176187356306	2.15886431731075	-67.5739927118608	5.65456389672042	6.02565741019456	
819200000	-3.77619869115864	90.3030294727643	-2.37981582782275	3.13914505769533	-2.39290604666181	3.07815499735192	6.00035398006229	-91.5880794805724	
822400000	-4.85188640974284	113.805128482118	-1.74363475694593	-120.686094151596	2.04761295251326	-68.7275497928807	6.29578743038023	5.55660233683838	
825600000	-5.89970443041313	110.956906295641	-2.51655679000257	-114.050139643631	1.25791792094479	-64.283156904756	4.73252175964467	11.3576491824428	
828800000	-6.32524717288042	110.363463246783	-2.6360067056989	-117.294367808296	0.86619831800101	-64.4414708670017	4.89273665884128	7.00513204362007	
832000000	8.00698156421598	119.437271492848	-0.507387807137679	-151.435375559116	-0.54210297023616	-151.042591306327	-2.13050152839072	-89.0375739003028	
835200000	-5.79932094388632	109.584202529354	-3.38608655931021	-125.754609484043	0.685875754308445	-69.6758626137453	5.34402365776078	-5.88242478585296	
838400000	-5.46555225609368	110.48602495907	-2.69828053946009	-125.606536800565	1.00288499751651	-70.3507443251283	5.92873849174171	-3.32814643657546	
841600000	-5.66679129903234	110.599123676351	-2.26511614620005	-130.202424796327	0.997506769323602	-72.1854810987665	6.93422442380618	-6.91534973618897	
844800000	8.01793806728235	135.431325748887	-0.196718185834235	-137.630904333769	-0.162560161353693	-138.116076021049	-2.99045789837836	-89.2453263600836	
848000000	-5.96181509772774	105.880612512498	-5.87225021909924	-135.791410827559	-1.06642624401218	-74.9280737824996	4.68849345462815	-30.1606762036772	
851200000	5.82563562022584	108.816107469084	-2.58171165274009	-159.537750878361	-2.56009599678246	-159.762166070964	-1.36300839352479	-90.8984288460858	
854400000	5.1364034066845	123.535193348635	-2.89106532159865	-147.420195193849	-2.90032477138616	-147.317362344974	-1.560533405996	-97.7011023383948	
857600000	4.20889614064126	113.005983783909	-3.50775928195735	-153.642640565524	-3.53228815476298	-153.754431589722	-0.656005153647949	-92.5818229192767	
860800000	-6.32462605940931	114.688107855293	-3.6041118366097	-132.402772993978	1.22813646481778	-71.5333528025598	7.44286660362138	-14.1993932862207	
864000000	7.56986519293275	119.633955966384	-1.2564181480352	-149.65026565591	-1.2744617690993	-149.82149868734	-2.6031306056054	-88.6579090550105	
867200000	5.98398910647082	118.486398871165	-2.01391671926206	-151.574704240146	-2.05227895147608	-151.406758287345	-1.4556299304821	-92.7535230432496	
870400000	-7.15590247005126	104.6672894463	-9.19623926383819	-146.16115970746	-3.12029781564235	-86.186296532984	6.75174472537002	-56.0636101421637	
873600000	1.82840044733881	110.077568607179	-5.59800412832064	-157.460090197801	-5.63268109061888	-157.683716136086	0.702055821398229	-96.5094860437925	
876800000	3.85342663900973	115.701452276021	-4.15975316320565	-152.482753778756	-4.16042835601662	-152.171123431231	-0.865059535797163	-95.7886247007486	
880000000	4.13659639726784	115.942801260428	-3.71197484215823	-151.150247352169	-3.66962639812075	-151.0412187253	-0.824206256229287	-94.5108108535285	
883200000	3.08638092327668	125.364222426548	-4.56835284718527	-145.325200265954	-4.59072344633886	-145.010922967548	-0.816606577093968	-103.689014360754	
886400000	-0.860859638389525	93.4866661678688	-5.73934451105318	-2.22712820367067	-5.74953417119228	-2.16706062899125	1.95098150067124	-96.8407340247697	
889600000	-5.98961278311579	116.056579671885	-3.48021000467587	-114.48079885419	1.49749407913412	-68.3390261674963	5.53785957157624	-3.53417320048304	
892800000	-0.325444933976649	122.229220101081	-7.66248851580161	-148.847803563942	-7.64341325068077	-148.535411628609	1.60222588601314	-109.484793450488	
896000000	0.991517942572827	114.275138188391	-6.39375213412766	-154.458470993969	-6.41756575286273	-154.274499257595	0.85708922856308	-100.471471116362	
899200000	-1.09154977227976	116.536206511197	-8.13674160401563	-158.440293057259	-8.23077478761998	-158.155226242894	2.62836537523631	-108.034472075981	
902400000	0.535919674859636	131.865032749005	-7.18184454974164	-140.643357097495	-7.19529802844226	-140.749213286911	0.486105069519185	-117.019205550791	
905600000	-0.520164635714046	125.351947751352	-7.98043316900605	-149.580301603694	-7.93844683182608	-149.776617677602	1.85143975484121	-114.490887896947	
908800000	0.439152943282411	85.6003189561669	-6.55902092374074	5.05942542044195	-6.57907562601426	4.92748840731234	0.352295090308789	-86.1450510216987	
912000000	2.07809212542173	124.340992528066	-5.40349270759001	-149.115606567493	-5.35739187546866	-148.673218667857	0.0610923669741469	-107.432912375645	
915200000	0.45006095537434	134.540827258683	-6.99319159155712	-137.938879066561	-6.99184433894044	-137.999317504168	0.451956764628444	-118.522105977827	
918400000	0.789356656957899	133.109395402036	-6.67491578571523	-142.511590222581	-6.65871719749243	-142.298506368941	0.484366058545611	-117.721840136061	
921600000	-6.879528995399	100.817432729519	-6.08173438555571	-142.064597241675	-2.18711929789016	-90.5479283775432	6.9723525159211	-45.6590185613081	
924800000	-0.579020661618876	136.809178010403	-8.2602014697793	-139.680606965258	-8.24761259620555	-139.314344622716	1.33276573811873	-124.587088649454	
928000000	0.907340501631793	115.577401519608	-5.67288950748933	-156.680921071092	-5.70588700996344	-156.728827302571	1.52710010415865	-102.581478821093	
931200000	-1.44670810612529	152.151541566493	-11.8491420698816	-127.332020186731	-11.8686128584676	-127.383520868254	1.50860833336066	-145.40557259402	
934400000	-7.95126780940275	97.0769848969413	-6.32580679254869	-149.246142742817	-2.95102067783619	-93.6881995804015	8.1245206966221	-47.1277868486856	
937600000	-3.30721502265035	129.763291730929	-9.31795912832119	-157.873240122633	-9.31625298777261	-158.025909065579	4.61279675691837	-123.062150901524	
940800000	5.39645534866193	117.90524226308	-10.0992796195321	-11.4943898979303	-10.1025943789647	-11.5654511679393	-5.22325563416299	-119.251859100769	
944000000	-0.906020096041448	156.395620851933	-11.9675653848455	-108.244025672714	-11.9794995367161	-108.322744199539	0.528897725199995	-150.576797863565	
947200000	-8.62547624549098	99.669088316146	-7.31834652624343	-150.593344681405	-4.04929932519543	-90.0152109283216	7.85094104011599	-54.5160120762576	
950400000	1.86955599290315	137.413395489965	-10.0883247864169	-34.229260146128	-10.0320578241459	-33.9754688451931	-2.07623893913689	-141.417198965311	
953600000	-0.631724295019441	154.07003496678	-10.5834754469068	-107.203218241136	-10.518744243077	-107.109284524659	0.0231027344657535	-147.507394992348	
956800000	0.514312002964131	152.989347172927	-6.47598530259517	-121.547591341505	-6.51003573913445	-121.535324059214	-0.781335756051943	-133.643813486922	
960000000	-0.252771209554921	153.930576744097	-8.92593178409632	-111.950445545168	-8.92929499840249	-111.913549336153	-0.331021714761197	-143.777224300852	
963200000	-1.29796015855674	147.906251651412	-9.71297672528592	-134.613716941596	-9.66287552001038	-134.966351669456	1.65349536775369	-138.471222219796	
966400000	-0.0488575421215254	152.91582883057	-7.34708832378099	-121.150976153527	-7.29696739866484	-121.384965371858	-0.159086422541377	-137.169203883637	
969600000	-3.32664068701273	166.391137215843	-14.2420233592563	-158.990525890112	-14.2321072731107	-158.893527656326	3.89742466559036	-163.700471056854	
972800000	-1.07459693698135	158.020766738281	-10.8286605699913	-121.760974152998	-10.8580212568375	-121.821072303591	0.956412175901873	-150.005374694905	
976000000	-0.64263755688293	159.555701753024	-8.11049048669069	-96.556238489132	-8.1050413757153	-96.7858443196441	-0.926424645642441	-151.959690072589	
979200000	0.0928985614593724	153.711645812232	-9.72328681254794	-64.5909998609143	-9.75337331442756	-64.8596774719007	-1.11214124251912	-156.26725275584	
982400000	-0.542906456884865	160.051721669742	-8.74622605617992	-94.0761659400941	-8.76218025027533	-94.2394897372439	-0.871693119125144	-154.508075082986	
985600000	-0.646429770734226	159.777014487653	-8.70335511115557	-104.974227645253	-8.71769820372368	-104.885837875816	-0.322597853600479	-149.876227419005	
988800000	0.549730343344328	160.552447318178	-6.30996880676136	-112.472883453575	-6.32940799903203	-112.581607657892	-2.02760096730389	-143.022565931187	
992000000	-0.613686349924902	159.481564859116	-9.31701080827105	-93.1533993323604	-9.35827120662317	-93.1639246837228	-0.636252848416493	-154.951863954681	
995200000	-0.312753036927637	160.942680187027	-7.51575207169528	-103.343046789064	-7.51782258769599	-103.659192842079	-1.2461997860135	-149.262304455161	
998400000	-0.673061628134876	161.332344917567	-7.4241897916553	-90.7096498874221	-7.40587255115427	-90.468186126391	-1.50602812578448	-157.354325934113	
1001600000	-0.419265442860243	161.86844151092	-8.51533058166922	-95.1684506165151	-8.546777812673	-95.436050403382	-1.03009385194609	-155.784498928629	
1004800000	-0.640197948899032	163.065377314441	-7.21913782683762	-95.1690998073623	-7.21719046474022	-95.3088409748772	-1.55945092694968	-155.759718885895	
1008000000	-0.50128968716095	163.065601106832	-7.86090934575186	-92.6935285744712	-7.87812631119896	-92.194676481746	-1.35536410143945	-157.705808971055	
1011200000	-0.709673520001871	161.092705123946	-7.90863434409987	-85.6120996793892	-7.96156114108527	-85.1888855188266	-1.31383576684728	-158.654415490111	
1014400000	-0.177989620452852	166.297568941883	-6.557864038434	-101.695571964014	-6.52036196381322	-102.07668208284	-2.0268637018785	-154.259596992729	
1017600000	-0.994102530382591	166.405308603993	-6.08131611899784	-88.7886040119457	-6.0778062136602	-88.667400147157	-1.94510115033218	-163.735869530383	
1020800000	-0.807446118197819	169.105454676178	-5.53210001262118	-95.7660409245698	-5.49662038566118	-95.8782855626469	-2.29672598900656	-160.091433659836	
1024000000	-0.539643959770578	166.553996377949	-6.18882534532206	-94.6325543118592	-6.23768189478852	-94.5975910355426	-2.14714870356274	-159.246129967669	
1027200000	-0.598087523793704	168.157296137794	-6.40068706560505	-95.3436969169413	-6.46006817382146	-95.2504013321168	-2.04196413686083	-160.289771144589	
1030400000	-0.994754787451452	169.090677199348	-5.72377462375156	-91.3274705152216	-5.76257109621962	-91.5103765222642	-2.26167280563327	-164.798072210739	
1033600000	-0.917990726999702	164.815769409881	-6.96517381091648	-85.7749748700239	-6.97528515780942	-85.7542540458397	-1.38715158652645	-163.515869228883	
1036800000	-0.997384376466624	167.065141146697	-6.24067971123685	-87.9746151248759	-6.24389583001346	-87.9339394278736	-1.93263134285568	-164.228033701964	
1040000000	-1.27691562993504	169.951492485218	-5.31416018128621	-88.7694730390752	-5.27852041613734	-88.6292813051882	-2.23933309709466	-167.450654906513	
1043200000	-1.12780139174257	170.393086036433	-5.49079183093807	-91.2857700849922	-5.55132780197739	-91.1678905828697	-2.40428822343733	-164.896718116796	
1046400000	-1.19048734646771	171.929830245545	-5.23509444632232	-92.2612660500729	-5.28869332005051	-92.2661134979838	-2.27974454523748	-166.609999281653	
1049600000	-0.89435650076073	173.600176080284	-4.92724033447342	-94.9623776147845	-4.94177771982709	-94.8593739998567	-2.81074032061622	-164.682127355219	
1052800000	-0.798017532612725	172.997488695617	-5.1616013675365	-96.1684976660975	-5.17946121387052	-96.3767030733343	-2.56747229474736	-162.520182607524	
1056000000	-1.36127253251075	170.862571542942	-5.40691007236224	-89.5698532270025	-5.38157709751791	-89.6463974034989	-1.91773362526208	-168.397954605239	
1059200000	-1.65930558037306	173.934328345121	-4.74716822263631	-90.5291741695109	-4.72767708604512	-89.9668180219117	-2.46377595431482	-170.652545024627	
1062400000	-1.3999224851815	175.472543266063	-4.59077174355632	-90.9056842924497	-4.61883856030271	-91.1681880330099	-2.76577373441502	-171.192189309765	
1065600000	-1.5504489754849	173.971603584815	-4.88340814714598	-91.3887310719653	-4.89345077155933	-91.4261554020892	-2.08520506472694	-169.652335580451	
1068800000	-1.37435100104523	177.656909694141	-4.51975429759048	-94.5580744100524	-4.52749845085602	-94.5320596862779	-2.71294498133425	-169.330825751649	
1072000000	-1.61528591491725	172.266126002238	-5.00650032221854	-88.6186997345948	-4.97700967679854	-88.508574671747	-2.12061639295	-170.541714200822	
1075200000	-2.27048552101618	176.289379352087	-4.26914277110098	-88.6843719447517	-4.30978298221043	-88.7362083744876	-2.17272787613547	-174.99367011812	
1078400000	-1.71224454520657	176.758775749494	-4.35268180602323	-89.7556264598227	-4.30981612291282	-89.9200385645358	-2.8087860268694	-173.426848425673	
1081600000	-1.67138254132953	177.858104950209	-4.28707701965775	-91.348680978398	-4.29292238665865	-91.4839356102299	-2.70491736687925	-173.001975365918	
1084800000	-2.14681663793081	175.880181727908	-4.3454685690296	-88.1687651388528	-4.35337669211352	-88.1305545529524	-2.15023265030526	-176.630435699575	
1088000000	-2.35737987388152	178.561016246693	-3.95342104643916	-87.8227123399197	-3.91883565657242	-87.7799033852789	-2.76990740877322	-179.001392527732	
1091200000	-1.52646361696524	179.400341665203	-4.47518463682511	-93.9682324417209	-4.47771223245874	-94.3098010508158	-2.77648573643528	-172.465285196284	
1094400000	-2.08839564836567	179.741919795934	-4.02567939964639	-89.5910321584552	-4.02791506980912	-89.7581341067797	-2.65298775832474	-176.622977945451	
1097600000	-1.78456448608412	-177.294933750521	-4.16402118670106	-90.2890845984354	-4.1550971757722	-90.4765213869239	-3.33209827677485	-179.871051515215	
1100800000	-2.09149761410459	-178.826911990143	-4.07551490045236	-90.1634280192857	-4.08131372829006	-90.0518142009555	-2.92880743504173	-178.037281588557	
1104000000	-1.79583385323275	-176.315103489909	-3.91855150377234	-92.7368766357182	-3.93503793067546	-92.5714552589348	-3.21202989439919	-178.933935700164	
1107200000	-2.27930036374607	179.980990209804	-4.04216403345222	-87.6898173754995	-4.08207019096092	-87.5992578893179	-2.68327778607769	177.891252460502	
1110400000	-1.66797661782372	-175.877132952772	-4.13305097985915	-91.7151927556215	-4.09827286342623	-91.6495555717775	-3.48079578682905	179.946546740559	
1113600000	-1.89802188855048	-177.083457712202	-4.21784733055179	-90.5017083213805	-4.20233247485051	-90.666781294092	-2.8995339531037	179.604667776057	
1116800000	-1.93693187040942	-174.907156990916	-4.0403728520224	-92.9075409798708	-4.05495819240141	-93.1494737020919	-2.94978560643737	177.751554701551	
1120000000	-2.06162066566937	-177.575525423083	-4.14939102144077	-89.5444067108608	-4.17511374696003	-89.6087159558277	-2.8279853218664	178.144281478117	
1123200000	-2.23606361254876	-175.207443732763	-3.87240514804984	-89.8666376900735	-3.92839295331665	-89.8124250952999	-2.82071749516098	173.540932343471	
1126400000	-2.12792881207138	-174.672863508422	-3.90351997779167	-90.8898553670897	-3.9535804058513	-91.023868929752	-2.93815240214056	175.473059328096	
1129600000	-2.11813300439984	-175.000305322372	-3.9750734473424	-89.8080803834342	-3.97840237002709	-89.8553358469722	-3.26610055729491	173.865189487653	
1132800000	-2.40135683482892	-174.364117137513	-3.7658707598516	-88.8220005469609	-3.73722403522472	-88.6640651748471	-3.44731116774757	171.78175136541	
1136000000	-2.08159398715048	-175.084563924613	-4.21779967952057	-89.751828956589	-4.1835260869912	-89.6146520193901	-2.72418406574476	173.85494985337	
1139200000	-2.01774873012108	-172.720161879998	-4.04340250614207	-92.2930193148517	-4.00268123044173	-92.3789800097876	-3.24649408128626	174.204635630943	
1142400000	-2.09968992413355	-174.347205578122	-4.10579427748147	-90.5160209500363	-4.1403040184173	-90.6305768537919	-2.57707300419954	173.595163675567	
1145600000	-2.57033612971302	-173.232873354899	-3.54309775059289	-89.1153046827678	-3.53714885011206	-89.1437765793672	-2.75135492167386	170.08916782996	
1148800000	-1.9782229243228	-168.860941620201	-3.59439636456764	-92.3986915846096	-3.62932483177101	-92.5161753526622	-3.90349144765983	168.414185463486	
1152000000	-2.05252108608211	-171.180856769673	-3.8116228206175	-91.8122749141054	-3.78483089417948	-91.8355750906325	-3.36839794378434	170.493869693649	
1155200000	-2.50645492331326	-172.026972736407	-3.60254624415442	-90.1612153676177	-3.56081613828537	-90.3172674445269	-3.11938448863807	167.978316282082	
1158400000	-2.03999635048603	-169.551350819475	-3.59631735479059	-92.7586841245694	-3.58773451229518	-92.5120482390858	-3.85893439533452	169.457249987811	
1161600000	-2.31487157951178	-166.795658910702	-3.46532116858492	-92.1654413611182	-3.51037573290363	-92.0794693867603	-3.88146653070097	166.373721281296	
1164800000	-2.09090062196422	-168.236311438727	-3.57688170974161	-92.2816212505466	-3.59712306964713	-92.246396627627	-3.76811435202364	167.615305948976	
1168000000	-2.47030852801481	-167.453535608118	-3.36799373417885	-92.1285894996894	-3.36421136941423	-92.0844836560871	-3.74635990302601	166.215548437719	
1171200000	-2.39467919062767	-165.128118250972	-3.34394458666235	-92.889567703649	-3.38005095434389	-92.7318945459166	-3.64504003598051	165.470173132812	
1174400000	-2.7386644178884	-169.235536685586	-3.25410884461261	-90.7481919206308	-3.29211328362107	-90.6242113640515	-3.18170741684066	164.072291929717	
1177600000	-2.41282168897073	-167.17032593574	-3.4048261703391	-91.6852868965446	-3.37812282325159	-91.9990647192251	-3.25869176371775	164.939619469371	
1180800000	-2.61235435166249	15.272851108982	-3.19472445147933	-93.0702950564178	-3.1713880421197	-93.1675911162476	-3.61398437641205	-18.2000570345967	
1184000000	-2.82993756703264	-165.99387841014	-3.10325476642305	-90.9274006591689	-3.09378168837612	-90.716870463331	-3.74499152706782	160.920968414584	
1187200000	-2.79620616789381	16.4408443022959	-3.22632895205156	-93.2758076595669	-3.20011169823046	-93.043755550565	-3.68097540376287	-21.1563345437256	
1190400000	-2.83460522585292	-165.620277006628	-3.1457222451304	-91.7689865925193	-3.14098533283153	-91.766379828047	-3.60996751015468	161.578141342774	
1193600000	-2.77867251460401	-165.120641414298	-3.11264574096856	-92.805286333181	-3.09197394792002	-92.9420984296413	-3.60342816982034	161.465101090165	
1196800000	-2.83912743407216	-162.848432298961	-3.0703660772057	-93.3215887678807	-3.07325075660917	-93.5356890209292	-3.69833523678878	159.897198485197	
1200000000	-2.84318651095714	-164.219555472077	-3.13630811294844	-92.2847709180927	-3.128552235312	-92.2848713971772	-3.60578758711099	159.521284510335	
1203200000	-2.8625513495146	19.0186231903642	-2.90462201062372	-93.2673157997525	-2.9127109071318	-93.4656111802588	-3.88707441336094	-22.6238764960754	
