!Keysight Technologies N9950B: A.12.38
!Date: Friday, 28 April 2023 16:32:10
!Timezone: (UTC-06:00) Central Time (US & Canada)
!Model: N9950B
!Serial: MY61131330
!GPS Latitude: 
!GPS Longitude: 
!GPS TimeStamp: 0001-01-01 00:00:00Z
!GPS Seconds Since Last Read: 0
!CHECKSUM:1812574082
!Correction: S11(ON U)S21(ON U)S12(ON U)S22(ON U)
!S2P File: Measurements:S11,S21,S12,S22:
# Hz S DB R 50
800000000	-10.6945085660623	156.2121066968	0.420324462721028	27.3854441606874	2.13753575397986	-21.4300663771683	1.963246002755	-131.302551111757	
803200000	-39.0484849232055	123.040040027548	2.62535603407141	0.749036951630362	2.64746853720373	0.82558721002459	-34.8891504965828	-56.7137817498846	
806400000	-27.3472367275672	-0.107257994799041	2.96825140056137	4.67942757268998	2.97723304702058	4.81594682137372	-16.6461353379065	178.676170562299	
809600000	-34.4455947622886	78.6994146659874	2.60381552452935	1.07741256093879	2.61003734054708	1.09536594332684	-24.0278788618783	-103.703859935605	
812800000	-34.5140536722207	118.677024173151	2.53057854465618	0.495857431523848	2.5374075774068	0.466854764778444	-24.6674392267567	-52.3603258054035	
816000000	-9.35925672064167	166.576042457218	0.362723705851664	27.2483394226534	2.40819236185494	-23.1842356035467	0.658649456632593	-142.737711071296	
819200000	-27.4440311009109	-31.8911440173564	2.75319777253313	2.72551768909974	2.75757006520589	2.61008468147509	-21.3701097069137	148.091035398131	
822400000	-9.50428076984496	163.958370340333	0.0238727196027599	31.0703257888897	2.37091642536448	-24.9402984179515	1.18719538619273	-136.242106174175	
825600000	-9.8069280036106	162.092778349163	0.505031201475606	33.7521126758203	2.1541214099499	-23.5958142466285	2.23373510364841	-131.412590389606	
828800000	-9.86733898803385	164.693149956437	0.483894753517281	32.9597879511613	2.22524042386633	-23.2105691769461	2.21245682389711	-134.266172938327	
832000000	-26.842092864996	7.77661161308762	-2.48642264119001	-1.61735420044637	-2.50980819241935	-1.28738464424492	-31.9685576484824	163.264333465419	
835200000	-9.55650837714369	165.428443828888	0.476789978472999	34.1878902984942	2.2183509656944	-25.5230919411701	1.92413112084706	-138.388496635582	
838400000	-9.50765177787194	165.361429794377	0.624465019698573	33.4129609544768	2.28189838218234	-25.5317499180736	2.07762768500295	-141.501313163036	
841600000	-9.83265830676369	165.390188843328	0.399957870652027	33.3442900907301	2.25119677928549	-26.106829472867	2.22015848534036	-141.000920775841	
844800000	-22.3973391977018	36.7464314075461	-2.86335547850003	-2.98537647331314	-2.84011082801779	-3.21836439035772	-30.4273566640876	176.33779293474	
848000000	-9.9364418231147	168.355900957227	0.19060393478039	36.262853283486	1.75856634566173	-26.9041801073682	1.55042833612097	-141.767742141613	
851200000	-29.1689102661453	80.7712648851955	-2.50503368400126	-2.31075078658264	-2.47835851168215	-2.38533852716301	-33.4455639061331	-102.814965345284	
854400000	-24.1042617890524	6.96902280684491	-1.99026050345319	-1.35417173415359	-2.01413448489583	-1.184543437305	-27.8713675721076	154.891987027166	
857600000	-26.2771211064205	110.862956845872	-2.42687905114223	-4.22513957105987	-2.45161778799685	-4.33904480578758	-28.712240512782	-86.5882469207244	
860800000	-10.8231924605498	163.220280593303	0.495190041782833	33.7331664883793	1.99569883467175	-28.0884167036292	3.01856242321155	-143.749878324203	
864000000	-37.9615133142415	46.7465816095005	-2.5056959752741	-3.05464604204682	-2.5335753260867	-3.39729778841076	-42.9305760287669	173.125427608838	
867200000	-24.1262755645081	64.484475002971	-2.65084433526051	-1.57860720983722	-2.68393502127886	-1.57996814727266	-28.4081775871729	-153.394153404631	
870400000	-11.7786071386234	167.855499062782	-0.459643800354394	33.3593149855807	1.1762244173571	-31.107044629542	1.88607052534172	-148.823489928356	
873600000	-25.7117762671333	72.1707794063178	-2.21962712994581	-0.612699026724974	-2.23025452921638	-0.830652495283583	-24.0398998737981	-130.46288129285	
876800000	-27.3790699626665	111.629051736876	-2.33152884812641	-4.10445189542691	-2.33218410246479	-3.88364885655559	-29.7342392933324	-99.6714557410583	
880000000	-29.096693730672	46.8746581866677	-2.11378903349508	-2.58203172480662	-2.08779728901	-2.33870770196192	-35.2868635394596	-162.612877664463	
883200000	-24.0974374501955	10.6387706350269	-1.72637830186643	-1.38197839977486	-1.73593281901132	-1.30834822545722	-26.386528813797	145.931818821644	
886400000	-33.2561234450208	-49.9161168753487	2.02205644618675	-0.26177690626657	2.02977229625394	-0.185052967119572	-32.2491174129169	113.535135227694	
889600000	-10.7050298117064	165.20032216193	0.343101978644295	31.134049340763	1.97043950779844	-25.7712892050554	1.90363075986994	-141.71311406834	
892800000	-28.8198039533387	88.8154393480387	-1.8323626594973	-2.6048125962145	-1.83204854825069	-2.44413597394061	-24.0600906711402	-135.895879206937	
896000000	-34.4528385502374	128.699706795775	-1.82752067567143	-3.61185409842771	-1.87757582234256	-3.63847948994251	-31.1766938158451	-86.2103902408583	
899200000	-25.2167672925196	56.4426379551856	-1.72736998186376	1.9595797933814	-1.81281237151619	2.00418983595828	-19.3207595490598	-168.511501610096	
902400000	-20.6114906641635	93.012398709487	-2.33547543926795	-2.0607521912418	-2.32429498103241	-2.28718233130655	-19.0668990399153	-152.091699373189	
905600000	-25.1880523313228	17.2933179922661	-1.16920053675924	0.631819208606644	-1.15521419841612	0.740285340780674	-21.4408404511795	138.715510952295	
908800000	-22.3139383470074	-133.896251994548	2.09794145172783	-1.08659105247521	2.07821962747996	-1.43066319409769	-25.1146621554363	52.9602602211091	
912000000	-25.7240985475271	39.0134726575479	-1.83916616544227	-1.24402861325214	-1.83260273816662	-0.916585252250984	-25.9557098673485	164.513261853012	
915200000	-28.6595288486595	91.3250875357483	-1.74093543651997	-4.64117043179712	-1.74492127059702	-4.67646045641487	-26.6404523088865	-150.744738703818	
918400000	-25.9726535022703	35.2391298144092	-1.48311862561217	-1.71589522163645	-1.5084653572659	-1.54215485512747	-24.2064811451682	149.136363382278	
921600000	-11.0723153940166	-175.901447707809	0.491156936238553	32.0830024722471	2.44647223373193	-25.0883729816171	2.98524315244295	-155.831018512108	
924800000	-38.0872697657083	-1.0138385182738	-1.06675375747083	-4.63875329920151	-1.08326029835429	-4.37258044336523	-34.6211086967369	77.6899882084752	
928000000	-34.5302833426374	63.2227223745875	-1.84739587912352	-2.05511956052879	-1.87800839157418	-2.25911335260302	-32.3260678000029	-149.010131661877	
931200000	-21.4882777078517	99.5923183389907	-1.37873074739072	0.219137976863809	-1.40144757242821	0.0226169643859937	-17.3279722108347	165.834431152283	
934400000	-11.2443464783932	-176.318513598007	0.679076102556734	33.5872629443594	2.77034124591922	-26.3698767453461	4.3186042580363	-155.773789400867	
937600000	-29.4255308037516	-88.7029107636278	-0.68191201764567	-4.07036324032607	-0.702053537895474	-4.10255546274403	-20.9624909311538	25.4741900089959	
940800000	-16.9471251139966	86.1571658574093	0.705801509816413	0.413306293276594	0.700649921587468	0.371251503179648	-28.8345499420923	-150.223924712768	
944000000	-22.7897753676974	84.9239087915392	-0.702836099251398	-1.82209951605139	-0.732944593837956	-1.77521175976441	-21.6882512594823	146.295475472326	
947200000	-11.8347217032435	-171.659166399003	0.712913771080278	38.9412245601911	2.53515525344934	-25.5003704751135	5.44232342484074	-155.346751746673	
950400000	-16.1219341418933	96.201248776931	0.279900274159894	-1.05735233954131	0.310496368475834	-0.816556777421048	-21.7168723578419	-177.866595526658	
953600000	-28.8691108929812	-75.3831766807537	-0.117212132643213	-8.63718247220045	-0.0783563310941449	-8.5526381316677	-25.8380376965741	-5.51218535116942	
956800000	-31.2323668771433	79.213418844313	-1.37878416129221	-7.62756974044847	-1.39049151817472	-7.60854691037659	-30.5945114820968	168.658749845749	
960000000	-35.2524541214281	4.52140780626895	-0.499757199925083	-7.24790376599086	-0.497614256468098	-7.1848751522317	-31.5493745215456	79.2370074314511	
963200000	-36.8693003867742	-148.923961797984	-1.01927470525199	-6.38557969978483	-0.993101255557673	-6.54396153975199	-32.3745799537237	-72.1575621617934	
966400000	-22.8644173671452	33.1349024116617	-0.917084417156686	-3.88405511507043	-0.905882213827533	-3.80601543081364	-22.4708341652034	116.41276957246	
969600000	-27.0381609948812	-150.990359901242	-1.15327725581442	-4.8124238318488	-1.14134933745586	-4.72864501442821	-19.1940936601814	-121.727192902246	
972800000	-25.5689468720672	0.896963852368885	-0.244582499904694	-3.61640938406366	-0.249618367610808	-3.72139061959824	-23.5566837011675	67.2666148319948	
976000000	-26.019248653387	-67.6438653790354	0.0659501347911454	-11.9440486594382	0.0646734655294568	-11.9520462287733	-25.8190745337143	-11.6950103588237	
979200000	-35.1404961710373	46.479871200728	0.532898144517569	-6.88596699870393	0.527695555228881	-7.01559088222278	-31.747180816552	117.748263684919	
982400000	-27.1179357907732	-150.235150184543	-0.387082886171407	-12.3352706913343	-0.374003796483974	-12.3893568881356	-27.097065785495	-98.8359761482167	
985600000	-29.6271245333913	23.9510180976999	-0.374341768770518	-7.40585073305553	-0.392382038120161	-7.36687126419993	-31.2983843853367	86.3418322344927	
988800000	-34.1025315874122	-78.4390021116146	-0.945580319206064	-11.9812308419366	-0.955430101489969	-12.0045205914816	-38.1929832567537	3.29307022555489	
992000000	-25.3231713362577	-19.4886961189082	0.31905454298788	-8.40846627032256	0.285570913235411	-8.51670100997243	-24.3412310799715	33.3674164421165	
995200000	-25.7366499888818	84.5930523054802	-0.879914321024306	-7.92845107778906	-0.872937429990862	-8.17486178325407	-25.711224887724	140.422049244336	
998400000	-30.789026826663	-136.007157646783	-0.185697168011522	-14.0122875859158	-0.174517594173809	-13.8421252789534	-32.6975747457535	-75.3472421717911	
1001600000	-35.6605251016527	-77.1310198621411	-0.145372294209372	-10.5511958293798	-0.16943831063261	-10.9049160552222	-37.8291671778392	-6.7316944382099	
1004800000	-23.585894246831	55.8555231079671	-0.42309451407263	-8.53441200284604	-0.431973221943738	-8.83602269539914	-24.4843454349207	114.728934020077	
1008000000	-28.4549337554132	93.5857821816162	-0.437271965649169	-9.82905190926432	-0.459560291977826	-9.52936143140944	-27.9824321495885	145.621707899857	
1011200000	-28.8364326000896	137.598722763034	-0.259231702932143	-11.5664599268093	-0.292884519990154	-11.3541477114042	-31.7929612023258	-161.694983030118	
1014400000	-30.2175849298652	-39.1022633519113	-0.437070667658603	-12.9852762868525	-0.426291994211707	-12.9811191246032	-32.6330228362192	14.4898197316251	
1017600000	-45.2157756002554	-19.8899572969974	-0.0526724032094142	-15.0980768019196	-0.0592522742183975	-15.04408642991	-49.4166687530248	21.4123930360649	
1020800000	-30.5079212982992	9.72126229013966	-0.344978046241606	-14.6947667003581	-0.317119375382863	-14.7697148896543	-34.0412947283781	70.7868370407124	
1024000000	-28.7332728884813	-26.0989011890338	-0.0459589767095686	-13.9965129025747	-0.0833726930980471	-13.9310714970549	-29.2359957791668	27.6233272076983	
1027200000	-31.5288929991771	-13.2081674619689	-0.197017770318182	-13.3090409298872	-0.230515945641496	-13.3824248559961	-31.8890736254164	41.9043356793327	
1030400000	-29.69714743598	21.3673728442771	-0.0947358309649099	-14.1767211943456	-0.135219385422473	-14.3563065724844	-29.0762855885123	75.8997979016194	
1033600000	-37.6620516963811	140.575066823861	-0.0569086396974411	-13.4524422345909	-0.0721161964394804	-13.3788829129984	-38.108547063666	-157.08358638979	
1036800000	-32.573968945384	-178.421294641144	-0.224442625649268	-15.5315739886893	-0.256839324195796	-15.5779953443737	-35.1304181264294	-142.165656578031	
1040000000	-42.4441261575746	3.99709920806777	-0.0490993515041605	-16.7824782978526	-0.0112485369070688	-16.7072054278912	-41.3488111345053	44.0939612957528	
1043200000	-31.7421028329754	137.526411715099	-0.476665094561735	-16.3574498237712	-0.491846845205098	-16.4569210402078	-34.029038924668	-177.860925421201	
1046400000	-34.5297528143742	42.156020304983	-0.239683920691436	-16.0978072700036	-0.277494467334077	-16.2122183908574	-35.7460181478919	96.1457314232727	
1049600000	-27.9879030606959	7.73964725344327	-0.192751972245349	-15.9699165779028	-0.227886322303438	-16.0202101755058	-27.9756970500136	49.2595345072818	
1052800000	-22.9000729232702	-19.3830316667205	0.0666120985603782	-15.3031305899192	0.041813859082287	-15.4774719347938	-23.5097787788873	28.0523820755264	
1056000000	-34.9978308390877	-154.093929264174	-0.146468843424199	-17.8151175701341	-0.129558184079523	-17.8703190796907	-35.8766652812807	-100.167848594272	
1059200000	-32.1973803500011	41.9389545238056	-0.12805427019437	-17.7674028233173	-0.132681445623736	-17.5316129352535	-34.9892250400969	72.4850461210977	
1062400000	-30.9463562161265	-12.1061866140783	-0.0123814035048947	-18.2182031304343	-0.0296764153641704	-18.4645398519505	-32.4658490978176	39.3391042984494	
1065600000	-36.3483793497089	120.690819392057	-0.278603677113408	-17.8445454458023	-0.299436212449641	-17.8122470418385	-38.3799388659132	159.297867240948	
1068800000	-30.8428903979435	-19.091871975053	-0.190916036093902	-18.8411162412332	-0.200224978728902	-18.6759226178969	-31.8872170960484	8.64848681611394	
1072000000	-31.7288419318722	94.396512860456	-0.203689723345818	-17.0805477955851	-0.181797455740471	-16.945425521244	-32.8035294085201	136.615636177268	
1075200000	-37.8580618648893	-54.8984555717027	0.100767626076832	-20.3233875718946	0.077642036613813	-20.3022569802816	-36.3127481136144	-19.9427700752525	
1078400000	-32.793167219095	8.55707869597519	-0.0274866334303161	-18.9234435604878	-0.024822562949064	-18.9664858287289	-32.6470921314801	55.5531500306894	
1081600000	-37.9236505976912	-53.6320368325767	-0.109421082307104	-19.9601735697651	-0.125810567412227	-20.0492152180979	-38.3244546931541	12.6049956931489	
1084800000	-33.2508241215309	91.5730782926396	-0.0522773020685295	-19.3084326567643	-0.0786537358572127	-19.4318168244229	-34.6983354682302	139.248668002847	
1088000000	-24.9757713023748	77.0775253603321	-0.173654071823365	-18.6307983294129	-0.173758301737749	-18.6040118183025	-25.4897481551656	108.235540969987	
1091200000	-27.9959799415282	-49.4917608238772	-0.0714074830502384	-20.2442693882939	-0.0687692879839953	-20.3603311078684	-28.4944186375622	-15.9939573469762	
1094400000	-38.698980361306	-7.1413387535337	-0.040100908937415	-20.5709952726195	-0.045462989363657	-20.7125754689925	-43.7780189767693	44.3160461670357	
1097600000	-35.4795823337954	68.8984703192513	-0.290248447487282	-20.4101492239195	-0.313894297327319	-20.468366531002	-34.7530394328948	121.690719299985	
1100800000	-36.946478036928	10.5662223046316	-0.0840813082282013	-20.8058287565246	-0.12209478549999	-20.7355147592677	-39.2808494709601	30.3121919560366	
1104000000	-31.6410344387051	78.9790420258154	-0.381486626237443	-20.6262771258216	-0.403214939597284	-20.5242092572741	-33.3999219316031	103.594157275231	
1107200000	-35.0283227683338	74.4344031116424	-0.00348002698956027	-20.6264305218537	-0.0359398132147604	-20.7180066497353	-34.2560490695566	111.148503560126	
1110400000	-33.8373381199716	60.4246539481274	-0.371272042075165	-20.439172850336	-0.361695906026988	-20.381496728093	-33.3860198373795	100.700292123752	
1113600000	-39.8457786009594	-101.518267169327	-0.181877857299197	-21.6639771563284	-0.17164858968832	-21.7395474970509	-39.1154094495844	-104.5097443569	
1116800000	-31.0812634591549	-1.31499782395941	-0.113577540580942	-21.3692351507806	-0.124854549229606	-21.3919597231598	-35.5471392436485	23.0513285011255	
1120000000	-33.4166433801873	-9.36815687646439	0.0735173264926911	-20.8032100967868	0.0431610040011449	-20.9107705084408	-33.0528583795952	21.5559087463796	
1123200000	-45.8280768861998	137.722302108031	-0.0773516869905104	-22.3351361060597	-0.122226475116946	-22.4442742033784	-39.5107135592287	125.061056169623	
1126400000	-36.410133823579	-63.6904782903234	-0.0252192451293046	-22.8391243906786	-0.0306015850322309	-22.9696278985771	-36.470554184509	-45.5946764249579	
1129600000	-41.7518571571693	145.145454718161	-0.208823876092285	-22.6299603527059	-0.215863227609053	-22.6581278299999	-38.7816219526319	151.687936187126	
1132800000	-32.8470893854346	104.915945337555	-0.201299035243357	-22.8036601753332	-0.212889476365479	-22.6467585900974	-33.927779359231	122.240419948403	
1136000000	-44.0937808401345	-151.007311437469	-0.114519919794552	-22.0726757446801	-0.081550282788479	-22.018415936185	-43.0164707391454	-132.474669031795	
1139200000	-30.9123396431153	-2.3184446817053	-0.108166458536807	-22.202855523304	-0.0887418708585321	-22.2495179018688	-34.6077525053987	-0.0149203717786195	
1142400000	-34.6586743687882	-106.554316611978	-0.0562171931142525	-23.0078409012375	-0.0767889868581513	-23.0527741605399	-34.0500382194099	-112.59538259277	
1145600000	-34.6835552886386	81.7552672473198	-0.0327586895037467	-22.9185695369214	0.00902073206939637	-22.7316032379233	-33.1141027727288	115.369503363158	
1148800000	-45.437426761409	-171.220373934352	-0.306083443272402	-24.6852359125691	-0.298467844112009	-24.7964862517847	-43.9647848277408	132.760612744193	
1152000000	-44.080953065264	-114.120581571944	-0.165607230130451	-24.0605660415257	-0.155312071560821	-24.0923151744391	-40.9237282229116	-74.2175220364933	
1155200000	-33.4648467790666	146.064967864865	-0.206610276729406	-24.7607016835546	-0.174996836388298	-24.6517895851361	-32.6002513393188	-178.360656347439	
1158400000	-38.0893667599528	50.2702663358571	-0.226488605076354	-24.144074022103	-0.246048015751254	-23.963899665418	-37.0823928231693	42.3189159853925	
1161600000	-33.3330215942674	58.5202712119204	-0.247804676965213	-24.1713392268727	-0.293930793258739	-24.2101865037141	-33.7649221473092	78.129435605026	
1164800000	-38.2494629727693	-126.101025869113	-0.251687312633513	-25.4512973086205	-0.275983976753577	-25.4316475579913	-42.64135792432	-146.509481119676	
1168000000	-35.2552288583575	61.7462130739076	-0.198094961283171	-24.7905722608017	-0.198077703981606	-24.6459278499605	-35.0277991001728	60.2934930219908	
1171200000	-34.2781340465223	-1.26072439544647	-0.104445603688792	-25.2145209142728	-0.143891988150572	-25.2138109191574	-37.8165092500048	4.66821550677747	
1174400000	-33.9357743707819	97.5799808900301	-0.0208214849536206	-25.0530337791007	-0.0343088409765352	-25.1747916740656	-37.9480885107898	88.2212127335992	
1177600000	-39.8099227955251	-25.0360017212307	-0.00584538653108781	-25.2016581672008	0.0116305632015684	-25.3159120375046	-40.4864993448097	-15.159094286093	
1180800000	-43.1386130204086	-171.319820761891	-0.111725125584368	-26.8155030612563	-0.0869369783118197	-26.7412559231379	-42.7287871990304	156.819573450553	
1184000000	-33.63207410668	89.0770678135089	-0.0840645127400179	-26.086787556433	-0.0979495583962737	-26.0476687468121	-35.0703880439036	83.4876137314714	
1187200000	-38.4902407011009	170.128328530074	-0.0992787350130945	-27.3641690735789	-0.0751856800140698	-27.3253286931711	-43.633766930629	-178.667997478608	
1190400000	-65.6075900123841	6.58783444281343	-0.0568390569503627	-27.061539908585	-0.0707806569392491	-26.981209276214	-45.6705212331573	-16.922368812979	
1193600000	-32.2521172785811	106.343706172858	-0.303254955171986	-26.475044272369	-0.293571591801421	-26.4570556095694	-31.8700130888112	118.266609576145	
1196800000	-35.7607207733219	-34.2014846980398	-0.0733387184883411	-27.8180443777134	-0.0869114171125966	-27.9033470958118	-41.2945287154074	-32.190494496955	
1200000000	-38.4299447039789	-170.688126575132	-0.180491548600543	-27.8156383732211	-0.184842853602924	-27.7091608075125	-39.2207554634166	177.984069311392	
