!Keysight Technologies N9950B: A.12.38
!Date: Friday, 28 April 2023 16:50:24
!Timezone: (UTC-06:00) Central Time (US & Canada)
!Model: N9950B
!Serial: MY61131330
!GPS Latitude: 
!GPS Longitude: 
!GPS TimeStamp: 0001-01-01 00:00:00Z
!GPS Seconds Since Last Read: 0
!CHECKSUM:1015224053
!Correction: S11(ON U)S21(ON U)S12(ON U)S22(ON U)
!S2P File: Measurements:S11,S21,S12,S22:
# Hz S DB R 50
800000000	-6.19386768760609	100.927967344302	2.98912750685961	-91.2810442115622	-0.266602281214545	-65.2865540055042	8.3088653896225	56.1565431245108	
803200000	-6.25730998587678	93.3645521364933	2.82631242224781	-27.625752015487	-0.572470199081181	-19.0111928167245	8.1846006225128	-39.6114833828404	
806400000	-6.32811006341633	91.8440466946866	2.61745338992318	-15.6649347850388	-0.852347040949341	-10.5371506327181	8.02470472245814	-58.5471006399491	
809600000	-4.74917222227029	90.4849085999917	3.14082283985549	-28.1489457413774	-0.0259289452231113	-20.2177770707147	7.83174660935737	-52.9942583445021	
812800000	-4.84508114415306	88.5380322661655	2.89671128414331	-48.9669400971952	-0.382220200261215	-34.022413479754	7.70816781556092	-38.9477017028711	
816000000	-4.90054726286855	98.1659151635952	2.74220556495061	-57.8145257640745	-0.746701169564921	-41.8880662604132	7.65851405646843	-31.6246820383026	
819200000	-4.96551352197951	95.6638663146661	2.6149115137024	-68.9692328752784	-1.10375537729104	-47.7823445725528	7.66781162248435	-27.3065060719667	
822400000	-3.75628842830927	101.960118899114	2.76556326402156	-73.5163183010411	-0.64989225543867	-52.1796320975378	7.03510403180832	-25.2513572263701	
825600000	-3.84638009331512	100.751338126669	2.40477543145621	-76.9919524822629	-1.16147892429046	-52.8757603281341	6.87448533887966	-30.9768302981142	
828800000	-2.43409971404935	104.509183063603	3.04558049472454	-85.5557951463647	-0.521234846895739	-61.4460944726706	6.94567843947885	-28.8863357697877	
832000000	-1.22187271876807	109.480195976031	3.43868947604236	-93.4435558243729	-0.128661864226077	-69.3190880961111	6.74134471665831	-26.8100235275651	
835200000	-0.0829611224557106	113.126595529034	3.82987351115406	-101.896792263229	0.26156315856279	-77.7708624697602	6.66269935455954	-24.9552861107083	
838400000	-0.207367836610499	113.640537426782	3.8797871414677	-110.952379931901	-0.000612230002508607	-82.8965041137093	6.91838039165363	-20.0317813319932	
841600000	1.11568256063113	120.377974757999	4.2750756572795	-108.879333444158	0.803834445491793	-82.8397912793008	6.57000336756525	-22.3953857952331	
844800000	2.30483875357317	125.707368708284	4.81363818743489	-115.724075229526	1.34339920950031	-89.672283312577	6.51167594180123	-19.0794138428925	
848000000	2.18659853911146	126.054463869945	4.36047789423793	-117.534852429149	0.967522969169597	-89.9328253383833	6.47827965223022	-23.2254855640934	
851200000	3.12551729863291	129.376149526424	4.43092707459681	-119.010194585865	1.48066010044017	-94.1201798020876	6.29829166958937	-29.3463174723518	
854400000	4.20090475107842	133.538674365958	4.62109685350351	-119.480785901783	2.04441776634856	-97.2479262692436	6.03909378733031	-34.5711187881801	
857600000	3.68166835511948	130.033645533512	4.14871978739509	-122.536088411252	1.57254141027687	-100.317281470381	5.85616130924775	-38.2474891671294	
860800000	4.66370488931475	134.942634174292	4.29100810516307	-121.587958913123	2.12788089409241	-102.997411774033	5.49659485006025	-42.76007636318	
864000000	4.94479382345422	135.813852171769	3.91495178089225	-113.130440167351	2.26514008043268	-97.5661215533976	4.95101973348237	-49.1064669956778	
867200000	5.00144067783169	136.869849400153	3.80839497369047	-111.747826366814	2.4823696602933	-97.0809028524723	4.81811489324812	-48.5002905044054	
870400000	4.3809029679142	132.538954904951	3.28732447058545	-115.678409619805	1.96113045198789	-100.987499856388	5.06723666942786	-53.4119736202179	
873600000	5.21811227907197	135.899175578782	3.43173659680847	-115.25205549704	2.55589753780315	-105.063143850913	4.86452582151038	-56.9325930584326	
876800000	4.3841491499657	134.715269692671	2.70819835557814	-116.714783274247	1.82626124820046	-106.495367738561	4.76412954488217	-59.7600989124757	
880000000	3.81464363617035	133.920413257587	2.16731521443448	-117.325135527342	1.28744039593286	-107.130802174242	4.64102555759411	-62.4589514387555	
883200000	3.27598762491088	133.492659682053	1.65391100659227	-118.311211695397	0.77715779253342	-108.126492944786	4.59114183401532	-65.2073371711232	
886400000	3.73223480948189	132.745953723784	1.32062028567529	-109.170163799667	0.755495750111685	-102.927089327675	3.89567945107188	-70.2432870766466	
889600000	3.11738754873484	130.170478598698	0.775933586572805	-111.879015735214	0.219011382899847	-105.585052706581	3.81685991657815	-74.4527068376762	
892800000	2.48894260905609	129.119664403591	0.181467737153725	-113.159899393328	-0.37586113902623	-106.878533763528	3.68790906501556	-78.4802325150068	
896000000	3.2554704857748	133.233894826741	0.406877749166057	-111.610480344617	0.186462163990494	-109.43831864631	3.27970624277356	-81.5773714029475	
899200000	2.27250497390168	130.201792927037	0.0709913430179805	-112.025309063812	-0.596441778336711	-106.491627754851	3.53276558975701	-79.308960426313	
902400000	1.77008821907202	130.733258510157	-0.405818230979778	-112.054089748985	-1.07208173793793	-106.528761498129	3.48460141876757	-82.2103474296253	
905600000	1.48057911127589	129.60346924632	-0.623062963850498	-113.494925155038	-1.29261285670965	-107.990195409701	3.56622984625983	-83.8621779010096	
908800000	0.971267819315028	129.988502733374	-1.31364508824311	-113.626182977899	-1.98205877100685	-108.144987870312	3.54226380088061	-88.1338094567462	
912000000	0.534508037719342	129.09010019083	-1.25330220554273	-123.816322374074	-2.42403214268565	-114.282879526074	4.14357836382994	-84.8747897344152	
915200000	0.904352818995381	131.675928583266	-1.55375457862642	-126.728998730189	-2.51836995421551	-119.303630713181	4.06014646813069	-93.0916165977232	
918400000	0.995554221046201	130.328455077391	-1.99051375417381	-118.441367085233	-2.95358840380862	-111.018301281424	3.39945522944877	-94.7526668176086	
921600000	0.620251755997943	132.63389315967	-2.59884253706719	-116.001831690746	-3.56236629257036	-108.587434205349	3.16138023262041	-98.7531413332452	
924800000	-0.209760892514975	129.521184976653	-2.73994202831349	-116.709723576892	-4.29854963616246	-104.190665368643	3.44542865839225	-95.9956199504154	
928000000	-0.367413038462364	128.820116718028	-3.13790341688419	-110.660028842617	-4.69419514728144	-98.1173053940028	3.11463095380135	-98.713571911186	
931200000	-0.557316918361942	130.728238979625	-3.48576392667319	-107.887529348631	-5.03963664051865	-95.3247037268024	2.83542559548785	-101.083502777681	
934400000	-0.353285519567731	136.82869632988	-3.33695973455769	-115.032649626714	-4.89005796415988	-102.453548894571	2.85335164333328	-102.944027126169	
937600000	-0.710413316390454	138.500201304738	-3.73445853686261	-113.060203367586	-5.28839716832986	-100.507632742569	2.64869809921097	-105.886379796103	
940800000	-0.878472622660191	138.879337673667	-3.97784196499736	-113.355107819811	-5.52947407809066	-100.814391739288	2.68963540704291	-107.747722711041	
944000000	-1.04840376672471	140.383293707603	-4.11747713128041	-111.841797391867	-5.66683574637346	-99.3231211921604	2.53469439895058	-109.02153220579	
947200000	-0.65737003991216	146.208832348797	-4.60364870176792	-112.433086476494	-5.70080958703628	-103.261193489285	2.27080637895301	-116.721081373052	
950400000	-0.756484834781322	147.401670062826	-4.82504275951487	-111.60551683105	-5.92637866363421	-102.467700420434	2.19299283627284	-118.704648253871	
953600000	-1.18906947761155	150.515272942327	-5.27097404779002	-107.533396824781	-6.37037024161187	-98.4022204609388	1.73386148266851	-122.176731088672	
956800000	-1.22960834811599	150.586640496513	-5.224256363652	-103.439537005658	-6.32400104279437	-94.3176652177126	1.46538579223718	-123.075416060322	
960000000	-0.668159945950893	156.968552913334	-5.41334049874537	-98.6561937484947	-6.01465511030907	-93.6055914921808	0.721271640948468	-129.548362988553	
963200000	-0.662012658385397	159.686607010177	-5.50796709830925	-94.476846489387	-6.10946239799306	-89.4002672337139	0.236409550106871	-130.915090073626	
966400000	-0.870151033150345	164.036228635822	-5.17937108463074	-100.124672471944	-5.7861477213626	-95.0490324407531	0.468132401169707	-131.343502291386	
969600000	-0.895080939918357	164.432094110779	-5.0563254506607	-99.0008420935403	-5.66342300822007	-93.923858403267	0.351743721176586	-131.593746908056	
972800000	-0.248263603300015	170.927656976993	-5.13243874279882	-94.3742969555571	-5.14144671444582	-94.4305295844696	-0.416688037738467	-137.052911489353	
976000000	-0.390375860462132	173.407309875269	-4.94226920336685	-97.4320727188381	-4.9547777192495	-97.4961746597027	-0.399120497550182	-137.626464923622	
979200000	-0.43694565265638	174.07945295822	-4.86074234717529	-96.3040561815526	-4.88092331797612	-96.3956617456768	-0.52945050951574	-138.186984046035	
982400000	-0.639243986293209	174.402326002779	-5.01740905410251	-94.8269660639201	-5.03462998231257	-94.9347799278327	-0.671381035660373	-140.256175048466	
985600000	-0.736693718989789	174.924650713813	-5.0379967147044	-93.5232897936335	-5.06067677781748	-93.6018083101475	-0.802929480203252	-141.461381536087	
988800000	-0.846795575320166	175.965567707984	-5.04438059233165	-90.2524841280069	-5.07283820515059	-90.2769968568894	-1.111476096616	-142.945826572955	
992000000	-0.951039536764764	176.801726405547	-5.10221117376984	-89.0383732222755	-5.13069815917845	-89.0735922483752	-1.32523756653788	-144.386966023167	
995200000	-0.979725516940201	177.912473024089	-4.72043838666528	-83.5139983694684	-4.75100828275386	-83.5345730829175	-1.88043070389148	-143.93022697048	
998400000	-1.0835570257568	179.261711759935	-4.5063800903235	-81.3485208029589	-4.53134426886807	-81.3729692013801	-2.22543125426259	-144.497909977089	
1001600000	-1.11807398540023	179.859532931909	-4.43655957324886	-81.0320798599578	-4.46236486125285	-81.0270350021832	-2.35452329102292	-145.047161106868	
1004800000	-1.12995838458637	-178.531531245659	-4.23828594458189	-82.6294249697599	-4.26640923561686	-82.6022742891757	-2.43097321041612	-144.966160778974	
1008000000	-1.19488780366139	-177.590002483056	-4.09248647370301	-82.3255999316758	-4.12154497238672	-82.2911748671422	-2.56573716342879	-145.615310510391	
1011200000	-1.28992807381627	-177.344428158358	-4.06036509976328	-81.1605127054023	-4.08849544324286	-81.139563423608	-2.68242920049028	-146.8222406685	
1014400000	-1.48453845144087	-177.264220795061	-4.13865656232111	-79.9682558193163	-4.16377825632882	-79.9469253783649	-2.71547423972409	-148.853681873692	
1017600000	-1.58768514845163	-176.161638842897	-3.94359392093409	-79.4864467743571	-3.96304569492738	-79.461361360695	-2.88007047057285	-149.697468190125	
1020800000	-1.69999816023992	-175.28787875654	-3.8543775130557	-78.75720389064	-3.87736110010319	-78.7212693362856	-2.99948087776102	-150.8272416516	
1024000000	-1.73645319412362	-174.204753799077	-3.73594627613064	-78.8683094483584	-3.7614592560582	-78.8517534011566	-3.06640656117027	-151.343229152413	
1027200000	-1.79639745373141	-172.844773334865	-3.54104237812586	-78.7475405451537	-3.5651783219396	-78.7078405630054	-3.23470458353727	-151.731214472018	
1030400000	-1.80766988412194	-171.891541599676	-3.43566971307467	-78.8015928297517	-3.46130140599006	-78.7519177723948	-3.32268477265964	-152.105295645153	
1033600000	-1.89369684591861	-170.992927825927	-3.2978497098994	-78.6010556915603	-3.32005201157123	-78.5947537481102	-3.38633507627115	-152.730119744959	
1036800000	-1.99857188846945	-169.525883349932	-3.11866697839155	-78.6212096753327	-3.13711507944842	-78.6371443039098	-3.52258130148986	-153.375819837719	
1040000000	-2.15068186246124	-168.757930125851	-3.05192376823201	-77.9849853198663	-3.0725276666593	-77.9932443734192	-3.62214981173331	-154.769179509333	
1043200000	-2.19716302284982	-168.17543576098	-3.01145755152304	-78.0992269002277	-3.03058796342415	-78.1235243333258	-3.64768438540337	-155.240875014924	
1046400000	-2.25044084576677	-167.444501447451	-2.96566802777908	-78.0269731697592	-2.98796823456325	-78.0392487040654	-3.69333758748662	-155.876324351619	
1049600000	-2.34454958843388	-166.994461215937	-2.91848183384776	-77.8160154100934	-2.93895978757836	-77.8222495076504	-3.69566171254622	-156.785577082985	
1052800000	-2.52496878466948	-166.249928324932	-2.82985761412954	-77.3624745720868	-2.85029502292988	-77.3673588162917	-3.75298612310436	-157.95807821684	
1056000000	-2.63230417017103	-165.563874660079	-2.78025272742939	-77.0499377713718	-2.79239868121818	-77.061428179058	-3.84598758865631	-158.683963925524	
1059200000	-2.70273516604694	-164.14531044512	-2.63428832758157	-77.2291915116514	-2.64504216777531	-77.2476688316022	-3.98656395080143	-159.188150903572	
1062400000	-2.84154341593828	-163.356660747122	-2.55172103006875	-77.0380738821974	-2.56217336666788	-77.0650311158274	-4.05120940717804	-160.147136490219	
1065600000	-2.96248612147315	-162.459566325651	-2.48408071120057	-76.8491145663439	-2.49454434377075	-76.880082915725	-4.13167024053604	-160.974244234009	
1068800000	-2.99632707312959	-161.675661157647	-2.43988407790841	-76.9214407759293	-2.44622189673726	-76.9637261433642	-4.18367669438462	-161.465996066227	
1072000000	-3.09380227561	-161.144057256633	-2.41094238544806	-76.7300156660199	-2.41520976347614	-76.762312724509	-4.23733005468733	-162.408423467025	
1075200000	-3.20908303738444	-160.51061273619	-2.40297136973676	-76.389265215965	-2.40580347381263	-76.4403380045221	-4.30764865560909	-163.755519548075	
1078400000	-3.34990077888395	-159.865092757383	-2.37015118713549	-76.0131598518984	-2.37334051289784	-76.0446092308161	-4.36454185782146	-165.044275883002	
1081600000	-3.4172935998462	-158.824082421906	-2.3220260222924	-75.9664178525324	-2.32753284570124	-75.9867971293823	-4.51304464885098	-165.909093753499	
1084800000	-3.48611679509787	-158.477736457719	-2.31009701390651	-75.8068698148192	-2.31861494200627	-75.850326240132	-4.53815491948277	-166.924119790057	
1088000000	-3.5245871115087	-157.892977551754	-2.30778399914963	-75.7540543697331	-2.31337418487855	-75.784529999224	-4.61337860080251	-167.673190584933	
1091200000	-3.56192887616306	-157.204149686156	-2.28542151842255	-75.6846039137021	-2.29120959343079	-75.719802015523	-4.68498045509655	-168.517380386885	
1094400000	-3.63587598380642	-156.76837341876	-2.28848351290001	-75.5183714544943	-2.29430631017155	-75.5693966608204	-4.72459817510521	-169.640190175848	
1097600000	-3.67685308133804	-155.870323954227	-2.24112957111725	-75.5159957963583	-2.25212366902833	-75.5872330886588	-4.79352997365101	-170.383674907649	
1100800000	-3.67409581895428	-155.402229882096	-2.24607245074404	-75.5932054759571	-2.25703509051501	-75.663108832219	-4.84351754090734	-171.326750328905	
1104000000	-3.70336756186417	-154.862837266405	-2.2386590529411	-75.6765429487049	-2.25477855559574	-75.7553514898592	-4.85934642607316	-172.198255884225	
1107200000	-3.74002134091399	-154.507980566207	-2.24837476873406	-75.6709568029316	-2.26485693069253	-75.7413746753476	-4.88806515824181	-173.290627902771	
1110400000	-3.74050552400081	-153.735143669079	-2.22671682267987	-75.8103562222027	-2.24402974485967	-75.864785271709	-4.97092503535922	-174.199795902781	
1113600000	-3.68874991103289	-153.597478190004	-2.26567796767699	-76.038442488923	-2.28172523507994	-76.0812724104742	-4.94422750432147	-174.808747524181	
1116800000	-3.74657364327021	-153.07852059331	-2.263868514086	-75.9306623759314	-2.27610704984975	-75.9651162806818	-4.98066300490932	-175.882718585143	
1120000000	-3.75020378251833	-152.820682458874	-2.2812451786342	-75.9730534918578	-2.29476497131162	-76.0125024537922	-4.97042961587787	-176.633889543873	
1123200000	-3.79882592700898	-152.703410175278	-2.26943992326104	-76.053617814222	-2.28023311583467	-76.0716125745642	-4.91465758406555	-177.575637296624	
1126400000	-3.79882004913782	-152.091791296815	-2.26635444900377	-76.1539973536686	-2.27774914556409	-76.1958566005695	-4.98728166471876	-178.627801568865	
1129600000	-3.80529392663326	-151.774127094935	-2.26362735282406	-76.2384716899115	-2.27195880600028	-76.2853980822601	-4.96622156268419	-179.442079562129	
1132800000	-3.83179015361729	-151.243370055362	-2.25803573278287	-76.3548412765773	-2.25980734795519	-76.4011685249634	-4.99103836344232	179.788776286792	
1136000000	-3.85391918454125	-150.745773980896	-2.23367096147319	-76.4890462433066	-2.23606787514191	-76.5261821165369	-5.00100016920314	179.002580736569	
1139200000	-3.87759620045974	-149.959160469353	-2.20575853523838	-76.6652939793995	-2.21349285074002	-76.6835764871774	-5.0473989946803	177.982334155656	
1142400000	-3.88377576153798	-149.504507299171	-2.19192219770217	-76.7322870572965	-2.1990213535686	-76.7311301628508	-5.09086954383883	177.243598091756	
1145600000	-3.90677385487592	-148.80285182189	-2.17575951856559	-76.9297629735353	-2.17851653512056	-76.925719882834	-5.15953945933079	176.307414594835	
1148800000	-3.90250968446858	-147.930751810519	-2.14797865061705	-77.1314742035305	-2.14874401397131	-77.1297499225652	-5.21266997157409	175.831219079987	
1152000000	-3.95198242506132	-147.481108068227	-2.11860581035762	-77.2061375389148	-2.11955903234716	-77.1831699440996	-5.20696756554563	175.03309663462	
1155200000	-3.97206362026481	-146.784223977863	-2.08474325183505	-77.3081414661573	-2.08414026081863	-77.3003906462235	-5.20685427897153	174.392924803935	
1158400000	-3.98634266366208	-157.988021216307	-2.05834317308507	-77.5217221868234	-2.05548661677228	-77.5138364318295	-5.2331368721833	-174.169275424429	
1161600000	-4.04810927224311	-157.162893067048	-2.00726188240568	-77.6194435788753	-2.00794332617692	-77.6058846075539	-5.31319065631196	-151.100818204308	
1164800000	-4.12144545303352	-168.44271856706	-1.97758656206806	-77.6819451883835	-1.98062750684164	-77.6649692859524	-5.35458684096648	-116.260479772732	
1168000000	-4.17390736487771	-167.667336376683	-1.93588512748184	-77.8280867255784	-1.93764744526656	-77.7926753132835	-5.43110664023436	-93.0797079920712	
1171200000	-4.18193908730321	-166.859571182964	-1.90859594444546	-78.0139298550399	-1.91209528148908	-78.0015133021289	-5.49622042401806	-69.5839170549077	
1174400000	-4.2320056674317	-166.258599337633	-1.87668606910285	-78.1273770816661	-1.87854452470642	-78.1122995515801	-5.47202034392446	-46.1124076357748	
1177600000	-4.29549431051161	-165.774571788207	-1.8593036059497	-78.1786102577231	-1.86238541499812	-78.1614572809908	-5.49525730260744	-22.91319807479	
1180800000	-4.30929229357896	-176.865004641045	-1.82938404518992	-78.3574526470151	-1.83747059518265	-78.3544725751188	-5.56393269388513	12.2658037960833	
1184000000	-4.34080996095772	-176.454373276089	-1.82574948586752	-78.4675687798018	-1.83315322013523	-78.4743453195906	-5.55762547917636	35.7147279007469	
1187200000	-4.39810475961809	171.894413613985	-1.80631292591199	-78.5777434453922	-1.81205295300388	-78.6006863513945	-5.55420625372606	70.8835361008284	
1190400000	-4.46483861205151	160.450407916749	-1.78725862492091	-78.6916337400162	-1.79124532899186	-78.7109402694134	-5.54426021445784	105.965332079423	
1193600000	-4.53224279914907	148.878938869301	-1.77701091148105	-78.6874781475375	-1.77944724737504	-78.7004987182485	-5.54005221078454	141.110908674222	
1196800000	-4.60120543787331	137.201044146713	-1.7734265560679	-78.6845767296513	-1.77465619079607	-78.707864820732	-5.58478786343864	176.281507205827	
1200000000	-4.62786970499255	125.833773763076	-1.76246019160471	-78.8187556962316	-1.76230013031837	-78.8466154727693	-5.64305183354719	-148.487371094415	
1203200000	-4.67367588205979	114.472843557345	-1.75742110532051	-78.9393401469895	-1.75609718067873	-78.9493459278549	-5.70550597140245	-113.425230716581	
