!Created with skrf (http://scikit-rf.org).
# GHz S RI R 50.0 
!freq ReS11 ImS11 ReS21 ImS21 ReS12 ImS12 ReS22 ImS22
0.8 -0.0223855488 -0.129748106 0.9861675501 -0.07840359211 0.9862797856 -0.07846513391 0.003336051013 -0.1255932897
0.80064 -0.02254795656 -0.1298207641 0.9863467216 -0.07842171937 0.9857060909 -0.07818532735 0.003497683909 -0.1259652227
0.80128 -0.02789968997 -0.1275848746 0.9863193631 -0.07868528366 0.9859702587 -0.07867000252 0.009129614569 -0.1249616817
0.80192 -0.02781737968 -0.1273015738 0.9859938025 -0.0788365826 0.9861200452 -0.07851949334 0.009232237935 -0.1250435114
0.80256 -0.02776483074 -0.1275926828 0.9864432216 -0.07903067768 0.9858015776 -0.0788327828 0.009479426779 -0.1249755919
0.8032 -0.02800833248 -0.1277611703 0.9858435392 -0.07885151356 0.9860162139 -0.07918198407 0.009871480055 -0.1250729263
0.80384 -0.02793547325 -0.1276324987 0.9861020446 -0.07900688797 0.9857334495 -0.07894344628 0.009400303476 -0.125141412
0.80448 -0.02812202089 -0.1277284622 0.9862373471 -0.07942094654 0.9854760766 -0.07929866761 0.009573047049 -0.1253153533
0.80512 -0.0281060338 -0.1282803863 0.9860947728 -0.07927393168 0.9857357144 -0.07922610641 0.00975202769 -0.1252720356
0.80576 -0.0280402042 -0.1280488521 0.985912919 -0.07916809618 0.9861991405 -0.0796693489 0.009541260079 -0.1256248951
0.8064 -0.02845819853 -0.1284433305 0.9860520959 -0.07891315222 0.98565346 -0.07928786427 0.009910765104 -0.1256180555
0.80704 -0.02882694453 -0.1281234622 0.9858938456 -0.0794633925 0.9854646921 -0.07962370664 0.009930498898 -0.1253137589
0.80768 -0.02844046801 -0.1290067583 0.9862354398 -0.07912041992 0.9855461121 -0.07934006304 0.009981844574 -0.1255389303
0.80832 -0.02878354676 -0.1292286366 0.9860426188 -0.07983382791 0.9864429832 -0.07985883951 0.009736191481 -0.1253719777
0.80896 -0.02864737436 -0.1292838752 0.9860913157 -0.07919382304 0.9860323071 -0.07928112149 0.009934992529 -0.1257392466
0.8096 -0.02894744091 -0.129051283 0.985850811 -0.07958628237 0.9861565828 -0.07946848124 0.01005815901 -0.1261679232
0.81024 -0.02857406437 -0.1291217804 0.9861052036 -0.07960597426 0.9858017564 -0.07959418744 0.009662314318 -0.1262794882
0.81088 -0.02939886414 -0.1292197704 0.9859688878 -0.07967968285 0.9857010245 -0.07972890884 0.01038176473 -0.125510484
0.81152 -0.02919460274 -0.1294579655 0.9858108163 -0.0796225816 0.9862341881 -0.0795712322 0.01033571735 -0.1261998862
0.81216 -0.02920518443 -0.129509896 0.9861402512 -0.07984259725 0.9851549268 -0.07925876975 0.01038563997 -0.1260538697
0.8128 -0.02926230989 -0.1298133731 0.9860313535 -0.07978336513 0.9857834578 -0.07954188436 0.009925998747 -0.1262482405
0.81344 -0.02957635 -0.129972443 0.9857097864 -0.07973565161 0.9857424498 -0.0799665451 0.01098195091 -0.1260641813
0.81408 -0.02937269956 -0.130017817 0.9855571389 -0.07975458354 0.9859706759 -0.07954140753 0.01035473309 -0.1264941245
0.81472 -0.02957336232 -0.1297578961 0.9858020544 -0.07994329184 0.985509038 -0.08011805266 0.01042300276 -0.1267936975
0.81536 -0.02958021685 -0.1295695007 0.985699594 -0.08003349602 0.9854978323 -0.08013676852 0.01026219223 -0.1265497208
0.816 -0.02982870862 -0.1297375262 0.9856888652 -0.07983005047 0.9852213264 -0.07994053513 0.01023305301 -0.1266048402
0.81664 -0.0295093637 -0.1300115734 0.9858981967 -0.07988444716 0.985580802 -0.079976134 0.01032153144 -0.1266380548
0.81728 -0.02998504229 -0.1300529689 0.985650897 -0.08034908772 0.9854587317 -0.07971541584 0.01054855529 -0.1269774437
0.81792 -0.02984759025 -0.1300510764 0.9857407212 -0.08014763147 0.9854363799 -0.08049739152 0.0108736027 -0.1267489344
0.81856 -0.02943680994 -0.1300002933 0.985548377 -0.07972735167 0.9852742553 -0.08066275716 0.01008333173 -0.127338782
0.8192 -0.02966076136 -0.1299824715 0.9853910804 -0.08009198308 0.9857272506 -0.08076360077 0.01021520235 -0.1273109019
0.81984 -0.02967021428 -0.1304827183 0.9856707454 -0.08029073477 0.9858478308 -0.08056571335 0.0105375899 -0.1269671917
0.82048 -0.02963447757 -0.1302625239 0.9857243299 -0.08026823401 0.9849843383 -0.08054210991 0.01015470177 -0.1278607547
0.82112 -0.02946592495 -0.1303981841 0.9854020476 -0.08006992936 0.9850633144 -0.07990202308 0.009863948449 -0.1275891215
0.82176 -0.02923918143 -0.1305325329 0.9855395555 -0.08022529632 0.9849951267 -0.07996302843 0.01030709408 -0.1276116371
0.8224 -0.02962831594 -0.13033548 0.9854442477 -0.08025831729 0.9854720831 -0.0804092139 0.009841761552 -0.127395764
0.82304 -0.02953431197 -0.1304836869 0.9854189157 -0.08064738661 0.9852303863 -0.08032412082 0.01023836806 -0.1279821247
0.82368 -0.02963174134 -0.1306534857 0.9856809974 -0.0803226009 0.9854200482 -0.08044978231 0.01017266884 -0.1281438172
0.82432 -0.02960393205 -0.1306725889 0.9851202965 -0.0805747807 0.9851353765 -0.08088137209 0.009995991364 -0.1279644817
0.82496 -0.02950244397 -0.1307547092 0.9854496717 -0.08062111586 0.9850414991 -0.08049526811 0.009879710153 -0.1281151175
0.8256 -0.02943260409 -0.1306392252 0.9854135513 -0.08048873395 0.9846394062 -0.08112421632 0.009939527139 -0.1278850883
0.82624 -0.02956747264 -0.1307113767 0.9853515625 -0.08085167408 0.9851055741 -0.08020733297 0.009965443984 -0.1291471571
0.82688 -0.02925866097 -0.1308992505 0.9854640961 -0.08114708215 0.9853972197 -0.08091929555 0.009573498741 -0.1287205666
0.82752 -0.0296805501 -0.131072104 0.9856173396 -0.08099792898 0.9850177169 -0.08071421087 0.01006768178 -0.1283463389
0.82816 -0.02968754992 -0.1311990768 0.9853366613 -0.08142974973 0.9850500822 -0.08035994321 0.009863495827 -0.1284940392
0.8288 -0.02945546247 -0.1311818361 0.9853633046 -0.08097928017 0.9850052595 -0.08097161353 0.009748385288 -0.128875345
0.82944 -0.02949127555 -0.1310185194 0.9854746461 -0.0808737278 0.9849737287 -0.08073442429 0.01019521896 -0.1291237772
0.83008 -0.02987138368 -0.1313823164 0.9854007363 -0.08126345277 0.9856207371 -0.08127909899 0.009623412043 -0.1291381568
0.83072 -0.02945041656 -0.1314605474 0.9850979447 -0.08129980415 0.9850328565 -0.08121741563 0.009823144414 -0.1294125766
0.83136 -0.03006908298 -0.1319082379 0.9851087928 -0.08125210553 0.9849029779 -0.08110605925 0.009930174798 -0.1294450164
0.832 -0.02971159108 -0.13185215 0.9854028225 -0.08144670725 0.9849402905 -0.08168902993 0.00946097821 -0.1293194592
0.83264 -0.03002263978 -0.1317391694 0.9850475192 -0.08161244541 0.9850625396 -0.08096522838 0.009864042513 -0.1294615865
0.83328 -0.03006224148 -0.1317882687 0.9853186607 -0.08130756766 0.9851909876 -0.08129280806 0.009619476274 -0.1296559274
0.83392 -0.02975174412 -0.132139653 0.9848760366 -0.08174288273 0.9848014116 -0.08137721568 0.009695659392 -0.1294544637
0.83456 -0.029878648 -0.1321159452 0.9849211574 -0.08143541217 0.9847743511 -0.08182267845 0.009754538536 -0.1303000152
0.8352 -0.03018098325 -0.1322042048 0.9850438237 -0.08151182532 0.9845854044 -0.08119358867 0.009738226421 -0.1296933144
0.83584 -0.03024175204 -0.1325710714 0.9850780368 -0.08144260943 0.9851307869 -0.08169418573 0.00979063753 -0.1302159578
0.83648 -0.03043656982 -0.1326296926 0.9846146107 -0.0814331919 0.9848529696 -0.08121214062 0.01014471706 -0.1296897978
0.83712 -0.03069638088 -0.13259615 0.9846617579 -0.08173838258 0.9848217964 -0.08155402541 0.00985757634 -0.1300854683
0.83776 -0.03059594147 -0.1326631457 0.9852185249 -0.08182574809 0.9846131802 -0.08180255443 0.01011804864 -0.1305441856
0.8384 -0.03071515448 -0.1325723827 0.9847934246 -0.08206849545 0.9844671488 -0.08203168213 0.009732044302 -0.1302948147
0.83904 -0.03086925671 -0.1329301447 0.9853221774 -0.08205871284 0.9846416116 -0.08173281699 0.01006974373 -0.1303505599
0.83968 -0.03072180599 -0.1327620894 0.9849280119 -0.08223858476 0.984736681 -0.08187780529 0.009961053729 -0.1304853857
0.84032 -0.03098331578 -0.1327202022 0.9850275517 -0.08216126263 0.984266758 -0.08192706853 0.01033006236 -0.1308588982
0.84096 -0.03105409816 -0.1332490742 0.9845962524 -0.08227258921 0.9844561219 -0.08164847642 0.01079888456 -0.1311926246
0.8416 -0.03105487861 -0.1329542249 0.9847097397 -0.08245439827 0.9847280383 -0.0821756646 0.01048845705 -0.1308919638
0.84224 -0.03128828108 -0.1335719228 0.9848586917 -0.08244751394 0.9848224521 -0.08241822571 0.01045146585 -0.1308860183
0.84288 -0.0314408429 -0.1336174309 0.9846404791 -0.08209597319 0.984575808 -0.08239076287 0.01021661237 -0.1309548765
0.84352 -0.03180670366 -0.1334759295 0.9852255583 -0.08242864162 0.9845647812 -0.08217909932 0.01059412491 -0.1312548369
0.84416 -0.03146823123 -0.1334383339 0.9847509861 -0.08213700354 0.9844509959 -0.08225685358 0.01041336637 -0.1314258128
0.8448 -0.03165291995 -0.1341227442 0.9847877622 -0.08259786665 0.9846358895 -0.0820127055 0.01081574243 -0.1311816424
0.84544 -0.03178759664 -0.1336641014 0.9848393798 -0.08284514397 0.9843801856 -0.08201231807 0.01119957492 -0.1312097758
0.84608 -0.03180817887 -0.1339152902 0.9847155213 -0.08260222524 0.9843838215 -0.08177833259 0.010618845 -0.1312224567
0.84672 -0.03197913617 -0.1339443624 0.98466748 -0.08312257379 0.9848179221 -0.08226791769 0.01089706644 -0.131652236
0.84736 -0.03180411085 -0.1341696829 0.9847032428 -0.08284434676 0.9844020009 -0.08277216554 0.01116664987 -0.1316550821
0.848 -0.03197026253 -0.1340050399 0.9850328565 -0.08309477568 0.9846583009 -0.08277378976 0.01100781187 -0.131650731
0.84864 -0.03197281808 -0.1341399997 0.9845178127 -0.08293785155 0.9842285514 -0.08273353428 0.01131966896 -0.1319252998
0.84928 -0.03191287071 -0.1346087307 0.9846228957 -0.08301974088 0.984978199 -0.08276321739 0.01100056432 -0.1317254454
0.84992 -0.03193559125 -0.1344548762 0.9847744703 -0.08293036371 0.9840468168 -0.08317394555 0.01124109607 -0.1320300698
0.85056 -0.03217104822 -0.1343496293 0.9846166968 -0.08310552686 0.9843639135 -0.08263893425 0.01108609512 -0.1325930357
0.8512 -0.03244752809 -0.1347376853 0.9845943451 -0.08315307647 0.9839676023 -0.08309923857 0.01141479891 -0.1318197995
0.85184 -0.03205609694 -0.1349241585 0.9847313166 -0.08353965729 0.9842110872 -0.08309303969 0.01098897122 -0.1318945289
0.85248 -0.03218135983 -0.1349851936 0.9848317504 -0.08338106424 0.9842159748 -0.08309730142 0.01091816369 -0.1320434958
0.85312 -0.03215547651 -0.1349839419 0.984675169 -0.0834274441 0.9843913317 -0.08342441916 0.01117041893 -0.1324211955
0.85376 -0.03205751628 -0.1349640936 0.98487854 -0.08360100538 0.9842222929 -0.08293782175 0.01134413015 -0.1321944743
0.8544 -0.03200088441 -0.1350002587 0.9846599698 -0.08363980055 0.984444201 -0.08326359093 0.01090589445 -0.1327484101
0.85504 -0.0324658528 -0.1353177875 0.9848328829 -0.08358829468 0.9842728972 -0.08379724622 0.01131435949 -0.1329939961
0.85568 -0.03212216869 -0.1353552043 0.9843965769 -0.08354120702 0.9841991663 -0.08329089731 0.01116593368 -0.1331818998
0.85632 -0.03209194914 -0.1355645359 0.9847899079 -0.08396729827 0.9844319224 -0.0838612169 0.01101411786 -0.1331368685
0.85696 -0.03184148669 -0.1353444606 0.9845529199 -0.08387648314 0.9842593074 -0.08355582505 0.0109709464 -0.1328741461
0.8576 -0.03195660189 -0.1354983002 0.9843237996 -0.08375638723 0.984185636 -0.08339765668 0.01098895632 -0.1329866946
0.85824 -0.03186889738 -0.13526766 0.9844589233 -0.08396413177 0.9841428995 -0.08369717002 0.010781914 -0.1328880191
0.85888 -0.03204660863 -0.1358713061 0.9844186306 -0.08401398361 0.9843528867 -0.08343361318 0.01078073122 -0.1328839064
0.85952 -0.03216199204 -0.1359184831 0.984657824 -0.08380383998 0.9842146635 -0.08346138895 0.01086298656 -0.1332039684
0.86016 -0.03191614524 -0.1361120194 0.9843927622 -0.08440361172 0.9843269587 -0.08365793526 0.01078818832 -0.1330818236
0.8608 -0.03198667616 -0.1359886527 0.9842239022 -0.08445804566 0.9837832451 -0.0841724351 0.01041486301 -0.1334982216
0.86144 -0.03214247525 -0.1363195628 0.9843510389 -0.08449481428 0.9838907123 -0.08367826045 0.0109792836 -0.1335369498
0.86208 -0.0322156772 -0.1365463138 0.9847080708 -0.08473228663 0.984192431 -0.08347064257 0.0106135644 -0.1334937215
0.86272 -0.03209215775 -0.1362815648 0.98452878 -0.08458799869 0.9835792184 -0.08397040516 0.01077106595 -0.133454442
0.86336 -0.03211245686 -0.1363619566 0.984224081 -0.08433450013 0.9836701751 -0.08373621851 0.01078018546 -0.1340115964
0.864 -0.0324909091 -0.1368931681 0.9845224023 -0.08449554443 0.9839692712 -0.08425305784 0.01085432339 -0.1340034157
0.86464 -0.03249689192 -0.136775732 0.9844086766 -0.08469260484 0.9836809635 -0.08366051316 0.01060503908 -0.1341472566
0.86528 -0.03248393536 -0.1366068572 0.9842874408 -0.08465162665 0.9833722115 -0.08356264979 0.01083470695 -0.1340532601
0.86592 -0.03289685026 -0.136872232 0.9843092561 -0.08460322767 0.9837805629 -0.08451271802 0.01056180056 -0.1343371719
0.86656 -0.03253598884 -0.1370154023 0.9842376113 -0.08484935015 0.9835732579 -0.08384745568 0.01073679514 -0.1345197856
0.8672 -0.03218025342 -0.1372936517 0.984608233 -0.08495218307 0.9835013151 -0.08409793675 0.01050903089 -0.1346658021
0.86784 -0.03244172782 -0.1371140182 0.9840595126 -0.08501783013 0.9835874438 -0.0843231976 0.01024747174 -0.1346448958
0.86848 -0.0328755118 -0.137365818 0.9846457243 -0.08508037031 0.9841300845 -0.08455221355 0.01088477299 -0.1341026425
0.86912 -0.0326763466 -0.136630401 0.9839960933 -0.0850244984 0.9838138819 -0.08473122865 0.01037916448 -0.1348199248
0.86976 -0.03302550688 -0.1373906434 0.9841915369 -0.08545058221 0.9841043949 -0.08449155092 0.01098155044 -0.1349003613
0.8704 -0.03316811472 -0.1374682486 0.9840897918 -0.08545789123 0.9838832617 -0.08449795097 0.01062973216 -0.1350549012
0.87104 -0.03298055753 -0.1373113841 0.9839580655 -0.08545474708 0.9839363694 -0.08492762595 0.01057698578 -0.1352656335
0.87168 -0.03334512934 -0.1377597749 0.9844154716 -0.08520647883 0.9839058518 -0.08412211388 0.01058707293 -0.1353461742
0.87232 -0.03321937472 -0.1376594007 0.9842662215 -0.08532011509 0.98375386 -0.08406134695 0.01100429799 -0.1350919306
0.87296 -0.03345595673 -0.1376656294 0.9843775034 -0.08560370654 0.9836119413 -0.08442292362 0.01081365068 -0.1351723373
0.8736 -0.03358416259 -0.1375311613 0.9840990901 -0.0856629163 0.9832888842 -0.08455562592 0.01116666477 -0.135486573
0.87424 -0.03337622061 -0.1377320141 0.9839389324 -0.08568260819 0.9835443497 -0.08436439186 0.01142358687 -0.1358650774
0.87488 -0.03372197971 -0.1378354579 0.9838557839 -0.08524994552 0.9836156368 -0.08417917043 0.01151468977 -0.1358355284
0.87552 -0.03388078138 -0.1378330141 0.9841439724 -0.08522170037 0.9837320447 -0.08471937478 0.01149398275 -0.1363957077
0.87616 -0.03424079716 -0.1381816715 0.9840547442 -0.0858726725 0.9842836857 -0.08515707403 0.01111136004 -0.135969162
0.8768 -0.03387403488 -0.1378224045 0.9841954708 -0.08571530879 0.9835886359 -0.08451596648 0.01140477695 -0.1364990473
0.87744 -0.03427184001 -0.1381124258 0.984197855 -0.08604494482 0.9832543731 -0.0845483616 0.01133844629 -0.1360801458
0.87808 -0.03407259285 -0.1381354183 0.9841207862 -0.0858309865 0.9832274318 -0.08448982984 0.01141672116 -0.1364768147
0.87872 -0.0342784375 -0.1382995844 0.9841792583 -0.08577984571 0.9836913347 -0.08406274766 0.01185955014 -0.1364106983
0.87936 -0.03468186036 -0.1384950876 0.9840914607 -0.08588650823 0.9835067987 -0.08451405168 0.01141072437 -0.1368911713
0.88 -0.03440423682 -0.1382678002 0.9841799736 -0.08625409752 0.9832998514 -0.08427800238 0.0115864221 -0.1367019266
0.88064 -0.03453683853 -0.1385299414 0.9842064977 -0.08629624546 0.9837997556 -0.08471403271 0.01146214642 -0.1366973221
0.88128 -0.03479810804 -0.1387693435 0.9844309092 -0.08602079004 0.983758688 -0.08489929885 0.0111752525 -0.1369508505
0.88192 -0.03458529711 -0.1385760903 0.9844026566 -0.08598270267 0.98383075 -0.08519115299 0.01172844414 -0.1374106854
0.88256 -0.03461756185 -0.1386189461 0.98433882 -0.08621585369 0.9837415218 -0.08483936638 0.01144333184 -0.1374622583
0.8832 -0.03470728546 -0.1386613846 0.9837921858 -0.08594105393 0.9838598371 -0.0849179849 0.01182358898 -0.1375359148
0.88384 -0.03461876512 -0.139031738 0.9838963747 -0.08640936762 0.9831901193 -0.08482445031 0.01177178416 -0.1372137964
0.88448 -0.03445257619 -0.1391162425 0.9841386676 -0.08651088923 0.9833208919 -0.08477471024 0.0115118213 -0.1375077665
0.88512 -0.03506149724 -0.1390680522 0.9843888283 -0.08634599298 0.9835032225 -0.08471498638 0.01186081301 -0.13763237
0.88576 -0.03456450626 -0.139070645 0.9840068817 -0.08664879948 0.9838174582 -0.0850776583 0.01201678533 -0.1378129274
0.8864 -0.03479254618 -0.139506489 0.9845308661 -0.08644200861 0.983456552 -0.08524476737 0.01174175926 -0.1375711858
0.88704 -0.03464124352 -0.1396458745 0.9840421081 -0.08627049625 0.9837135673 -0.08509497344 0.01226214785 -0.1376207173
0.88768 -0.03496024013 -0.139951095 0.9842758775 -0.08677315712 0.9833695292 -0.08527195454 0.01157787722 -0.1374782771
0.88832 -0.03493947908 -0.140011251 0.9841578603 -0.08645771444 0.9834036231 -0.08581408858 0.01210837811 -0.1378114671
0.88896 -0.03487014771 -0.1401042342 0.9844790101 -0.08694920689 0.9835631847 -0.08524183929 0.01204608381 -0.1375724524
0.8896 -0.035113547 -0.1403433084 0.984164834 -0.08681166172 0.9834868908 -0.08514649421 0.01196215022 -0.1379628927
0.89024 -0.03510157764 -0.1402680576 0.984207809 -0.08660086989 0.9832118154 -0.0857937187 0.01235631388 -0.1380882561
0.89088 -0.03478201479 -0.1402532458 0.9842934608 -0.08672074229 0.983279109 -0.08581409603 0.01139484998 -0.1380431652
0.89152 -0.03467300534 -0.1409893632 0.9842277169 -0.08698630333 0.9832176566 -0.08548987657 0.01177634485 -0.138053745
0.89216 -0.03477194533 -0.140672043 0.9842256308 -0.08709365129 0.9835954905 -0.08605133742 0.01189566124 -0.1383671761
0.8928 -0.03499192744 -0.1409735978 0.9841036797 -0.0870135501 0.9834882021 -0.08597661555 0.01174307987 -0.1381346285
0.89344 -0.03502868116 -0.1411245614 0.9838455915 -0.08687780797 0.9829844832 -0.08571367711 0.01170858927 -0.1383547336
0.89408 -0.03476627171 -0.1411574483 0.9841887951 -0.08741231263 0.9832137823 -0.0857520774 0.01170047745 -0.1383583248
0.89472 -0.03502199799 -0.1411407739 0.9841560125 -0.08728843927 0.9831143618 -0.08546422422 0.01181301102 -0.1381081641
0.89536 -0.03489939496 -0.1414559633 0.9839637876 -0.08775632083 0.9834128618 -0.08622249216 0.01194786746 -0.1385828704
0.896 -0.03519879654 -0.1415417194 0.9838393927 -0.08721458912 0.983761251 -0.08604871482 0.01144974306 -0.1385823786
0.89664 -0.0348948054 -0.1419879198 0.9840527177 -0.08738724142 0.9834780693 -0.08604232222 0.01121088024 -0.1382575333
0.89728 -0.03516853228 -0.1416850239 0.9838674068 -0.08778423071 0.9833961129 -0.08641220629 0.01142239571 -0.1385048032
0.89792 -0.03539374471 -0.1420707703 0.9841514826 -0.08774200082 0.983461082 -0.08683275431 0.01139086857 -0.1385918409
0.89856 -0.03548432514 -0.1418940872 0.9839487672 -0.08769679815 0.9828276038 -0.08628417552 0.01146502793 -0.1386952996
0.8992 -0.03517716751 -0.1421687007 0.983597219 -0.08772177994 0.9832582474 -0.08671230078 0.01169697661 -0.1387032866
0.89984 -0.03537601605 -0.1422768831 0.9837973714 -0.08765437454 0.9831487536 -0.08609532565 0.01155523583 -0.1384662986
0.90048 -0.03541541845 -0.1423207074 0.983795464 -0.08793679625 0.9831162691 -0.08647346497 0.01183635369 -0.1391090304
0.90112 -0.03573751822 -0.1423860192 0.9839907289 -0.08803553879 0.9838178754 -0.08669451624 0.01178094 -0.13891913
0.90176 -0.0355476886 -0.1422505379 0.9840524197 -0.08776463568 0.9835514426 -0.08653082699 0.0118622398 -0.1393834352
0.9024 -0.03564271331 -0.1424342394 0.9837382436 -0.08818392456 0.9834920168 -0.08684539795 0.01194465347 -0.1393281817
0.90304 -0.03582995012 -0.1424100846 0.9839472771 -0.08819386363 0.9832031727 -0.0871924907 0.01202076022 -0.1392451674
0.90368 -0.03572260216 -0.1429092437 0.9837207198 -0.08779466152 0.9832045436 -0.08661136031 0.01178320497 -0.1394461393
0.90432 -0.03613549471 -0.1423805505 0.9838377237 -0.08845505863 0.9831390381 -0.08726513386 0.01196752861 -0.1394492239
0.90496 -0.03613344952 -0.1424345523 0.9836279154 -0.08813645691 0.9832167029 -0.08740933239 0.01166494563 -0.1399315447
