!Created with skrf (http://scikit-rf.org).
# GHz S RI R 50.0 
!freq ReS11 ImS11 ReS21 ImS21 ReS12 ImS12 ReS22 ImS22
0.8 -0.03620357066 -0.1931150854 0.9665438533 -0.1417408884 0.9661053419 -0.1411229968 -0.01544180606 -0.1868246943
0.80064 -0.03654016927 -0.1932283789 0.9662582278 -0.1418355554 0.9656994343 -0.1416157335 -0.01561602019 -0.1870852858
0.80128 -0.04182161763 -0.1909110248 0.9663612247 -0.1426323801 0.9660151601 -0.1420402229 -0.01006477606 -0.1867466569
0.80192 -0.04187600315 -0.1907002777 0.966167748 -0.1424899101 0.9660068154 -0.1422905624 -0.01007759478 -0.1868128181
0.80256 -0.04169800505 -0.1910218149 0.9660781026 -0.1429695487 0.9659917951 -0.1425906122 -0.01005618181 -0.1870687455
0.8032 -0.04200797155 -0.1910831481 0.9660486579 -0.1428166777 0.9662022591 -0.1425681263 -0.009390880354 -0.1871736795
0.80384 -0.0419343859 -0.1911091506 0.9656882882 -0.1429834813 0.9653755426 -0.1424888372 -0.009987861849 -0.1871505976
0.80448 -0.04219830409 -0.1914889365 0.9661293626 -0.1434633881 0.9649418592 -0.1428617686 -0.009721718729 -0.1871492267
0.80512 -0.04220037162 -0.1919222623 0.9658275247 -0.1431182325 0.9658774734 -0.1431576163 -0.009701260366 -0.1875270754
0.80576 -0.04205719754 -0.1915984601 0.9657827616 -0.1432072371 0.966155827 -0.1429571509 -0.009791205637 -0.187982738
0.8064 -0.04246915132 -0.1921035796 0.9661179781 -0.1432991475 0.9659503698 -0.1432340592 -0.009512773715 -0.1880600303
0.80704 -0.04294666275 -0.1918450594 0.9658364058 -0.1438962072 0.965285778 -0.1437439471 -0.009909703396 -0.1877831668
0.80768 -0.04259787127 -0.1926609725 0.9658079743 -0.1433128715 0.9651972651 -0.1434808224 -0.009624470957 -0.1879080534
0.80832 -0.04295188189 -0.1927446723 0.9655663371 -0.1439498514 0.9660936594 -0.1437453926 -0.009525561705 -0.1878280491
0.80896 -0.042885717 -0.1930789202 0.9659397602 -0.1435202658 0.9657004476 -0.1435543448 -0.009742066264 -0.1881681234
0.8096 -0.04303000122 -0.1929158419 0.9657846689 -0.143682301 0.9655405283 -0.1438335478 -0.009664463811 -0.1885845065
0.81024 -0.04270211607 -0.1930808127 0.9657331705 -0.1435405314 0.9653385282 -0.1437094659 -0.009979413822 -0.1887505054
0.81088 -0.04351846501 -0.1931935549 0.9658432007 -0.1437219977 0.965519309 -0.1443136036 -0.009498664178 -0.1885747761
0.81152 -0.04334397987 -0.1934148222 0.9653859735 -0.1438992471 0.9659087658 -0.1439651698 -0.009436315857 -0.1888479292
0.81216 -0.04331917688 -0.1935460567 0.96572119 -0.1442229003 0.9653444886 -0.1439360678 -0.009375086986 -0.1888750345
0.8128 -0.04344336689 -0.1938973516 0.9654699564 -0.1439463645 0.9657329917 -0.1441365182 -0.01003396604 -0.1891106069
0.81344 -0.04398708045 -0.1939803809 0.9654020667 -0.1442730427 0.9651890397 -0.1443239599 -0.008810866624 -0.1888538152
0.81408 -0.04366739467 -0.1940407157 0.9653980732 -0.1439686269 0.9654293656 -0.1442556828 -0.009469927289 -0.1894193292
0.81472 -0.043645069 -0.193925038 0.9651193023 -0.1442847997 0.9650683999 -0.1443733275 -0.009386781603 -0.189392671
0.81536 -0.04393311217 -0.1938332617 0.9651697874 -0.1442064792 0.9647901654 -0.1448824257 -0.009733695537 -0.1894793361
0.816 -0.04409719259 -0.1939408779 0.9652784467 -0.1445124894 0.964646399 -0.1445937306 -0.009659307078 -0.1896928698
0.81664 -0.04386077821 -0.1943541914 0.9653375745 -0.1446373612 0.965094924 -0.1444044411 -0.009769111872 -0.1896323264
0.81728 -0.04424633086 -0.1944103241 0.965292871 -0.1446273029 0.9650580287 -0.1446453631 -0.009497152641 -0.1901367307
0.81792 -0.04403481632 -0.194253251 0.965292871 -0.1446872503 0.9650928378 -0.1449558139 -0.00935376808 -0.1899214089
0.81856 -0.04376825318 -0.1943848133 0.9650601745 -0.1445583254 0.9649482369 -0.1449319869 -0.01008217502 -0.1903473139
0.8192 -0.04390026629 -0.1944369972 0.9646932483 -0.1446884722 0.9649848938 -0.1448766589 -0.009770284407 -0.1903046966
0.81984 -0.04409646988 -0.1948921978 0.9648792148 -0.1451821774 0.9650563598 -0.145340234 -0.009594500996 -0.1902933866
0.82048 -0.04397565126 -0.194635272 0.9651222825 -0.1450847387 0.9651420712 -0.1449542493 -0.0100062564 -0.1910722256
0.82112 -0.04379279912 -0.1949611604 0.9648526311 -0.1448996365 0.9645614624 -0.1448840499 -0.01029819716 -0.1909559816
0.82176 -0.04387017712 -0.1949726641 0.9648142457 -0.145413965 0.9647476077 -0.1451746821 -0.00989636872 -0.1908210218
0.8224 -0.04395953566 -0.1951656044 0.9651001692 -0.1453828663 0.9648519158 -0.1450520456 -0.0102898404 -0.190853402
0.82304 -0.04379180819 -0.195015654 0.9645537138 -0.1454869807 0.964030087 -0.1454018056 -0.01035146415 -0.1913078129
0.82368 -0.04410376027 -0.1953047365 0.9647769332 -0.1453404278 0.9648253322 -0.1454262286 -0.01024231035 -0.1917266697
0.82432 -0.04404912144 -0.195521459 0.9644555449 -0.1457819492 0.9642356038 -0.1454679221 -0.01033647731 -0.1914592683
0.82496 -0.04400652274 -0.1956398338 0.9644992948 -0.1458758116 0.9642532468 -0.1456522644 -0.01063521393 -0.1914915293
0.8256 -0.04407992586 -0.1955243498 0.9645762444 -0.1459015161 0.9640891552 -0.1461386085 -0.01063655317 -0.191674307
0.82624 -0.04412677139 -0.1954506189 0.964212656 -0.1457379162 0.9646120071 -0.1455100328 -0.0106017068 -0.1924339384
0.82688 -0.04389838129 -0.1959219724 0.9644632339 -0.1462513357 0.9641866684 -0.1456335038 -0.01096351352 -0.1922396868
0.82752 -0.04423831403 -0.1959060282 0.9645187855 -0.1460436583 0.9642618299 -0.1461341828 -0.01049650367 -0.192192778
0.82816 -0.0443319343 -0.1961986721 0.9641025662 -0.1466945261 0.9642770886 -0.1462541372 -0.01067975257 -0.1919998229
0.8288 -0.04406092316 -0.1961518377 0.9641000628 -0.1465387642 0.9645575881 -0.1464800686 -0.01085585821 -0.1926520616
0.82944 -0.04404857382 -0.1961363554 0.964151144 -0.1463046968 0.9638053179 -0.1460918784 -0.01048532873 -0.1929977685
0.83008 -0.04433586448 -0.1965003163 0.9642089605 -0.1468049437 0.9641984105 -0.1466741711 -0.01090341527 -0.193040356
0.83072 -0.04426101223 -0.1966179758 0.9639815688 -0.1468798071 0.9639567733 -0.146691516 -0.01082690712 -0.19315736
0.83136 -0.04478992522 -0.1970776618 0.9639928341 -0.1466145068 0.9638339281 -0.1459190995 -0.01056183875 -0.1931653768
0.832 -0.04453760386 -0.1971238405 0.9642279148 -0.1471494883 0.9639045596 -0.1473171264 -0.0113154361 -0.1929999292
0.83264 -0.04481207207 -0.1971018314 0.9639117718 -0.147133112 0.9636536241 -0.1469572484 -0.01088793762 -0.193362996
0.83328 -0.04478917271 -0.1971087456 0.964155674 -0.1471379697 0.9641379714 -0.1470354497 -0.01110090408 -0.1936020255
0.83392 -0.04457136616 -0.1974378228 0.9637258649 -0.1473238468 0.9634925723 -0.1469414234 -0.01096400339 -0.1935831606
0.83456 -0.04483071342 -0.1974664778 0.9634523392 -0.1471450329 0.9634330273 -0.1472346038 -0.01114515867 -0.1941840053
0.8352 -0.04504941776 -0.1976916045 0.9639018774 -0.1476420313 0.9635825753 -0.146927163 -0.01109611616 -0.1937859505
0.83584 -0.04526391253 -0.1979015172 0.9638229609 -0.1474633068 0.9635855556 -0.1471960545 -0.01103498135 -0.194090873
0.83648 -0.04542232677 -0.1981656551 0.9634168148 -0.1473769248 0.9634180665 -0.1473001838 -0.0107580414 -0.1939270496
0.83712 -0.04565085471 -0.1981887072 0.9637382627 -0.1477416158 0.9633356929 -0.1476915032 -0.01104276162 -0.1940871179
0.83776 -0.04558002204 -0.1982522756 0.9634735584 -0.147469759 0.9633307457 -0.1473750323 -0.01061035879 -0.1946817636
0.8384 -0.04558528215 -0.1981999129 0.9637205005 -0.1479816586 0.9633465409 -0.148028478 -0.01126157772 -0.1947726607
0.83904 -0.04583293572 -0.1986586452 0.9634763002 -0.1482450962 0.9635291696 -0.1477113962 -0.01071778685 -0.1947520226
0.83968 -0.04580916092 -0.1983854622 0.9632927179 -0.1479954571 0.9631170034 -0.1477650851 -0.01115677785 -0.194560498
0.84032 -0.04587093741 -0.1983554959 0.9633294344 -0.1483402699 0.9632860422 -0.147638768 -0.01080961619 -0.1951824278
0.84096 -0.04616805539 -0.199020192 0.9632030129 -0.1480380595 0.9630984068 -0.1476963758 -0.01053450257 -0.1953575015
0.8416 -0.04618204013 -0.1987154484 0.963146925 -0.1486998051 0.9634526372 -0.1485302746 -0.01074294839 -0.1955544055
0.84224 -0.04649252817 -0.1994209737 0.9635906219 -0.1485251039 0.9638571739 -0.1485379487 -0.01077234093 -0.1955598146
0.84288 -0.04659694433 -0.199397698 0.9635276198 -0.1485699117 0.9630180597 -0.1487758905 -0.01113068964 -0.1954848766
0.84352 -0.04703414068 -0.1992948055 0.9635218382 -0.1485051364 0.962636888 -0.1484495699 -0.01068672631 -0.1957663596
0.84416 -0.04664837569 -0.1994325072 0.9630935788 -0.1485102624 0.9630774856 -0.1482123435 -0.01064478327 -0.1959979981
0.8448 -0.04690601677 -0.1998664141 0.9628146291 -0.1490088403 0.9628871679 -0.1487838179 -0.01061434578 -0.1960543096
0.84544 -0.04674665257 -0.1995385438 0.9632033706 -0.1492343694 0.9627835751 -0.148606658 -0.01014458295 -0.195829466
0.84608 -0.04692799971 -0.199936837 0.9631174803 -0.1492335498 0.9630531073 -0.1480130553 -0.0106311962 -0.1960104406
0.84672 -0.04726915434 -0.1999405622 0.9632583857 -0.1495231092 0.9628384113 -0.1486245394 -0.01046471391 -0.1963014454
0.84736 -0.04701200873 -0.2002715617 0.9629690051 -0.1490278989 0.9625429511 -0.1491392255 -0.01016559172 -0.196474582
0.848 -0.04716467112 -0.2001973987 0.9633637667 -0.1492547989 0.9626646042 -0.1493294388 -0.0106051201 -0.1965654641
0.84864 -0.0473460108 -0.20033364 0.9629682302 -0.1496170163 0.9626274705 -0.1494249403 -0.01014423091 -0.1967848539
0.84928 -0.04709571227 -0.2007889897 0.9628109932 -0.1495824456 0.9630516768 -0.1493826509 -0.0105183553 -0.1966808736
0.84992 -0.04738555104 -0.2006720901 0.9628254771 -0.1497735828 0.9625921249 -0.149390772 -0.01034604758 -0.1971127689
0.85056 -0.04732813686 -0.2007024437 0.96291852 -0.1496319473 0.9623428583 -0.1496901661 -0.01058271714 -0.1975442767
0.8512 -0.04770215973 -0.2009589374 0.9626706839 -0.1498744339 0.961779058 -0.1495766342 -0.01039635669 -0.1968846768
0.85184 -0.0474438183 -0.201333195 0.9625405669 -0.1503183991 0.9622212052 -0.1497890502 -0.01080711372 -0.1968994737
0.85248 -0.04752579331 -0.2015279233 0.9628924727 -0.1501387954 0.9626097083 -0.1500702053 -0.01077805087 -0.1971723586
0.85312 -0.047502812 -0.2014561743 0.9627568126 -0.149900645 0.9622327685 -0.1499019563 -0.01062398963 -0.1973243505
0.85376 -0.04742188007 -0.2015744746 0.9627522826 -0.1504404396 0.9625804424 -0.1495744437 -0.01045398228 -0.1974712014
0.8544 -0.04748023301 -0.2014751136 0.9625478387 -0.1504996121 0.962454617 -0.1496320218 -0.01096689794 -0.1979047507
0.85504 -0.04801472276 -0.2017956078 0.9625929594 -0.1508129835 0.9618381262 -0.1503418684 -0.01084843185 -0.1981020421
0.85568 -0.04766306281 -0.2019696236 0.9624862671 -0.1504346281 0.9623450637 -0.1502432525 -0.01060432848 -0.1983699054
0.85632 -0.04773636535 -0.2021842748 0.9629701972 -0.1506578326 0.9622641802 -0.1505117118 -0.01082315762 -0.1982820183
0.85696 -0.04722727463 -0.2020283341 0.9621385336 -0.1507984251 0.9619947672 -0.1505162716 -0.01090507675 -0.1981742531
0.8576 -0.04747372121 -0.2023642212 0.9624783397 -0.1510293335 0.9614910483 -0.1502382606 -0.01107067429 -0.1983405352
0.85824 -0.04742342979 -0.2020973563 0.9624261856 -0.1510704607 0.9617989659 -0.1507216692 -0.01117414609 -0.1983489394
0.85888 -0.04757201672 -0.2025448382 0.9619156122 -0.151177451 0.9621906281 -0.1506531388 -0.01120325457 -0.1984871328
0.85952 -0.04774073139 -0.2025839686 0.9620902538 -0.1510898471 0.9618774056 -0.1508511156 -0.01112901233 -0.1987759173
0.86016 -0.04772100598 -0.2031019032 0.9622252584 -0.1517432183 0.9616702795 -0.1505500525 -0.01121935248 -0.1986814737
0.8608 -0.04770585895 -0.2029756904 0.9619975686 -0.1516869068 0.9613053799 -0.1511007547 -0.01150200516 -0.1990866065
0.86144 -0.04784836993 -0.203153491 0.961846292 -0.1517845094 0.9616376162 -0.1509226114 -0.01125692017 -0.1990653723
0.86208 -0.04802554101 -0.2034783512 0.9621509314 -0.1519680619 0.9618926644 -0.151140213 -0.01162001118 -0.1992188692
0.86272 -0.04776581377 -0.2033004463 0.9619992375 -0.1521158665 0.9611842632 -0.1513251066 -0.01142910682 -0.1992035806
0.86336 -0.04795952886 -0.203369081 0.9615343213 -0.1516763717 0.9611219764 -0.1507634372 -0.01132905856 -0.1996938288
0.864 -0.04824573174 -0.2039726228 0.961789906 -0.1521341801 0.961403966 -0.1515893489 -0.01131316368 -0.1998502016
0.86464 -0.04821114242 -0.2040015012 0.9620902538 -0.1518509835 0.9612890482 -0.151147455 -0.01168363448 -0.2000094354
0.86528 -0.04814516008 -0.2039140761 0.9617184401 -0.1522678882 0.9615181684 -0.1513330638 -0.01149396971 -0.1997078657
0.86592 -0.04875451699 -0.2040234506 0.9616805315 -0.1522191912 0.9612025023 -0.1520538479 -0.01180554647 -0.2001383305
0.86656 -0.04846584052 -0.2041742802 0.9615263343 -0.1523588896 0.960373044 -0.1518122852 -0.01160437055 -0.2004487962
0.8672 -0.0484881103 -0.2045212984 0.9616443515 -0.1526146531 0.9610137939 -0.151350081 -0.01173002459 -0.2004787624
0.86784 -0.04851913825 -0.2044796646 0.9613580108 -0.1530995369 0.9611175656 -0.1515990496 -0.01209917571 -0.2006714195
0.86848 -0.04891968518 -0.2046748549 0.9615565538 -0.1526757628 0.9612731934 -0.1522428393 -0.01144298445 -0.2001625001
0.86912 -0.04865247756 -0.2041637897 0.9614211917 -0.1529455632 0.9613816142 -0.1524246037 -0.01207675971 -0.2007845789
0.86976 -0.04912922904 -0.2046951801 0.9613588452 -0.1531334966 0.96153301 -0.1521350741 -0.01166056469 -0.2010864615
0.8704 -0.04933032021 -0.2049676627 0.9613376856 -0.1533916593 0.9614042044 -0.1522818208 -0.0116898315 -0.2011669278
0.87104 -0.04905153438 -0.2048186809 0.9612493515 -0.153351739 0.9610544443 -0.1524665803 -0.01193610765 -0.2015665025
0.87168 -0.04939003661 -0.2051594704 0.9612189531 -0.1532851011 0.961083889 -0.1523924023 -0.01191150118 -0.2014835626
0.87232 -0.04932674393 -0.2054939568 0.9612037539 -0.1531252116 0.9613752961 -0.1521299034 -0.01163524855 -0.2015915662
0.87296 -0.04970232025 -0.2052014172 0.961404264 -0.1535963118 0.9606449604 -0.1524053812 -0.0118045276 -0.2014981061
0.8736 -0.04988077283 -0.2050720602 0.9609600902 -0.1540648043 0.9608024359 -0.1528832763 -0.01179253682 -0.2020311058
0.87424 -0.04966284707 -0.205370307 0.9609097838 -0.1535119563 0.9608519673 -0.1525788456 -0.01129895449 -0.2022196949
0.87488 -0.0500234738 -0.2054170519 0.9608324766 -0.1536120027 0.9609494209 -0.1524007171 -0.01107345801 -0.2024043053
0.87552 -0.05021695793 -0.2056885511 0.9611085057 -0.1536757797 0.9610700607 -0.1530115008 -0.01143347193 -0.2029361576
0.87616 -0.05059897155 -0.2059433907 0.9610350132 -0.1540679038 0.9612793922 -0.1528336257 -0.0113788303 -0.2026045173
0.8768 -0.05020694062 -0.2057297081 0.9611597061 -0.1541789323 0.960750699 -0.1527188122 -0.01145671587 -0.20305641
0.87744 -0.05049845949 -0.2059736848 0.9609100223 -0.1540569067 0.9605209231 -0.1528715938 -0.0115100462 -0.2026190311
0.87808 -0.05054736882 -0.2061003149 0.9610085487 -0.1540232003 0.9601486325 -0.1528520286 -0.01136058755 -0.2030696422
0.87872 -0.05058418959 -0.2062135637 0.9611347914 -0.1542326808 0.9604967833 -0.1524221897 -0.01121880952 -0.2028898746
0.87936 -0.05106493086 -0.2064469308 0.9608725309 -0.1542890668 0.9604725838 -0.1530955881 -0.01153727993 -0.2034484297
0.88 -0.05082107708 -0.206239894 0.9611192942 -0.1544088721 0.9606711864 -0.1530921012 -0.01173324138 -0.2035287917
0.88064 -0.05092450976 -0.2066858709 0.9609228969 -0.1548298597 0.9607857466 -0.1530708522 -0.01137746684 -0.2036293149
0.88128 -0.05121473223 -0.2067976147 0.9609842896 -0.1547926366 0.9608255625 -0.1533021927 -0.01189916115 -0.2038289011
0.88192 -0.05097509921 -0.2066623718 0.9609382749 -0.1548268348 0.96030581 -0.1533384472 -0.01134988945 -0.2041222453
0.88256 -0.05102736503 -0.2067836523 0.9612603784 -0.154896453 0.9608049989 -0.1533458382 -0.01175126992 -0.2044306695
0.8832 -0.05113980547 -0.2068111449 0.9605789781 -0.1549163014 0.9602543116 -0.1537047178 -0.01130632497 -0.2042980641
0.88384 -0.05119404942 -0.2072161436 0.9608274102 -0.1550094783 0.9600339532 -0.1535754353 -0.01146677509 -0.2042488605
0.88448 -0.05093322694 -0.2075115144 0.9609661102 -0.1549984217 0.9600946307 -0.1531383693 -0.01149448752 -0.2044233531
0.88512 -0.05137097836 -0.2074992657 0.9608501196 -0.1552226096 0.9602138996 -0.1533779204 -0.01122867968 -0.2045743465
0.88576 -0.0510596931 -0.2075731456 0.9604677558 -0.1552356333 0.9602065682 -0.1533879489 -0.01125287917 -0.2047072798
0.8864 -0.05129065737 -0.207842648 0.961135447 -0.1554715186 0.9603053331 -0.1543823183 -0.01167022809 -0.2048377842
0.88704 -0.05127033964 -0.2082422227 0.9606931806 -0.1551398337 0.9601274729 -0.153973788 -0.01114415005 -0.2048513591
0.88768 -0.05149884522 -0.2084153742 0.9607670903 -0.155785203 0.9602770209 -0.1540004462 -0.01182568818 -0.2048340738
0.88832 -0.05152919888 -0.2083999515 0.9604498744 -0.1554241776 0.9603875279 -0.1540289372 -0.01133580599 -0.2049750388
0.88896 -0.05143279955 -0.2087020129 0.9606932402 -0.1560376734 0.9599585533 -0.1547935158 -0.01146447007 -0.2048959583
0.8896 -0.0518415086 -0.2089786679 0.9606266618 -0.1558800191 0.9602226615 -0.1538764685 -0.01134789176 -0.2052129358
0.89024 -0.05165049434 -0.2089046985 0.9606095552 -0.1558126211 0.9596301317 -0.1542155445 -0.01109845657 -0.2053806782
0.89088 -0.05144458637 -0.2090183944 0.9606023431 -0.1558829695 0.9601759315 -0.1547936797 -0.01183229033 -0.2053530812
0.89152 -0.05144355074 -0.2097417861 0.9605843425 -0.1562918276 0.9599409103 -0.1545576453 -0.01185897551 -0.2053874582
0.89216 -0.05156271905 -0.2095035017 0.9603076577 -0.1561247408 0.9597092867 -0.1550951898 -0.01189168356 -0.2057557106
0.8928 -0.05179775879 -0.2097791284 0.9604066014 -0.1562409103 0.9596660137 -0.1550573111 -0.01178281661 -0.2056751251
0.89344 -0.05172178149 -0.2100209445 0.9601380229 -0.1563068777 0.9596313834 -0.1551153064 -0.0120014865 -0.2057429999
0.89408 -0.05155613646 -0.2101976871 0.9603201747 -0.1567935348 0.9596571326 -0.1551617235 -0.01194235776 -0.2058168948
0.89472 -0.05187695101 -0.2100278288 0.9601987004 -0.1565002948 0.95937711 -0.1550709456 -0.01173018478 -0.2056481391
0.89536 -0.05164964125 -0.2103916705 0.9599349499 -0.1569809616 0.9599142075 -0.1557929516 -0.01175377425 -0.2061239183
0.896 -0.05202887207 -0.2105059475 0.9603002667 -0.1568390876 0.9598985314 -0.1556093544 -0.01216063555 -0.2062398493
0.89664 -0.0519487299 -0.2110255957 0.9600245357 -0.1569816619 0.9596534371 -0.1555914283 -0.01235168241 -0.2057247311
0.89728 -0.05207296833 -0.2107871324 0.960080266 -0.1571216434 0.959438622 -0.1557235718 -0.01232723147 -0.205912292
0.89792 -0.05231687054 -0.2111552656 0.9598562121 -0.1572645605 0.9594106078 -0.1563515663 -0.01220070757 -0.2063855827
0.89856 -0.05233101174 -0.2110316008 0.9597541094 -0.1572110951 0.9595656991 -0.155869022 -0.01230153535 -0.2063678056
0.8992 -0.05226436257 -0.2114227563 0.959445715 -0.1572406143 0.9595162272 -0.1560919881 -0.01225515641 -0.2066507488
0.89984 -0.05246952549 -0.2115799934 0.9598088264 -0.1573320329 0.9596015215 -0.1561458409 -0.01227490138 -0.2063969076
0.90048 -0.05253559723 -0.2115636915 0.9595215321 -0.1575121284 0.9589768052 -0.1560326368 -0.01208962873 -0.2070241272
0.90112 -0.05283819884 -0.2115717679 0.9595563412 -0.1577791274 0.9596652389 -0.1562789083 -0.01228525303 -0.2069530487
0.90176 -0.05281336978 -0.2116513401 0.9598439336 -0.1577146351 0.9595358372 -0.1565454751 -0.01207945403 -0.2074556351
0.9024 -0.05293848366 -0.2117540985 0.9591798186 -0.158017993 0.9594992399 -0.1570957154 -0.01201810688 -0.2073220313
0.90304 -0.05312168598 -0.2117788196 0.9595736861 -0.1581520587 0.9596831799 -0.1572779119 -0.01215729024 -0.2072580904
0.90368 -0.05288146064 -0.2121607959 0.9594388604 -0.1577512473 0.9592754841 -0.1568629146 -0.01223554648 -0.2075167596
0.90432 -0.05335346237 -0.2117767036 0.9593707919 -0.1584067941 0.9592783451 -0.1569322646 -0.01215599198 -0.2078359872
0.90496 -0.05330988392 -0.211801827 0.9590729475 -0.1581527293 0.9590553045 -0.1573047191 -0.01254942734 -0.20800367
0.9056 -0.05324571207 -0.2120626271 0.9590614438 -0.1587060243 0.9592314363 -0.1570473313 -0.01267333981 -0.2083473206
