!Created with skrf (http://scikit-rf.org).
# GHz S RI R 50.0 
!freq ReS11 ImS11 ReS21 ImS21 ReS12 ImS12 ReS22 ImS22
0.8 0.02808574215 -0.06417125463 0.988747716 -0.009501106106 0.9888826609 -0.009231315926 -0.01294960082 -0.04963639379
0.80064 0.02781292424 -0.06422355026 0.9887209535 -0.008699713275 0.9885940552 -0.009023658931 -0.01301970799 -0.04991528764
0.80128 0.02228671685 -0.06228418276 0.9887472391 -0.009407417849 0.9891203642 -0.009098687209 -0.007389953826 -0.04835851863
0.80192 0.02223440446 -0.06213139743 0.9886021614 -0.009231572971 0.988483429 -0.009074928239 -0.007332830224 -0.04824702814
0.80256 0.02265268005 -0.06234123185 0.989017725 -0.008977416903 0.9889926314 -0.009379162453 -0.007244542707 -0.04824997485
0.8032 0.02244712971 -0.06225252897 0.9882982373 -0.009481565095 0.988908112 -0.009177416563 -0.006752942689 -0.04815817997
0.80384 0.02248635516 -0.0622642599 0.9887239933 -0.009479450993 0.9885413647 -0.009016624652 -0.007215685211 -0.04823864624
0.80448 0.02227297239 -0.06243547797 0.9888733029 -0.009508764371 0.987957418 -0.009627166204 -0.007118233945 -0.04831681401
0.80512 0.02261766791 -0.06279590726 0.9887716174 -0.009518666193 0.9889246225 -0.009750989266 -0.007098221686 -0.04819946364
0.80576 0.02257051878 -0.06239949539 0.9884508848 -0.00953053683 0.9888262153 -0.00936404895 -0.007076635957 -0.04861286655
0.8064 0.02235056087 -0.06291074306 0.9886653423 -0.009171270765 0.9887214303 -0.009134242311 -0.007112301886 -0.04854734614
0.80704 0.02203321271 -0.06254422665 0.9885883331 -0.009563445114 0.9882162213 -0.009882987477 -0.007159243803 -0.04845103994
0.80768 0.02272411808 -0.06328712404 0.9883465171 -0.009280107915 0.9883003235 -0.009173995815 -0.007069704589 -0.048228845
0.80832 0.0222785566 -0.06339066476 0.9885556102 -0.009494390339 0.9889886379 -0.009641268291 -0.00745236082 -0.04813111201
0.80896 0.02250577323 -0.06339303404 0.9887654185 -0.009092972614 0.9889266491 -0.009044143371 -0.007235961966 -0.04847268388
0.8096 0.02235243097 -0.06320478022 0.9884446859 -0.009122135118 0.9889190793 -0.009348738007 -0.007064410951 -0.04888023436
0.81024 0.02279476076 -0.06323903799 0.9888137579 -0.00916478876 0.9886481166 -0.009287659079 -0.00747255655 -0.04888579994
0.81088 0.02192744799 -0.06359077245 0.9886823893 -0.009273174219 0.9890598655 -0.009941313416 -0.006850571372 -0.04832063615
0.81152 0.02234899625 -0.06354472041 0.9884638786 -0.00928775873 0.9888733029 -0.009326922707 -0.007117183879 -0.04848925769
0.81216 0.02228678763 -0.0636330694 0.9888854027 -0.009477777407 0.9883964658 -0.009600875899 -0.006932772696 -0.04866340756
0.8128 0.02240608446 -0.06370440871 0.9885553718 -0.009225651622 0.9883626103 -0.009151535109 -0.00760158943 -0.04862314463
0.81344 0.02204412408 -0.06401492655 0.9885625839 -0.009565046057 0.9887640476 -0.008958153427 -0.006423804909 -0.04824396968
0.81408 0.02216634527 -0.06406775862 0.9888957143 -0.009336806834 0.9888135195 -0.009585984051 -0.007013933267 -0.04869124666
0.81472 0.02229340561 -0.06384079158 0.9887541533 -0.009394272231 0.9886092544 -0.009453915991 -0.006956566125 -0.04883529618
0.81536 0.02232571691 -0.06379231811 0.9885466099 -0.009397304617 0.9885895252 -0.009535433725 -0.00710966764 -0.04873558134
0.816 0.02207130566 -0.06382930279 0.9884635806 -0.009060103446 0.9885300994 -0.009053052403 -0.007220813539 -0.04872022197
0.81664 0.0224036295 -0.0638281703 0.9886780977 -0.00943745859 0.988627553 -0.009351465851 -0.007333885413 -0.04883665219
0.81728 0.02209591493 -0.06408761442 0.9885593057 -0.009285062551 0.9887020588 -0.009323816746 -0.006815823726 -0.0490918085
0.81792 0.02216928639 -0.06399145722 0.98869133 -0.009372727014 0.9884818792 -0.009905852377 -0.006725434214 -0.04848755896
0.81856 0.02248369157 -0.06373792887 0.9883336425 -0.009187299758 0.9887675643 -0.009506437927 -0.007627760991 -0.04928351194
0.8192 0.02250113711 -0.0639320761 0.9883282185 -0.008900647983 0.9888039231 -0.00971491728 -0.007357999682 -0.04904466495
0.81984 0.02249707468 -0.06407281011 0.9886438847 -0.009397520684 0.9885369539 -0.01015583891 -0.007191149052 -0.0488618277
0.82048 0.02262012847 -0.0639129132 0.9885092378 -0.00930986274 0.9881994724 -0.009503539652 -0.00749952998 -0.04971874878
0.82112 0.02262984589 -0.0640809238 0.9881083369 -0.008892909624 0.9883957505 -0.008490202948 -0.007645557635 -0.04936398566
0.82176 0.02297428995 -0.0640983358 0.988132596 -0.009284103289 0.9886240959 -0.009209969081 -0.007277101744 -0.04912216216
0.8224 0.02267858572 -0.06401222944 0.988548398 -0.00903483294 0.9889540076 -0.008982662112 -0.008190720342 -0.04899790138
0.82304 0.02291787788 -0.06403187662 0.9885433912 -0.009051601402 0.9883739352 -0.009316128679 -0.007770359982 -0.04941600934
0.82368 0.02269407362 -0.06426975131 0.9887886047 -0.009041199461 0.9887128472 -0.008829532191 -0.007717699744 -0.04961708188
0.82432 0.02297972329 -0.0642702654 0.9879521728 -0.009176714346 0.9880311489 -0.009332335554 -0.00789181143 -0.04958463833
0.82496 0.02307733335 -0.06428856403 0.9883309603 -0.009261477739 0.9883872271 -0.009241839871 -0.007970572449 -0.04956446588
0.8256 0.02308143489 -0.06405204535 0.9882616401 -0.008946446702 0.9884108901 -0.0090564657 -0.008082369342 -0.04939924553
0.82624 0.02306202613 -0.06427391618 0.988043189 -0.009120891802 0.9882970452 -0.008857211098 -0.007818269543 -0.05032182857
0.82688 0.0234234482 -0.06436229497 0.9881495237 -0.009292349219 0.9885820746 -0.009344883263 -0.00820218958 -0.04976917058
0.82752 0.02317914367 -0.06432527304 0.9883682728 -0.009005220607 0.9884473085 -0.009199937806 -0.00802259706 -0.04956188798
0.82816 0.02326526865 -0.06434195489 0.9882978201 -0.00949908793 0.9886757731 -0.009056523442 -0.008316713385 -0.04960744828
0.8288 0.02353390306 -0.06441301107 0.9882839322 -0.009194917977 0.9881830215 -0.009069726802 -0.008285253309 -0.04996236414
0.82944 0.02346992493 -0.06422428787 0.988273263 -0.008906988427 0.9884688258 -0.008985681459 -0.007816867903 -0.05042192712
0.83008 0.02330156229 -0.06467321515 0.9884527326 -0.009437261149 0.9882509112 -0.009077409282 -0.008351591416 -0.05018016323
0.83072 0.02368440665 -0.06463861465 0.9881948829 -0.009221525863 0.9888503551 -0.009330623783 -0.008354077116 -0.05030192435
0.83136 0.02321795188 -0.06512848288 0.9881453514 -0.009312622249 0.9883138537 -0.008748148568 -0.008138515055 -0.05028543994
0.832 0.02358824201 -0.06489584595 0.9886128902 -0.009560231119 0.9885892868 -0.00960153807 -0.008730378002 -0.05011635646
0.83264 0.02325891703 -0.06476115435 0.9882142544 -0.009515647776 0.9884783626 -0.009034809656 -0.008383993991 -0.0502797924
0.83328 0.02336880937 -0.06486276537 0.9884076715 -0.009243528359 0.9881572127 -0.009507275186 -0.008569516242 -0.05021964014
0.83392 0.02385322191 -0.06510949135 0.9881691933 -0.009435231797 0.9881486893 -0.009349490516 -0.008549660444 -0.05020582303
0.83456 0.02365510724 -0.06509709358 0.9879155755 -0.009271185845 0.9879620075 -0.009635800496 -0.008580570109 -0.05089904368
0.8352 0.02368189581 -0.06519045681 0.9884297848 -0.009409159422 0.9881381392 -0.009357195348 -0.0086429324 -0.05009703338
0.83584 0.02362227999 -0.06550008059 0.9882112741 -0.009169553407 0.988158226 -0.00932688266 -0.008519971743 -0.0506609343
0.83648 0.02337929793 -0.06549978256 0.9879444838 -0.009061594494 0.9882608652 -0.00892751012 -0.008405921981 -0.05030803755
0.83712 0.02338149026 -0.06550808996 0.9882866144 -0.009503230453 0.9884226918 -0.009405089542 -0.008739907295 -0.05048159882
0.83776 0.02331213653 -0.06543720514 0.9882632494 -0.009080378339 0.9881229997 -0.009209667332 -0.008477383293 -0.05092648417
0.8384 0.02339316346 -0.0652115047 0.9882624745 -0.009083905257 0.9881453514 -0.009480130859 -0.008834042586 -0.05061925575
0.83904 0.02336608805 -0.06552887708 0.9883577824 -0.009218668565 0.988085866 -0.009599938057 -0.008559346199 -0.05057577789
0.83968 0.02349376678 -0.06528373808 0.988263309 -0.009289439768 0.9883614182 -0.009119317867 -0.008598263375 -0.05054765567
0.84032 0.02340508811 -0.06530812383 0.988471806 -0.009380497038 0.9881691337 -0.00937585067 -0.008468238637 -0.05101331323
0.84096 0.02331685461 -0.06588932127 0.9880395532 -0.009370191023 0.9880647659 -0.008935846388 -0.007853684016 -0.05105912313
0.8416 0.02343265153 -0.06545187533 0.9879999757 -0.009535672143 0.9884434938 -0.009094285779 -0.008051469922 -0.05089998245
0.84224 0.02336775325 -0.06609746069 0.9880390167 -0.009377404116 0.9885227084 -0.009605788626 -0.008337539621 -0.05085593462
0.84288 0.02327253856 -0.06609541178 0.988016963 -0.009331533685 0.988375783 -0.009291453287 -0.008637613617 -0.05085033551
0.84352 0.02281787433 -0.06604909152 0.9883318543 -0.009469577111 0.9880297184 -0.009165015072 -0.008396264166 -0.05108067021
0.84416 0.02331604064 -0.06583827734 0.9882735014 -0.008974439465 0.9878310561 -0.009420673363 -0.008488675579 -0.05109606311
0.8448 0.02323761024 -0.0661996156 0.9882025719 -0.009541693144 0.9876047373 -0.009314035065 -0.00842456799 -0.051047232
0.84544 0.02323797531 -0.0660059005 0.9887319207 -0.009635990486 0.988183558 -0.009014326148 -0.007805820554 -0.05079391599
0.84608 0.02335455641 -0.06621176749 0.9882635474 -0.00927478075 0.988097012 -0.008478939533 -0.008492892608 -0.05083509162
0.84672 0.02305839024 -0.06623777747 0.988462925 -0.009778263047 0.9884842038 -0.009192759171 -0.008256026544 -0.05121151358
0.84736 0.02346072905 -0.06643541157 0.9882344007 -0.009189840406 0.9878244996 -0.00941875577 -0.008007385768 -0.05110999197
0.848 0.02334776334 -0.06610801816 0.9884662628 -0.009377405979 0.9883434772 -0.009407472797 -0.008410726674 -0.05110216141
0.84864 0.02326596901 -0.06629644334 0.9883756042 -0.009128782898 0.9882229567 -0.009631878696 -0.007981291972 -0.05122661218
0.84928 0.02355555072 -0.066641666 0.9883367419 -0.009344289079 0.9884792566 -0.009151491337 -0.008523078635 -0.05114513263
0.84992 0.02329608239 -0.06653744727 0.9881635308 -0.0096583087 0.9877802134 -0.00939832814 -0.008183095604 -0.05133284628
0.85056 0.02335801907 -0.06648378074 0.9882532358 -0.009431225248 0.9881367087 -0.00893403776 -0.00793187134 -0.05186276883
0.8512 0.02308983169 -0.06682707369 0.9883791208 -0.009362748824 0.9877587557 -0.009311791509 -0.007962763309 -0.05113689974
0.85184 0.02356528491 -0.06683498621 0.9881369472 -0.009758468717 0.9879084826 -0.009523131885 -0.008465371095 -0.05097112432
0.85248 0.02355356887 -0.06693222374 0.988429904 -0.009206740186 0.9879760146 -0.009407428093 -0.008513938636 -0.05129157007
0.85312 0.02362072282 -0.0669567138 0.9883931279 -0.009328143671 0.9876021147 -0.009046174586 -0.008277268149 -0.05126553774
0.85376 0.02363974415 -0.06692313403 0.9885900617 -0.009418190457 0.9881802201 -0.008681862615 -0.008406355977 -0.05124793947
0.8544 0.0236073751 -0.06658751518 0.9880054593 -0.009450611658 0.9881095886 -0.009057960473 -0.008657481521 -0.05172780901
0.85504 0.02335123904 -0.0670972541 0.9883467555 -0.009597172961 0.9885255694 -0.009591821581 -0.008364339359 -0.05163341388
0.85568 0.02388463914 -0.06704677641 0.9881937504 -0.009367207997 0.9878754616 -0.009770367295 -0.008320590481 -0.05215361342
0.85632 0.02380876802 -0.06716321409 0.9882643819 -0.00939239189 0.9879541993 -0.009410346858 -0.008575957268 -0.05178919062
0.85696 0.02419957891 -0.06691026688 0.9877542257 -0.009324183688 0.9877360463 -0.009071936831 -0.008605511859 -0.0515008606
0.8576 0.02412221394 -0.06706602871 0.9881185293 -0.009474430233 0.9877679348 -0.009039257653 -0.008771358058 -0.05165796354
0.85824 0.02416434139 -0.06666024774 0.9882107377 -0.009360963479 0.9880499244 -0.009144890122 -0.008675931953 -0.05147746578
0.85888 0.02415408008 -0.06722756475 0.9880520105 -0.009516041726 0.988135159 -0.00900630746 -0.008920972236 -0.05150324479
0.85952 0.02397625148 -0.06727921963 0.9882693291 -0.009592990391 0.9881859422 -0.009220829234 -0.008972340263 -0.05167761073
0.86016 0.02434067987 -0.06746740639 0.9883496165 -0.009642616846 0.9882246852 -0.00920447614 -0.008948531933 -0.05144996196
0.8608 0.02422018722 -0.06747297943 0.9881840944 -0.009807245806 0.9875259399 -0.009126286022 -0.009247577749 -0.05205781758
0.86144 0.02436851338 -0.0677247867 0.9881340265 -0.00975988619 0.9883525968 -0.009199083783 -0.008773893118 -0.05170483887
0.86208 0.02422433719 -0.06780575961 0.9883521199 -0.009922418743 0.9878841043 -0.009104021825 -0.009285038337 -0.0518018119
0.86272 0.02459009737 -0.06744168699 0.9883657098 -0.009604277089 0.9874671698 -0.009224923328 -0.00900280755 -0.05181815848
0.86336 0.02448643185 -0.06754819304 0.9879145622 -0.009658502415 0.9877341986 -0.009022396989 -0.009080831893 -0.05223053321
0.864 0.02430916205 -0.06814430654 0.9884793758 -0.009609322064 0.988041997 -0.009149525315 -0.008968596347 -0.0522810258
0.86464 0.02439667098 -0.06809543818 0.9884190559 -0.009595066309 0.9878037572 -0.008928908035 -0.009272882715 -0.05226376653
0.86528 0.02428669855 -0.06781657785 0.9882499576 -0.009647199884 0.9881567955 -0.008999841288 -0.009071771987 -0.05206079409
0.86592 0.02398986742 -0.06797619164 0.9882656336 -0.009486695752 0.9880514145 -0.009716958739 -0.009545612149 -0.05232664198
0.86656 0.02461573109 -0.06820829213 0.9882155657 -0.009586563334 0.9875099063 -0.009354533628 -0.009393162094 -0.05248340592
0.8672 0.02468360215 -0.06831686944 0.9880828261 -0.009543315507 0.9876437783 -0.008934795856 -0.009656297043 -0.05258539692
0.86784 0.02468532696 -0.06819671392 0.9882313609 -0.01001429185 0.98763901 -0.009229529649 -0.009933806956 -0.05242365971
0.86848 0.02432278916 -0.06825627387 0.9885351658 -0.009616610594 0.9879068136 -0.009255814366 -0.009164111689 -0.05179165304
0.86912 0.02462615818 -0.06754808873 0.9881184101 -0.009577290155 0.9881829023 -0.00918059703 -0.009647122584 -0.05252631009
0.86976 0.02444722503 -0.0682932362 0.9882774949 -0.009676678106 0.9883327484 -0.00866271928 -0.009339609183 -0.05244500563
0.8704 0.02428399958 -0.06834931672 0.9880437255 -0.009923839942 0.9880799651 -0.009232426062 -0.009506680071 -0.05253067985
0.87104 0.02458458021 -0.06810851395 0.9880209565 -0.009801962413 0.9881424308 -0.009186084382 -0.009621581063 -0.05257469788
0.87168 0.02436754666 -0.06864529848 0.9882667661 -0.009844104759 0.9875200987 -0.00843613781 -0.009473502636 -0.05274561048
0.87232 0.02460377291 -0.06839007884 0.9882288575 -0.009865585715 0.9882850647 -0.00851993449 -0.009367197752 -0.05265706778
0.87296 0.02419558913 -0.06835785508 0.9882692099 -0.009621414356 0.9878571033 -0.009088573977 -0.009806361981 -0.0525126569
0.8736 0.02432077937 -0.06833271682 0.9881615043 -0.009827164933 0.9873712063 -0.00879609026 -0.009326338768 -0.05279393867
0.87424 0.02456357144 -0.06839824468 0.9879390001 -0.009864720516 0.9879484773 -0.008759983815 -0.009050663561 -0.05293864757
0.87488 0.02444211021 -0.0684730038 0.9880082011 -0.009481832385 0.9879052043 -0.008515234105 -0.008914195001 -0.0531411916
0.87552 0.0242280066 -0.06871081889 0.9881086946 -0.009512034245 0.9881771207 -0.008643057197 -0.009192550555 -0.05348928273
0.87616 0.02392482758 -0.06883206964 0.9881584048 -0.009596011601 0.9880485535 -0.009058793075 -0.009437709115 -0.05294967815
0.8768 0.02424982563 -0.06839489937 0.988548696 -0.009497414343 0.9880176783 -0.008323348127 -0.009303053841 -0.05332445726
0.87744 0.02406905405 -0.06875055283 0.9884889722 -0.009546299465 0.9876647592 -0.008404808119 -0.009376800619 -0.05296732113
0.87808 0.02419963107 -0.06885935366 0.9882090092 -0.009648068808 0.9876990914 -0.008520178497 -0.009307185188 -0.05332380533
0.87872 0.02421267889 -0.06866548955 0.9885551333 -0.009625651874 0.9878526926 -0.008029572666 -0.009072299115 -0.05290603265
0.87936 0.02381568402 -0.0690106675 0.9880316257 -0.009824625216 0.9880282283 -0.008125066757 -0.009328101762 -0.05358050764
0.88 0.02408355847 -0.0686827898 0.9884036779 -0.009597842582 0.9880241156 -0.008510246873 -0.009464657865 -0.05340953544
0.88064 0.02424399741 -0.06898067147 0.9882372618 -0.009765228257 0.9880574942 -0.008534396999 -0.009350771084 -0.05342359096
0.88128 0.02392208576 -0.06906028092 0.9884473681 -0.00958303269 0.9879177213 -0.008690431714 -0.009757863358 -0.05360284448
0.88192 0.02426425181 -0.06895064563 0.9885616899 -0.009690795094 0.9876450896 -0.008660349995 -0.009379418567 -0.05385616794
0.88256 0.0242165532 -0.06881298125 0.988796711 -0.009695287794 0.988280952 -0.008576664142 -0.009638991207 -0.05387691781
0.8832 0.02410706691 -0.06873054802 0.9881253242 -0.009626683779 0.9877999425 -0.008839042857 -0.009394482709 -0.05380349979
0.88384 0.02415647916 -0.06913746893 0.988386631 -0.009202939458 0.9877295494 -0.00864103809 -0.009306803346 -0.05361599103
0.88448 0.02445282228 -0.0691478923 0.9886294603 -0.009703384712 0.9879752994 -0.008167916909 -0.009446934797 -0.05379777774
0.88512 0.02416176908 -0.06913191825 0.9883564711 -0.00943775475 0.9880043864 -0.008319097571 -0.009254017845 -0.05369879305
0.88576 0.02461132035 -0.06909184158 0.9880453348 -0.009698692709 0.988043189 -0.007925389335 -0.009279228747 -0.05399629101
0.8864 0.02456442639 -0.06946720928 0.9886671305 -0.009485162795 0.9878752828 -0.008776997216 -0.009603641927 -0.05373543128
0.88704 0.02445355058 -0.0696080327 0.9884842634 -0.009280749597 0.9882131815 -0.008606229909 -0.009259825572 -0.05379218981
0.88768 0.02442635037 -0.06973978877 0.9885502458 -0.009708983824 0.9877985716 -0.008339566179 -0.00994950626 -0.05374743044
0.88832 0.02430793643 -0.06984293461 0.9884694815 -0.009243030101 0.9880841374 -0.008553045802 -0.009262683801 -0.05378647521
0.88896 0.02461137064 -0.06988904625 0.988676548 -0.009465815499 0.9880188107 -0.008180870675 -0.009437276982 -0.05347867683
0.8896 0.02442220412 -0.06999838352 0.9882274866 -0.009699000977 0.9879087806 -0.008336190134 -0.009650743566 -0.0539897047
0.89024 0.02446698211 -0.0698395595 0.9882749319 -0.009301893413 0.987950027 -0.008329150267 -0.008894007653 -0.05395207927
0.89088 0.02486921102 -0.06990657002 0.9887645841 -0.009284388274 0.9876405597 -0.008438324556 -0.009987618774 -0.05397360772
0.89152 0.02515527233 -0.07053727657 0.9887773395 -0.009479708038 0.9881665111 -0.007958071306 -0.009887829423 -0.05404328182
0.89216 0.02497238293 -0.07011537254 0.9885995388 -0.0096495701 0.9877612591 -0.008830990642 -0.00977311004 -0.05406057835
0.8928 0.02477814257 -0.07031234354 0.9884268641 -0.009280526079 0.9881947041 -0.008548985235 -0.009789152071 -0.05388555303
0.89344 0.02485614084 -0.07070975751 0.9884340763 -0.009468427859 0.9877755642 -0.008393825963 -0.009929887019 -0.05396840721
0.89408 0.0254630968 -0.07055327296 0.9884861708 -0.009400176816 0.9877207279 -0.008311753161 -0.01006699167 -0.05401590094
0.89472 0.0248833131 -0.07057955116 0.9886094332 -0.009327514097 0.9875283241 -0.008317220956 -0.009665144607 -0.05394323915
0.89536 0.02525395155 -0.07077568024 0.9885494113 -0.009789077565 0.9880178571 -0.008898886852 -0.009966599755 -0.05400714278
0.896 0.02500096522 -0.07071815431 0.9884144664 -0.009355949238 0.988129437 -0.008336718194 -0.01029903255 -0.05397881567
0.89664 0.02539021336 -0.07112117112 0.9882265329 -0.009460761212 0.9879469872 -0.008540271781 -0.01052109245 -0.05370252579
0.89728 0.02530547231 -0.07084848732 0.9884585142 -0.009557832032 0.9877292514 -0.008473560214 -0.01059472375 -0.05361465365
0.89792 0.02513478696 -0.07117423415 0.9882438779 -0.009470838122 0.9881362915 -0.009436061606 -0.01041248813 -0.05370315537
0.89856 0.02516403608 -0.07103902102 0.988309443 -0.009456975386 0.9879379869 -0.008308294229 -0.01046126243 -0.0538418591
0.8992 0.02537471429 -0.07128198445 0.9879541397 -0.009551595896 0.9883285165 -0.008739297278 -0.01022148505 -0.05394018069
0.89984 0.02524042502 -0.07130536437 0.9885364771 -0.009438969195 0.9880673885 -0.008413543925 -0.01048392337 -0.05362965167
0.90048 0.0254144948 -0.07153276354 0.988296926 -0.00971955806 0.9879087806 -0.008469182998 -0.01018640306 -0.05434938148
0.90112 0.0252165515 -0.07146936655 0.988322854 -0.009659027681 0.988091886 -0.008323741145 -0.01025089901 -0.05409729853
