!Created with skrf (http://scikit-rf.org).
# GHz S RI R 50.0 
!freq ReS11 ImS11 ReS21 ImS21 ReS12 ImS12 ReS22 ImS22
1.7 -0.1483080983 -0.3131434023 0.8944073319 -0.2385034859 0.8960843682 -0.2353594899 -0.05136589706 -0.3435373008
1.70018 -0.1482909173 -0.3131136298 0.8944049478 -0.238487035 0.8960895538 -0.2359016687 -0.05132639408 -0.3434513211
1.70036 -0.148380667 -0.3130080104 0.8942965865 -0.238679111 0.8959110379 -0.2363122404 -0.0514652133 -0.3434180319
1.70054 -0.1483869404 -0.3130213618 0.8942331076 -0.2387044132 0.8958449364 -0.2363467664 -0.05153382942 -0.3432273269
1.70072 -0.1484484076 -0.3129869401 0.8941941857 -0.2387107164 0.8956773877 -0.2363633364 -0.05156863853 -0.343301177
1.7009 -0.148419112 -0.3130821586 0.8942123055 -0.2386399209 0.8957576752 -0.2365781665 -0.05176208168 -0.3432259858
1.70108 -0.1484268457 -0.3130626976 0.8941255808 -0.2385895848 0.8956249952 -0.2367975414 -0.05175493285 -0.3434099555
1.70126 -0.1484384835 -0.3129891753 0.8942201734 -0.2385767102 0.8955183029 -0.2365762889 -0.05165022984 -0.3434447944
1.70144 -0.1485227048 -0.3131096065 0.8942105174 -0.2386514992 0.8954765201 -0.2366874963 -0.05163204297 -0.3435399234
1.70162 -0.1485998183 -0.3130905926 0.8940786123 -0.2386014611 0.895572722 -0.2366965264 -0.05153403059 -0.3435727656
1.7018 -0.148680836 -0.3131159246 0.8941327333 -0.2386614531 0.8956435323 -0.2367204428 -0.05144309998 -0.3436551988
1.70198 -0.1486381888 -0.3130543232 0.8939854503 -0.2387838215 0.8955802917 -0.2365775704 -0.05154244229 -0.3436748981
1.70216 -0.1485434473 -0.3130700886 0.8940221071 -0.2388304323 0.8956521749 -0.2366929352 -0.05157452449 -0.3435100317
1.70234 -0.1485598385 -0.3130865693 0.8941076398 -0.2387911975 0.8955344558 -0.236722514 -0.05147523433 -0.343446672
1.70252 -0.1486733705 -0.3129641116 0.893959403 -0.2388963997 0.8956100941 -0.2365023643 -0.05147755146 -0.3436320126
1.7027 -0.1487182379 -0.3131963909 0.8940797448 -0.2389257848 0.8954695463 -0.2367093265 -0.05170379952 -0.3437147439
1.70288 -0.1486051083 -0.3132050037 0.8941095471 -0.2387636155 0.8953214288 -0.2367576063 -0.05160482973 -0.343731761
1.70306 -0.1485888809 -0.313184917 0.8940837979 -0.2388419807 0.8951655626 -0.2367566824 -0.05165903643 -0.3437561691
1.70324 -0.1486152112 -0.3131418824 0.8940632343 -0.238892749 0.8953227997 -0.2368754148 -0.05150026828 -0.3438545465
1.70342 -0.1486478895 -0.3130759895 0.8940731287 -0.2388927042 0.8953011632 -0.2369885296 -0.0514947176 -0.3437133729
1.7036 -0.148607403 -0.3129925728 0.8939936161 -0.2388429195 0.8953674436 -0.2369287759 -0.05141434446 -0.3438069224
1.70378 -0.1486621499 -0.3130440116 0.8939114213 -0.2388926297 0.8954361677 -0.2369573414 -0.05139932781 -0.3438587189
1.70396 -0.1487068981 -0.3131180406 0.8939879537 -0.2388901561 0.895152688 -0.2368891835 -0.05147068575 -0.3437834978
1.70414 -0.1487187743 -0.3130910397 0.8938598633 -0.2388783991 0.8952674866 -0.2368266135 -0.05138478801 -0.3437620103
1.70432 -0.1488783211 -0.3132354915 0.8938599825 -0.2388367802 0.8954411149 -0.2368039936 -0.05138166994 -0.3438466787
1.7045 -0.1488014758 -0.3131846488 0.8938559294 -0.2388470173 0.8953146338 -0.2366943806 -0.05136765167 -0.3438122272
1.70468 -0.1488515735 -0.3132529557 0.8938728571 -0.2389977723 0.8952944875 -0.2370798439 -0.05162733421 -0.3438734114
1.70486 -0.1488339603 -0.3130927682 0.8938519359 -0.2389560044 0.8951521516 -0.2369855046 -0.05155363306 -0.3438141644
1.70504 -0.1488796026 -0.3131318986 0.8938621879 -0.2390767783 0.8950631022 -0.2370707244 -0.05152884126 -0.3440077603
1.70522 -0.1489005089 -0.3130887151 0.8937954903 -0.2389642745 0.8951150179 -0.2371730804 -0.05139622465 -0.3440324962
1.7054 -0.1489263773 -0.3130345643 0.8937725425 -0.2390899211 0.8951087594 -0.2372912019 -0.05137298256 -0.3440273702
1.70558 -0.1489604414 -0.313082993 0.8936484456 -0.2391573638 0.8950129747 -0.2369087934 -0.0511700809 -0.3442140222
1.70576 -0.1489134431 -0.3130703866 0.893792212 -0.2390567958 0.8948158026 -0.2372490764 -0.0511806719 -0.3440032601
1.70594 -0.1489629745 -0.3131179214 0.8938393593 -0.2390641719 0.8949528337 -0.2372432351 -0.05124211684 -0.3441070616
1.70612 -0.1489599347 -0.313066572 0.8937126398 -0.2391075641 0.8949128985 -0.2371010184 -0.05130440742 -0.3441804647
1.7063 -0.1490016133 -0.3130781353 0.8936610818 -0.2392681837 0.8950157762 -0.2370380759 -0.0512865968 -0.3442366421
1.70648 -0.1490257084 -0.3131741285 0.8937474489 -0.2391277105 0.8948948383 -0.2371141016 -0.0513105467 -0.3442367017
1.70666 -0.1489494294 -0.3132320344 0.8937051892 -0.2392445207 0.8949354291 -0.2371439934 -0.05141754076 -0.3442807496
1.70684 -0.1490945071 -0.3132176101 0.893471539 -0.2392182946 0.8951283693 -0.2371398062 -0.05134509504 -0.3443869054
1.70702 -0.1491099894 -0.3131911457 0.8934734464 -0.2394007742 0.8950692415 -0.2371804863 -0.0513830483 -0.3442115188
1.7072 -0.1491718143 -0.3131995201 0.8935562968 -0.2393911183 0.8951659203 -0.2370563745 -0.0513108857 -0.3441716135
1.70738 -0.1492517889 -0.3131955862 0.8936207294 -0.2396187782 0.8946691751 -0.2371069342 -0.0513398461 -0.3439628184
1.70756 -0.1492041498 -0.31306687 0.8934991956 -0.2392779738 0.8947883248 -0.237018764 -0.05117854476 -0.3440464437
1.70774 -0.149297446 -0.3132112622 0.8934569359 -0.2394051254 0.8950128555 -0.2371424288 -0.05131507665 -0.3442309797
1.70792 -0.1491440386 -0.3132092357 0.8935440183 -0.2392968237 0.8950153589 -0.2372799963 -0.0513227582 -0.3442436159
1.7081 -0.1492481828 -0.3132708669 0.893502593 -0.2393309176 0.8950251341 -0.2372186333 -0.05129789934 -0.344268471
1.70828 -0.1492940485 -0.313161701 0.8933685422 -0.2393618375 0.8949808478 -0.2373312563 -0.05134703591 -0.3442820013
1.70846 -0.1492578536 -0.3133338392 0.8935070038 -0.2393337786 0.8949990273 -0.2371242493 -0.05126974732 -0.344440192
1.70864 -0.1492465287 -0.3132452369 0.8933995366 -0.2393414676 0.895000875 -0.2370506376 -0.05135180056 -0.3443958163
1.70882 -0.1492429823 -0.3133958578 0.8936536908 -0.2394695878 0.8948970437 -0.2368441671 -0.05131101236 -0.3443537951
1.709 -0.1492994428 -0.3132867217 0.8934226632 -0.2394669652 0.8948051929 -0.23713018 -0.05136592686 -0.3442118466
1.70918 -0.1494634151 -0.313257426 0.8934252858 -0.2395652682 0.8945431113 -0.2371253222 -0.05138475448 -0.3441218436
1.70936 -0.1495461911 -0.3132231236 0.8934126496 -0.2395591587 0.8945931196 -0.2373411208 -0.05133305863 -0.3442745507
1.70954 -0.1495346129 -0.3132013083 0.8933275938 -0.2395660877 0.8947314024 -0.2375570387 -0.05143513158 -0.3444481492
1.70972 -0.1495385915 -0.3132558763 0.8933555484 -0.2394232154 0.8946710825 -0.2372575998 -0.05137531459 -0.344412148
1.7099 -0.1494717151 -0.3133821487 0.8934910297 -0.2393938601 0.8945592642 -0.2371322513 -0.05144310743 -0.3445028961
1.71008 -0.1496176571 -0.3133556843 0.8935483694 -0.2393888831 0.8947219849 -0.2371333688 -0.0515900813 -0.3444783092
1.71026 -0.1495645642 -0.3134485781 0.8935539722 -0.2394336164 0.8946360946 -0.237237066 -0.05154591426 -0.3445709348
1.71044 -0.1497254074 -0.3134356439 0.8934285045 -0.2395211905 0.8946120739 -0.2374078035 -0.05140899494 -0.3444083631
1.71062 -0.1497860104 -0.3134126663 0.8933467269 -0.2396137118 0.8946207762 -0.2375010252 -0.0514812842 -0.3444310427
1.7108 -0.1498354822 -0.3135118186 0.8934051394 -0.2396033704 0.8947634697 -0.2374047041 -0.05136371031 -0.3444418609
1.71098 -0.1498588771 -0.3134703934 0.8934159875 -0.239508599 0.8947272897 -0.237605691 -0.05151748657 -0.3445456624
1.71116 -0.1499703377 -0.3134367168 0.8933045864 -0.239520818 0.8946633339 -0.2374305427 -0.05147831142 -0.3444386125
1.71134 -0.1498757899 -0.313326925 0.8933303952 -0.2395519614 0.8946384788 -0.2374522239 -0.05141049996 -0.3444377482
1.71152 -0.1499462426 -0.3134202361 0.8932561874 -0.2395276725 0.8946938515 -0.2377450615 -0.05141838267 -0.3446469605
1.7117 -0.1500008404 -0.3133529127 0.8933650851 -0.2396344095 0.894536674 -0.2377542257 -0.05139018595 -0.3445279598
1.71188 -0.1500191838 -0.3133911788 0.8933079243 -0.2397128195 0.8944378495 -0.2375615835 -0.05134472251 -0.3445098102
1.71206 -0.1499905586 -0.3133193851 0.8931280971 -0.23962605 0.8945413828 -0.2376459837 -0.05136311427 -0.3445726931
1.71224 -0.1500422955 -0.3134380877 0.8932353258 -0.2396029383 0.8945211768 -0.2376191765 -0.05153814331 -0.3445204794
1.71242 -0.1500567198 -0.3133725226 0.8932113647 -0.2396725565 0.8944714069 -0.2375780344 -0.05159288645 -0.3444530964
1.7126 -0.1501378566 -0.3132537603 0.8932304978 -0.2396869063 0.8945465684 -0.237790361 -0.05176271126 -0.3445058167
1.71278 -0.1501832604 -0.3133658469 0.8932018876 -0.2398081273 0.8944889903 -0.2376425266 -0.05165437981 -0.3444471955
1.71296 -0.1502331048 -0.3133902848 0.8931308985 -0.2398910671 0.8944062591 -0.2377507687 -0.05175045505 -0.3445707262
1.71314 -0.1502657533 -0.3133327365 0.8931917548 -0.2395907789 0.894521594 -0.2378567606 -0.05170051008 -0.3445824683
1.71332 -0.150314182 -0.313393563 0.8931424022 -0.2396640778 0.8947733641 -0.2377498597 -0.05164819956 -0.3447082341
1.7135 -0.1503963321 -0.3133856356 0.8931131363 -0.2396924794 0.8945980668 -0.2377573401 -0.05165771395 -0.3446708024
1.71368 -0.1503106356 -0.3133846819 0.8932141066 -0.2397674024 0.8945201039 -0.2377042621 -0.05170885846 -0.344736129
1.71386 -0.1503642648 -0.313264519 0.8931327462 -0.2399459779 0.8944108486 -0.2378513664 -0.05168255419 -0.3447274268
1.71404 -0.1503760666 -0.3132880032 0.8931737542 -0.2398290336 0.894384563 -0.2378607094 -0.05178795755 -0.3447636962
1.71422 -0.1504389793 -0.3133446574 0.8930698037 -0.2397793233 0.8944687247 -0.2377918512 -0.05169071257 -0.3447701633
1.7144 -0.1504131705 -0.313511163 0.8932730556 -0.2398274392 0.8943845034 -0.2375817895 -0.05171907693 -0.3447825909
1.71458 -0.1504780054 -0.3135144711 0.8931431174 -0.2397844195 0.8946535587 -0.237801075 -0.05167671293 -0.3449219763
1.71476 -0.1504771113 -0.3135094643 0.8929742575 -0.2397270352 0.8944927454 -0.2375894785 -0.05161517859 -0.3446965814
1.71494 -0.1505539566 -0.3134071231 0.8930436969 -0.2397448868 0.8944746852 -0.2377192229 -0.05166046694 -0.3448320925
1.71512 -0.1505247355 -0.3134816885 0.892940402 -0.2399105728 0.8942090869 -0.2375833243 -0.05142895877 -0.3448055685
1.7153 -0.1506133527 -0.3134429157 0.8930393457 -0.2398430556 0.8942770958 -0.2375769019 -0.05147444457 -0.3448091149
1.71548 -0.1506881714 -0.3135038614 0.8930910826 -0.2398240119 0.8940674067 -0.2374974936 -0.05155193061 -0.3448097706
1.71566 -0.1507322788 -0.3136291206 0.8931298256 -0.2398663163 0.8941914439 -0.2377114147 -0.05164106563 -0.3448186517
1.71584 -0.1507867128 -0.3135824203 0.8930678964 -0.239703089 0.8942373991 -0.2375397682 -0.05164675787 -0.3449169397
1.71602 -0.1508260071 -0.313552022 0.8929835558 -0.2399042547 0.8942725658 -0.237563327 -0.0516558513 -0.3448835909
1.7162 -0.1508189738 -0.3135700524 0.893048048 -0.2398313433 0.8942383528 -0.2379875928 -0.05177293718 -0.3448651731
1.71638 -0.1508674324 -0.3135805726 0.8931204677 -0.2397298664 0.8941912055 -0.2378559709 -0.05169509724 -0.3448908925
1.71656 -0.1508859694 -0.3135869801 0.8930703998 -0.2399164736 0.8943578005 -0.2378764153 -0.05177145824 -0.3449742794
1.71674 -0.1508443207 -0.3136283159 0.8929514885 -0.2399163395 0.8940995336 -0.2379115373 -0.05177309364 -0.3448060751
1.71692 -0.1509208381 -0.3136603534 0.8928767443 -0.239831388 0.8941836357 -0.2378154695 -0.05174589902 -0.3448256552
1.7171 -0.150947988 -0.3136824369 0.8928909302 -0.2399942577 0.8941310048 -0.2380128652 -0.05164837465 -0.3448121846
1.71728 -0.1509702951 -0.3137919903 0.8931139112 -0.240026772 0.8940019011 -0.2378181219 -0.05171759799 -0.3448489308
1.71746 -0.1511293799 -0.313687712 0.8928231597 -0.240021795 0.89416641 -0.2379058599 -0.05174744874 -0.3448621035
1.71764 -0.151121825 -0.3137308061 0.8929103017 -0.2400939912 0.8941030502 -0.2378780693 -0.05201088637 -0.3450066745
1.71782 -0.1510623842 -0.3137824237 0.8928660154 -0.2400157303 0.8940140605 -0.238046512 -0.05193787813 -0.3449559212
1.718 -0.1511006653 -0.3137069941 0.892965734 -0.240003854 0.8939974308 -0.2379566878 -0.05191130191 -0.345023334
1.71818 -0.1511131525 -0.3136376739 0.8928862214 -0.2400505543 0.8939986229 -0.2377910018 -0.0518547222 -0.3450259566
1.71836 -0.1511416882 -0.3136407137 0.892832458 -0.2401162237 0.8939787149 -0.2378798127 -0.05195277929 -0.3449711204
1.71854 -0.1511846781 -0.3138142228 0.8928627968 -0.2400103509 0.8941096663 -0.2377924621 -0.05189752206 -0.345043242
1.71872 -0.1511671543 -0.3137330413 0.8928281665 -0.2401024848 0.8938627243 -0.2379513532 -0.05205170065 -0.3449154496
1.7189 -0.1512450576 -0.3137694597 0.8929159045 -0.2399564534 0.8942089081 -0.237898469 -0.05197567493 -0.3450282812
1.71908 -0.1512386054 -0.3138513863 0.8928519487 -0.2401182204 0.8941626549 -0.2379668355 -0.05206811428 -0.3449184299
1.71926 -0.1513055712 -0.3137954473 0.8929074407 -0.2401768565 0.8939903975 -0.2382466346 -0.05198978633 -0.3450925052
1.71944 -0.1513228416 -0.3137254417 0.8929817677 -0.2400536537 0.8941224217 -0.2380537689 -0.05191702023 -0.3451277316
1.71962 -0.1513356864 -0.3136903048 0.8929429054 -0.2401527166 0.8940977454 -0.2381851077 -0.05184886977 -0.3449975848
1.7198 -0.1513718218 -0.3137876093 0.8927650452 -0.24019593 0.8940122724 -0.2380641252 -0.0519419536 -0.345071435
1.71998 -0.1513727605 -0.3137385547 0.8927884698 -0.2401325107 0.8940681815 -0.2380972654 -0.05176502466 -0.3450817764
1.72016 -0.1513034403 -0.3137628436 0.8927048445 -0.2401283234 0.8939445019 -0.2380849868 -0.05186291784 -0.3451550305
1.72034 -0.1513534486 -0.3137131631 0.892555356 -0.2401348799 0.8939945102 -0.2381625473 -0.05173205957 -0.3451874852
1.72052 -0.1513701081 -0.3138572574 0.8926918507 -0.2401093841 0.8938995004 -0.2382135838 -0.05206781253 -0.3453211188
1.7207 -0.1515185684 -0.3138749003 0.8927255869 -0.2403223366 0.8939328194 -0.2382058203 -0.05224806815 -0.3452505469
1.72088 -0.1515402943 -0.3139148355 0.8928769827 -0.2401917428 0.8938894868 -0.2385468483 -0.05235334858 -0.3453643322
1.72106 -0.1515966952 -0.3139437139 0.8927209973 -0.2402099371 0.8939062357 -0.2385473251 -0.05233898014 -0.3453348279
1.72124 -0.1516443193 -0.3138678968 0.8927341104 -0.2403125167 0.8939145207 -0.2382560819 -0.05222891271 -0.3453879058
1.72142 -0.1516779512 -0.3138952255 0.892770946 -0.2403684407 0.8938812613 -0.238403663 -0.05230130255 -0.3452314138
1.7216 -0.151716128 -0.3138020337 0.8926169872 -0.2404004782 0.8939136267 -0.2381947637 -0.05224049091 -0.3451564014
1.72178 -0.1517573595 -0.313895911 0.8926323652 -0.2404761314 0.8939087391 -0.2383045703 -0.0522711426 -0.3452557325
1.72196 -0.1517662704 -0.3139625192 0.8925881386 -0.2404955626 0.8936135769 -0.23835136 -0.05217668414 -0.345192045
1.72214 -0.1517558396 -0.3139315844 0.8925474882 -0.2405866683 0.8940685987 -0.2381944358 -0.05214155838 -0.3454268277
1.72232 -0.1516961455 -0.3140732646 0.8925359845 -0.2406174093 0.8938014507 -0.2381400615 -0.05216874182 -0.3452518582
1.7225 -0.151752159 -0.3140153289 0.8925831318 -0.2405180335 0.8937240243 -0.2381190807 -0.05213838816 -0.3454393148
1.72268 -0.1517030448 -0.3140587509 0.8925930262 -0.2405881137 0.8936642408 -0.2383159846 -0.05222724751 -0.345390588
1.72286 -0.1515500247 -0.3140013218 0.8925161958 -0.2405172586 0.8936821818 -0.2384190559 -0.05228105187 -0.3454060555
1.72304 -0.1516606212 -0.3140976131 0.8925191164 -0.2403814495 0.8937906623 -0.2383088917 -0.05221128091 -0.345505774
1.72322 -0.1518829316 -0.3140617013 0.8925607204 -0.2407014668 0.893825233 -0.2383063436 -0.05221031234 -0.345494777
1.7234 -0.1518242657 -0.3142288327 0.8924272656 -0.2405151129 0.8937680721 -0.2382874191 -0.05210329965 -0.3455551863
1.72358 -0.1519183069 -0.3141155541 0.8924257755 -0.240586862 0.8939222693 -0.2382110059 -0.0521094054 -0.3454840779
1.72376 -0.1518652141 -0.3142713904 0.8923953772 -0.2405830771 0.8937767744 -0.2383522242 -0.05229926109 -0.3455784917
1.72394 -0.151838541 -0.3142501712 0.8923553824 -0.2406387925 0.8937861323 -0.2385394722 -0.05231684074 -0.3456325531
1.72412 -0.151901871 -0.3142238855 0.8923642039 -0.240522325 0.8940002918 -0.2383858562 -0.05229576677 -0.3456533253
1.7243 -0.1520073712 -0.3142678738 0.8924084306 -0.2405686378 0.8936259747 -0.2382836342 -0.05240868777 -0.3456265032
1.72448 -0.1520260423 -0.314257443 0.892516017 -0.2406560183 0.8938005567 -0.2385485768 -0.05228565261 -0.345656991
1.72466 -0.151976943 -0.3142228127 0.8923959732 -0.2407911718 0.8937700391 -0.2386173904 -0.05251742899 -0.3456832767
1.72484 -0.1519865245 -0.3142273724 0.8923380375 -0.2407339662 0.893591404 -0.2386793792 -0.05257375911 -0.3457044959
1.72502 -0.1520535648 -0.3143313527 0.8923766613 -0.2407748252 0.8936635256 -0.2388322353 -0.05249107629 -0.3457963467
1.7252 -0.1521184593 -0.3144233227 0.8922507763 -0.2407474071 0.8932879567 -0.2385407835 -0.05246305838 -0.3456845582
1.72538 -0.1520889699 -0.3143513501 0.8922938108 -0.2409710288 0.893407166 -0.2383792102 -0.05228027701 -0.3457194865
1.72556 -0.1520417631 -0.3144897521 0.892414391 -0.2408404201 0.893391788 -0.2386013567 -0.05237035453 -0.3457484841
1.72574 -0.1520045251 -0.3145641387 0.8922806382 -0.2407238781 0.8934758902 -0.2386440188 -0.0521610491 -0.3458431661
1.72592 -0.1519581079 -0.3145789802 0.8923299313 -0.2407199442 0.89332515 -0.2383843213 -0.05219485983 -0.3457782865
1.7261 -0.1520218253 -0.3145363927 0.892483294 -0.2408138514 0.8935123682 -0.2383366823 -0.05224103108 -0.3458765447
1.72628 -0.1521684974 -0.3145719767 0.8923532367 -0.2408009917 0.8935351372 -0.2385258675 -0.05226856843 -0.3458793759
1.72646 -0.1520452797 -0.3147139847 0.8923254609 -0.2407158613 0.8933841586 -0.2386951298 -0.05240554363 -0.3458965719
1.72664 -0.1520623565 -0.3147686124 0.8924157023 -0.2408613563 0.8933982849 -0.2386858463 -0.05236684531 -0.3459454179
1.72682 -0.1521491259 -0.314715296 0.8923570514 -0.2408224195 0.8933665752 -0.2385495156 -0.05225898325 -0.3459442556
1.727 -0.1521066725 -0.3146158755 0.8923584819 -0.2409106195 0.8931759 -0.2386947572 -0.0523727946 -0.3459854126
1.72718 -0.152068004 -0.3146097362 0.8922699094 -0.2407694459 0.8933244348 -0.2387998998 -0.05235353485 -0.3460507393
1.72736 -0.1520169824 -0.3145229816 0.8923168778 -0.2406895459 0.8930556774 -0.2385780066 -0.05222946778 -0.3460892737
1.72754 -0.1520727128 -0.314655602 0.892382741 -0.240836978 0.8931058049 -0.2386554778 -0.05232999846 -0.3460617363
1.72772 -0.1521338671 -0.3147529662 0.89232409 -0.2407422662 0.8930892944 -0.238508597 -0.05237286538 -0.3460161388
1.7279 -0.1521579027 -0.3146895766 0.8922157288 -0.2409224063 0.8932225108 -0.2384311706 -0.05219623446 -0.3461664319
1.72808 -0.1521196663 -0.3148086369 0.8920527697 -0.2411092967 0.8932319283 -0.238730371 -0.05236857757 -0.3462814093
1.72826 -0.1522048712 -0.314835161 0.8922581077 -0.2408783436 0.8933392763 -0.2386673689 -0.05231622979 -0.3463497162
1.72844 -0.1522345394 -0.314895153 0.892380476 -0.2406514734 0.8931194544 -0.238767907 -0.05241864175 -0.3462876081
1.72862 -0.1522217393 -0.3149703741 0.8923726678 -0.240800187 0.8933414817 -0.2388458848 -0.05240122601 -0.3465217054
1.7288 -0.1522742808 -0.3149065375 0.8923768997 -0.2408629209 0.893294096 -0.2389754951 -0.05252809823 -0.3464941084
1.72898 -0.1522724181 -0.3148430884 0.8922973871 -0.2409773469 0.893003583 -0.2389871925 -0.05240475014 -0.3463809788
1.72916 -0.1521758288 -0.3148633838 0.8922807574 -0.2407781184 0.8932299614 -0.2388070077 -0.05242072046 -0.3464487791
1.72934 -0.152238667 -0.3148205876 0.89217484 -0.2410460413 0.8929614425 -0.2388411015 -0.0524802804 -0.3464950621
1.72952 -0.1521664113 -0.3149417639 0.8921331763 -0.2410090864 0.8929675817 -0.2388240546 -0.05241802335 -0.3464728296
1.7297 -0.1521427184 -0.3149606287 0.892115593 -0.2410575598 0.892970264 -0.2389928848 -0.05246563256 -0.3465357721
1.72988 -0.1520179808 -0.3150187135 0.8917997479 -0.2410067022 0.8932135701 -0.2389359325 -0.05266728625 -0.3466489613
1.73006 -0.1521285623 -0.3150416315 0.8920826912 -0.2411082834 0.8928823471 -0.2389275432 -0.05265607685 -0.3464765549
