!Keysight Technologies N9950B: A.12.38
!Date: Tuesday, 25 April 2023 11:58:35
!Timezone: (UTC-06:00) Central Time (US & Canada)
!Model: N9950B
!Serial: MY61131330
!GPS Latitude: 
!GPS Longitude: 
!GPS TimeStamp: 0001-01-01 00:00:00Z
!GPS Seconds Since Last Read: 0
!CHECKSUM:1612502830
!Correction: S11(Rdy)S21(Rdy)S12(Rdy)S22(Rdy)
!S2P File: Measurements:S11,S21,S12,S22:
# Hz S DB R 50
800000000	-27.2900355813335	-164.415351121515	-0.796861800449639	-81.7623196193596	-0.804989814528579	-81.7676006738735	-27.0582778089186	-148.809969726264	
801700000	-26.9121034755524	-170.999478310397	-0.790880866158007	-86.5426990657173	-0.817440805075569	-86.4123109223163	-26.8506181106419	-154.723661840037	
803400000	-26.575492237042	-176.234036625188	-0.807241019474399	-91.3286373837562	-0.815669674518554	-91.2287382603529	-26.5021984715884	-161.25630941057	
805100000	-26.2680431648122	178.060201614897	-0.81181783218534	-96.0780299373983	-0.807828065780663	-95.9529033792559	-26.2432805490712	-167.13428764498	
806800000	-25.9810406733813	172.318005640817	-0.811470319705374	-100.769490661488	-0.819660881196677	-100.780044527932	-25.9939841085489	-173.913638102031	
808500000	-25.711261026093	166.530855721777	-0.810542091800715	-105.511232449735	-0.813661943221753	-105.517922764688	-25.6706082971348	179.778632601444	
810200000	-25.4812946124716	160.744060689563	-0.809320419558839	-110.276780982195	-0.825142579935249	-110.252733982581	-25.5093285835526	173.8303186857	
811900000	-25.2352710440918	155.518516616031	-0.806554144978878	-114.987368815914	-0.822506215914652	-115.036760816771	-25.2513708361556	167.657638545374	
813600000	-24.9768795685395	150.295054091036	-0.80778828357118	-119.742868636655	-0.822242130614016	-119.774761338195	-25.0431750123712	161.704564307128	
815300000	-24.7552912411943	144.536531617775	-0.814384120300374	-124.55012154442	-0.82472804425103	-124.543941707653	-24.8186504296021	155.131211405135	
817000000	-24.5401963768364	139.007243710048	-0.822692153262365	-129.338212695057	-0.827170878689033	-129.271472248246	-24.6453961873779	149.156124064	
818700000	-24.3834856666503	134.096929841915	-0.808806042490795	-133.983578704275	-0.833531102831629	-133.901957372068	-24.4979330832745	143.388970652726	
820400000	-24.2515391243296	128.317232219211	-0.814318482675177	-138.855650735191	-0.827594756857132	-138.784722320204	-24.3167340262807	136.644706583785	
822100000	-24.1240815477147	123.283091996274	-0.822938387062609	-143.566337174486	-0.839002619875809	-143.488793974612	-24.146809459763	131.051490523666	
823800000	-23.9861894281915	118.261073102755	-0.823129331074809	-148.281757001143	-0.837793383305141	-148.189483760774	-24.1315489779607	124.840333993652	
825500000	-23.9234037247919	113.071356698419	-0.825069263382732	-153.060541964849	-0.829615421141262	-152.942596379609	-23.9384524467038	119.174530595942	
827200000	-23.827076746794	107.530738017575	-0.842235103718454	-157.843483147792	-0.835164084081345	-157.722026709094	-23.8591060206342	112.797750404124	
828900000	-23.7495822240476	102.540383031501	-0.824984196745236	-162.598780713442	-0.83110341913876	-162.53564314386	-23.7467185383168	106.851865523333	
830600000	-23.7498814848999	97.5664878178051	-0.824591839536631	-167.414464274275	-0.837294989725495	-167.235594037133	-23.7104927063137	101.399973965497	
832300000	-23.7157829275365	92.5068379140798	-0.833073710055169	-172.130613725303	-0.844219585567552	-171.92446151775	-23.7137209201983	95.4849427615061	
834000000	-23.7084754939595	87.3584933910489	-0.829045169146041	-176.825233579797	-0.843405721920895	-176.722223536919	-23.6845036608896	89.4330252748397	
835700000	-23.7282569600761	82.4541993029197	-0.825193504287744	178.45641361521	-0.834053686869994	178.577960503446	-23.6724762275927	83.4727071564672	
837400000	-23.7968909989285	77.3206064583196	-0.83883873331863	173.639803870067	-0.842643093142262	173.774400480431	-23.6979205212321	77.8949258697693	
839100000	-23.8262521456974	72.486919186635	-0.831360228165998	168.920888008091	-0.838776145605194	169.032182996271	-23.7085091176925	72.181211188177	
840800000	-23.9302862606007	67.9107903131786	-0.835385595820858	164.189370332627	-0.840485016082038	164.326405156909	-23.7585754582286	66.4270413305553	
842500000	-24.0279383531839	63.0232882888004	-0.837332344018911	159.462606612867	-0.838199800230002	159.55685218761	-23.8718103716531	60.8457701885466	
844200000	-24.178212185121	58.0597017133807	-0.833199533409424	154.776453449911	-0.847308465647458	154.784885952022	-23.9436915309146	55.1092867207884	
845900000	-24.2486165837596	53.4285692349553	-0.825453303341253	150.044247944078	-0.843559764305239	150.054569285246	-24.05587596957	49.3913073397478	
847600000	-24.3988696395091	48.161675125559	-0.824010047040747	145.227952027835	-0.833056762347923	145.236318575805	-24.1424489643098	43.7275113595513	
849300000	-24.6176417048532	43.9044465190511	-0.827723194242452	140.427404317929	-0.840812796790209	140.501333223435	-24.3189705224199	38.1968312649881	
851000000	-24.8511090013494	38.3829916209518	-0.839952442494629	135.747328264013	-0.839876517336766	135.740252245965	-24.5776328859709	32.4718177848406	
852700000	-25.0856639280943	34.1649798861803	-0.827213489340162	131.002839363915	-0.83963660889943	131.000610155726	-24.7367086335892	27.1247504022374	
854400000	-25.2738353703083	29.2472519160467	-0.821428383155319	126.234879811526	-0.835596503320185	126.243978595715	-24.9743062571484	21.6957179023021	
856100000	-25.6414545001408	24.7703666652988	-0.822438494512155	121.463890714085	-0.835874698286703	121.457402334772	-25.1829004280691	15.9389080281557	
857800000	-25.8790736252876	20.7431633263237	-0.820531557315553	116.802889228619	-0.83834483227984	116.79686103822	-25.4632420992383	10.7778122960426	
859500000	-26.2256093501254	15.6736126975283	-0.824575569727428	112.004640552416	-0.832863899512051	111.962363820369	-25.7712145077758	5.48516844036318	
861200000	-26.5336330189689	11.5848384616382	-0.826229804057687	107.348096795726	-0.826170326778522	107.187629457748	-26.0962357560281	0.310959376151297	
862900000	-26.9043616856049	7.09791470847908	-0.833425341830387	102.543891933008	-0.831016142872155	102.439860114236	-26.4653834993024	-5.3099089616805	
864600000	-27.3054816679655	3.22013760547213	-0.828500028369145	97.7717951534107	-0.829855564364903	97.6955372073939	-26.8417929282012	-10.0322471142296	
866300000	-27.6973510688236	-0.805430933019998	-0.826449415495322	92.9280366115588	-0.836644451083826	92.9404062714298	-27.1486383999693	-15.1824504478062	
868000000	-28.1101068408017	-5.15571393803399	-0.831027260622578	88.1298439620856	-0.831448142565668	88.0431221021985	-27.6800356532156	-19.6531354194258	
869700000	-28.624387749636	-9.31575637250168	-0.819706605085146	83.3998629293603	-0.821251428018553	83.2841222267215	-28.1534203803198	-24.3287155904909	
871400000	-28.9327938140306	-13.1305095704176	-0.828627064904797	78.6576008219631	-0.829814340522981	78.6011308675961	-28.6125254097449	-29.4269797159921	
873100000	-29.4245785907275	-16.6545838995824	-0.819558608753189	73.9499452722756	-0.827490374148088	73.8188598137533	-29.1494183632906	-33.63651939006	
874800000	-29.9628829075685	-21.3901169112309	-0.824381491523721	69.1406030034029	-0.830655463845894	69.1019414308705	-29.5780427665629	-37.9151039991267	
876500000	-30.4363581761507	-24.6653772632715	-0.832184759492416	64.3941055983375	-0.836485774536155	64.2888541065324	-30.1698680064163	-41.5764367451927	
878200000	-30.9320522160405	-27.5180778594695	-0.828274179394509	59.5846746545544	-0.84230183351594	59.5436803663842	-30.6203294640224	-45.2558550396207	
879900000	-31.3773021165317	-30.7808537719557	-0.826689696801347	54.8189208684947	-0.828375192586626	54.8700821133023	-31.1749967738191	-48.566605246283	
881600000	-31.9327893565593	-34.5202831245154	-0.831750889514626	50.0389717746701	-0.838072150040441	50.0557717688477	-31.9806605596268	-51.8252615077574	
883300000	-32.3662252669349	-37.5471145473931	-0.828366820301778	45.2498187145767	-0.831744233302154	45.237325965048	-32.5806929095469	-53.6262444563391	
885000000	-32.777492603834	-40.578481196048	-0.827754473092436	40.540774795701	-0.844265438590106	40.4666789521607	-33.3223635100479	-55.0961510281745	
886700000	-33.0071758500898	-43.7746360245413	-0.840403612204315	35.6641956077413	-0.838246221388664	35.8267714939963	-33.8016096267994	-56.518172675773	
888400000	-33.5592431592826	-46.5433057226156	-0.834477193570069	30.9165836217755	-0.840428793879664	31.0528319231802	-34.2141037137093	-57.0000557939666	
890100000	-33.8230749778954	-50.1700178182215	-0.84099463838673	26.2242264965774	-0.831317741987049	26.2862230385882	-34.5925515436988	-57.0533668197181	
891800000	-34.0714832114322	-52.9596620255209	-0.832346186448946	21.4774531451919	-0.831998152158102	21.4752262052572	-35.0027137216129	-56.7675097963884	
893500000	-34.1829536981181	-56.0402379842093	-0.83828743077187	16.6451027732581	-0.831779547545231	16.7243289804329	-35.0238906065384	-56.0291984135111	
895200000	-34.4440605836387	-61.2105509276585	-0.83609018283318	11.8850812453458	-0.844798454646191	11.9700919516019	-35.1478874862507	-56.4590887145981	
896900000	-34.5041357804136	-64.3053263187302	-0.833795449931534	7.1571400238306	-0.8473177644048	7.24767027726327	-35.0184646002786	-55.7037097639228	
898600000	-34.6373274393634	-69.3453932115633	-0.845921548187153	2.38856478526392	-0.846928902312345	2.53334279250073	-34.8607500161715	-56.0926776079224	
900300000	-34.4801959124141	-73.2608420193939	-0.836709188089332	-2.30854476779192	-0.845950998619178	-2.30869606641451	-34.4568964065697	-57.5664928460214	
902000000	-34.3886645111814	-78.6139121272048	-0.843705010197139	-7.01277155868465	-0.842489757968342	-7.07369035458225	-33.995054076466	-58.6530486874354	
903700000	-34.1468108646325	-83.7819585894305	-0.82612690349569	-11.8468124133794	-0.846896399606525	-11.8172675117395	-33.4808263620335	-61.2989842312876	
905400000	-34.1009912353303	-90.1120987951965	-0.834449347042555	-16.5705928039486	-0.852856397704088	-16.6521059898692	-33.0599006374052	-64.3534534326086	
907100000	-33.7031458613813	-96.2779056971373	-0.839625870226257	-21.3803268388083	-0.840652249647005	-21.41513729854	-32.763120789597	-68.6981995669502	
908800000	-33.4756964940376	-101.669455143741	-0.827412630398535	-26.1804414027532	-0.84542243469245	-26.0437335976705	-32.1034538171561	-72.1036130229629	
910500000	-33.2422023079322	-108.013511201011	-0.831890783920662	-30.9289389824105	-0.844557261780029	-30.9257447149747	-31.5739026323116	-76.2896775453248	
912200000	-32.832242735198	-114.871966260028	-0.840266995002389	-35.664870286539	-0.845670524676734	-35.6699043350122	-31.1548585118993	-80.9497716870378	
913900000	-32.2577239310638	-121.32839339639	-0.833898458149441	-40.3972124706966	-0.852904683299016	-40.4359786398398	-30.6479891518519	-86.3309575549288	
915600000	-31.8667747638161	-127.632317794895	-0.850805089517531	-45.2593121932259	-0.859323565103174	-45.2104943350337	-30.2764577981052	-91.4330437934485	
917300000	-31.3932898656501	-133.847821174704	-0.84582783325647	-50.0092276898057	-0.860114942666172	-49.9803871621828	-29.8548342448248	-97.0061360734233	
919000000	-30.9247596839465	-140.626135853748	-0.84192668273028	-54.8054859476132	-0.860414509148137	-54.710008830645	-29.5440982263375	-102.737025536146	
920700000	-30.3578968364	-147.438683946426	-0.861432451983791	-59.5516169020093	-0.845184928323536	-59.4981186796353	-28.9809583542756	-109.63208417066	
922400000	-29.8799134430792	-153.41770930395	-0.859422322416081	-64.2882707375496	-0.861225642526613	-64.2849785638682	-28.6635211135417	-115.483943340344	
924100000	-29.4034158326717	-159.761604304107	-0.861888989111345	-69.043937432603	-0.863272300256092	-69.0018565177333	-28.2104728764597	-120.815346785405	
925800000	-28.9089390161162	-165.602664626171	-0.86696165336685	-73.8053249966672	-0.869249225139889	-73.7488108259186	-27.80632297671	-127.79316197182	
927500000	-28.4331096911093	-171.856694118763	-0.858500338071592	-78.6336615982345	-0.864928028027726	-78.5510224999058	-27.4575109981789	-133.758432258645	
929200000	-27.9934564358441	-177.775646831707	-0.866218787644659	-83.3511053911164	-0.874960601222163	-83.2972220605174	-27.1164418938335	-140.127920088974	
930900000	-27.5092443354785	176.643178464524	-0.856864644744228	-88.1324244509792	-0.868445805459795	-88.0667484023836	-26.7597844430912	-146.47004597173	
932600000	-27.1719447342763	171.324702616518	-0.865647933388976	-92.9324077668103	-0.881460197072654	-92.8249634106904	-26.512581493869	-152.940319288972	
934300000	-26.6531258926462	165.063706918366	-0.857797235757121	-97.6923923603661	-0.87036173450536	-97.4610571507006	-26.1254455653308	-159.11706829826	
936000000	-26.2710869837092	159.379618846729	-0.866157230525986	-102.461924327031	-0.874813015191248	-102.250494892813	-25.8491090499113	-165.47032255114	
937700000	-25.8843500313565	154.11944808804	-0.868191233161897	-107.266102453187	-0.877253344024132	-107.032715320706	-25.5638045419186	-171.801340076075	
939400000	-25.5461013601913	148.432541967831	-0.86454106393363	-111.992961919868	-0.87919010186617	-111.836974935674	-25.243038251341	-178.347295440143	
941100000	-25.1885608216023	143.401270490423	-0.87390106833686	-116.724612147062	-0.879186973088465	-116.548894473086	-24.9796794557477	175.234054315164	
942800000	-24.9206759416821	137.990360694747	-0.882708720252438	-121.44847037884	-0.887618864280981	-121.382057140336	-24.7319549766967	168.980449242961	
944500000	-24.5895978115256	132.894350423424	-0.877355220267953	-126.234571793874	-0.879726053973262	-126.088623440639	-24.4993074380592	162.863140783766	
946200000	-24.362842171805	127.499503064782	-0.891179944820742	-130.887106927729	-0.888580913427399	-130.821001093371	-24.3095538040436	156.627255106923	
947900000	-24.1724927923084	122.270718270919	-0.891242584724118	-135.703969961759	-0.893861794323888	-135.635653503774	-24.0709921746928	150.312959954302	
949600000	-23.8910777469266	116.646062562055	-0.882276545361423	-140.485705665098	-0.893996073478175	-140.34943493485	-23.9507412229765	144.022189826014	
951300000	-23.7535637695623	111.96937317733	-0.891171696979858	-145.177817507092	-0.895552418971781	-145.141738780289	-23.738338191634	138.084220137388	
953000000	-23.4927937346305	106.976512757105	-0.892923746394407	-149.886355390765	-0.900274809232785	-149.815477885647	-23.584987082959	131.919406433775	
954700000	-23.3738180408232	101.947856721488	-0.900895173362215	-154.639720458915	-0.894812897098776	-154.554142072779	-23.5273186833167	126.095872383359	
956400000	-23.2041224282502	97.2048947853396	-0.886581338617169	-159.411205875998	-0.898095490997273	-159.3634082623	-23.39664021257	120.061056687564	
958100000	-23.068446932948	92.2379879550452	-0.89562746218588	-164.086518138142	-0.905347841519011	-164.081335246609	-23.3576193781817	114.259064938235	
959800000	-22.9912861362777	87.0949650906337	-0.899824764729141	-168.847555104891	-0.895422081490403	-168.813596959769	-23.2684507514948	108.470346509893	
961500000	-22.8990756055052	82.2188314767423	-0.901704306708492	-173.60214610677	-0.893398453775468	-173.566266965727	-23.1985081104909	102.413433129561	
963200000	-22.8557228340546	77.2872058643145	-0.898113910092938	-178.356813138782	-0.907401513413446	-178.339743976487	-23.1700563635708	96.5250873845115	
964900000	-22.8581892164873	72.4241402649373	-0.911105961529767	176.966612699747	-0.909670730624955	176.957017615743	-23.1667444977668	90.5843908594578	
966600000	-22.7942228981109	67.8726480913778	-0.893135370419177	172.297496083765	-0.909002942961124	172.115857952844	-23.0764073522191	85.2241818909622	
968300000	-22.8442413121952	62.8555801121119	-0.906082791950816	167.520628522623	-0.906195472763312	167.403958873387	-23.1335955828362	79.4020921169084	
970000000	-22.8485737854707	58.2148202783986	-0.89887241147995	162.774614968032	-0.897039702361949	162.658530099833	-23.1926140302723	73.7819776739427	
971700000	-22.9388143554891	53.5505242280309	-0.904603200785534	158.018741706971	-0.906680391492058	157.877663037206	-23.2235542971044	67.8222994399906	
973400000	-22.9849814369868	48.9136791892403	-0.898263981909039	153.292595856842	-0.901933956830052	153.119875333546	-23.2614692010472	62.0545174227731	
975100000	-23.0773561316783	44.2750698528887	-0.89373785740106	148.537609626549	-0.903870556077648	148.424935276993	-23.367261706436	56.3981350847278	
976800000	-23.2297878457419	39.5645005452793	-0.900002583382391	143.699968661599	-0.895665891574939	143.666176546642	-23.4570758410539	51.0810075762961	
978500000	-23.3679496762521	35.1608080189493	-0.902711316045397	139.07686031078	-0.905147720591957	138.828299478874	-23.5586040885202	45.4341750851236	
980200000	-23.5029259416467	30.4896156522285	-0.877935216259356	134.255988493859	-0.896847282346705	134.106214150168	-23.751095035964	39.8118844273204	
981900000	-23.6909449348757	25.7509310572378	-0.89036606556122	129.544003226387	-0.896947205380728	129.393395612567	-23.8814599217207	34.1801051510528	
983600000	-23.913503223219	21.3366276014549	-0.883397262160945	124.690260740685	-0.904555445888283	124.631845722729	-24.0519094125739	29.1257146061439	
985300000	-24.1538324166471	17.0217370251564	-0.88853311170337	119.91431323223	-0.893760618073931	119.925690661553	-24.2330682977552	23.7445588459522	
987000000	-24.3723607426502	12.5695055731573	-0.880849821370679	115.153063089124	-0.89964638515272	115.200460320613	-24.4951038682171	17.833088381045	
988700000	-24.6347753885124	8.30130297814826	-0.886062280899642	110.441748118757	-0.899463466550034	110.427288237379	-24.7029664266229	12.4377242863349	
990400000	-24.9980028526799	4.20445844626912	-0.904712370360605	105.66253533277	-0.886185547122782	105.673713998765	-25.0381839665104	7.0141249580313	
992100000	-25.3143574037664	-0.0962029495104245	-0.88723365512043	100.864189534527	-0.903774801838443	100.867983631176	-25.3121845696817	1.89020246841759	
993800000	-25.6540896397216	-4.24882685201324	-0.883517390029758	96.0927723441578	-0.884609327514176	96.1247362792462	-25.6642578968232	-3.65670724919641	
995500000	-26.0222676645669	-7.72038468802263	-0.897667123669974	91.3095708384385	-0.891134887482511	91.3623870438505	-26.0388395799505	-8.84086164574374	
997200000	-26.4209443754457	-11.8167569680278	-0.883047392001138	86.592763011983	-0.898790760344221	86.6320006263479	-26.4398561156829	-13.1593727477484	
998900000	-26.7824801318586	-15.7077203588362	-0.883533760826902	81.7906198876394	-0.905068229948657	81.8884268976079	-26.8296001212601	-19.4196544758696	
1000600000	-27.2061592775502	-19.286634991021	-0.885793190363095	77.0745477960833	-0.901400678359101	77.0832528797051	-27.2663162217803	-24.0278272940589	
1002300000	-27.7119094739916	-22.6180705153671	-0.882407937461504	72.2901925112179	-0.902622750371197	72.3978220123095	-27.6478684358904	-28.9639883201238	
1004000000	-28.1364752273678	-26.2430387042815	-0.880815744470925	67.5654736350317	-0.89050404720793	67.6430527701591	-28.0720461972662	-34.0462706363503	
1005700000	-28.5986187867359	-29.4310295785915	-0.88525275727247	62.7391449020969	-0.891323723545244	62.8214779111136	-28.6112398968296	-38.6119977665991	
1007400000	-29.0367616660266	-32.2742408807354	-0.884625429484505	57.875869020553	-0.886660022136657	58.0274846644323	-29.175067094937	-43.5847510677777	
1009100000	-29.4514702122173	-34.6960981915224	-0.883442146471096	53.2127387384098	-0.887970530690052	53.2850230513428	-29.5893005478323	-47.8693866043188	
1010800000	-29.9394116077745	-37.2482537383035	-0.889148967704464	48.4313409367037	-0.89073644899602	48.535793600342	-30.2587930906224	-51.3851700072877	
1012500000	-30.401611537734	-40.3756173672912	-0.879170635352525	43.6905236443725	-0.893567705524114	43.6947666377124	-30.8786792488601	-56.1098907298194	
1014200000	-30.7093687109268	-42.9467042841706	-0.88878033452757	38.9553300754922	-0.887041115508531	39.0106154633196	-31.3612432907359	-59.758037021212	
