!Keysight Technologies N9950B: A.12.38
!Date: Tuesday, 25 April 2023 12:36:12
!Timezone: (UTC-06:00) Central Time (US & Canada)
!Model: N9950B
!Serial: MY61131330
!GPS Latitude: 
!GPS Longitude: 
!GPS TimeStamp: 0001-01-01 00:00:00Z
!GPS Seconds Since Last Read: 0
!CHECKSUM:0924481804
!Correction: S11(Rdy)S21(Rdy)S12(Rdy)S22(Rdy)
!S2P File: Measurements:S11,S21,S12,S22:
# Hz S DB R 50
800000000	-21.2688707864567	165.451084779903	-0.964445066708638	-84.7552091134618	-0.964211049211229	-84.7592138753944	-20.9198687244803	-156.492064286707	
801700000	-21.1038183871909	160.789756779418	-0.957323311628363	-89.5836801725732	-0.956939232903304	-89.5483104965902	-20.7445288567933	-161.912291389831	
803400000	-20.8981096126405	156.127634599468	-0.960038971174926	-94.2982745288311	-0.972067781610094	-94.2394457126853	-20.6104110912876	-167.60587788424	
805100000	-20.7465568921037	151.168132194779	-0.957052340759262	-99.109331235771	-0.977086461266833	-98.9140615538615	-20.4468827376906	-172.864701091567	
806800000	-20.5308849872116	146.404118581524	-0.957269163271998	-103.762355746779	-0.978591525044297	-103.748926119885	-20.2917756240694	-178.309709719786	
808500000	-20.4121300451878	141.702557059378	-0.973340555890107	-108.534154114054	-0.979410917999736	-108.464489453378	-20.1899035120068	176.29936930552	
810200000	-20.221062984577	136.618982068709	-0.975617298184886	-113.354267864524	-0.97981341514697	-113.286988283842	-20.0575458691956	170.618913432716	
811900000	-20.10586977279	131.77068808493	-0.977048816921152	-118.057393048908	-0.983623528678927	-118.022133984784	-19.933007629867	165.121108471712	
813600000	-19.9619018009702	126.859132558588	-0.973750100351508	-122.81227888665	-0.994100914324385	-122.712630294793	-19.8267032528353	159.927994684666	
815300000	-19.8178466607518	121.929599744384	-0.973504865903356	-127.48283771333	-0.990976127739891	-127.451618289863	-19.7128357831372	154.299337851165	
817000000	-19.6772002466162	117.229874614703	-0.977362851979695	-132.341856077385	-0.98754551707618	-132.311301944407	-19.6112965421327	148.723924483563	
818700000	-19.5992492780825	112.224075517271	-0.989654911375854	-137.086612138684	-0.994093917440115	-137.010900100473	-19.5317652852212	143.129188561051	
820400000	-19.5027359506898	107.452988847004	-0.995808961628571	-141.886346112395	-0.997825861793234	-141.655926041801	-19.4422237936736	137.957621538064	
822100000	-19.4095455523724	102.650155157231	-0.982564747621806	-146.544156408134	-0.989433015472324	-146.4657374995	-19.3528468740348	132.290837338032	
823800000	-19.3148795203893	97.6896038118761	-0.989301695920127	-151.276087107628	-0.998077668277874	-151.210359364721	-19.2805939006405	126.83235740918	
825500000	-19.2564893041142	92.8159739158641	-0.974020459380788	-156.095512233404	-0.999361433561983	-155.875495154338	-19.3079006507836	121.606268177204	
827200000	-19.2229409815452	87.8455207275486	-1.00094111045291	-160.772641721504	-0.998912199103887	-160.708438456338	-19.2263110688916	116.193215170846	
828900000	-19.179965805802	82.8868473115285	-0.980802382804694	-165.535346113744	-1.0024976179613	-165.460101620586	-19.1895986434245	110.864966304509	
830600000	-19.188849083088	78.0038136682686	-0.998321759737007	-170.230625296821	-1.00789399398434	-170.141006021263	-19.1820837347068	105.22575394543	
832300000	-19.1412469504026	73.0303856978037	-0.987625729346265	-175.007146338818	-0.998229382888041	-174.971248944166	-19.1581247694572	99.9210043744967	
834000000	-19.1186422748073	67.8207703096935	-0.99467920004806	-179.832148387408	-1.0047609476634	-179.667922950807	-19.1872659173043	94.5047293354966	
835700000	-19.1544646965277	63.0375230632945	-1.00139619110589	175.514906375235	-1.00306021011902	175.530704093052	-19.2016056218952	89.2069449858406	
837400000	-19.1691991456497	58.0923189635156	-0.987818417346272	170.648238944752	-1.00914091359509	170.795861935103	-19.2038851731576	84.03689869364	
839100000	-19.191741070914	53.1781783933992	-0.993639937148198	165.9957295275	-0.997158492768165	166.094495501299	-19.2436280059758	78.8224681914458	
840800000	-19.2179397912708	48.2816287924526	-0.995654904208739	161.227546185945	-1.00604475638699	161.250030395709	-19.2996083837668	73.6375855929396	
842500000	-19.3047375350163	43.3296951792083	-1.00548580333056	156.492701246853	-0.996076092670626	156.555556610235	-19.3583724243291	68.454060291032	
844200000	-19.3626936726588	38.4998312790973	-0.985176175716639	151.824848608825	-1.00457249234706	151.797456015402	-19.4334193378568	63.3993240725346	
845900000	-19.4360171369034	33.4375106012719	-0.996834648672171	147.025302798999	-0.986287823442721	147.049958626393	-19.4996210058818	58.3299870640125	
847600000	-19.530932284396	28.5996666382328	-0.994585266926894	142.279978185594	-0.997267457485945	142.29970856432	-19.5935223575532	53.1323244696108	
849300000	-19.6170339684107	23.4105941445679	-0.992908426931049	137.504497866913	-0.991706989633448	137.53045429039	-19.7078387659324	48.325933295209	
851000000	-19.7142973179735	18.2639299709998	-0.983647488667319	132.781542869771	-0.993879747516271	132.727688461397	-19.8121861179365	43.2460938815045	
852700000	-19.8340294568793	13.2123826556782	-0.98004152570443	127.949200948968	-0.992824938028744	127.972070003832	-19.9695159962493	38.3579994063019	
854400000	-19.9663825641357	8.3630601396082	-0.983997268309123	123.279275975899	-1.0061884790885	123.213142482561	-20.1104503200176	33.584844005628	
856100000	-20.1145533001746	3.31555141218799	-0.987257985584774	118.52982227735	-0.98417811174421	118.478044507225	-20.2205105498746	28.6478282537666	
857800000	-20.253840600388	-1.74398244865157	-0.976265449422795	113.755545911368	-0.98408176936548	113.712302723701	-20.3774448702075	24.1669222254543	
859500000	-20.4036633529414	-6.82574282694096	-0.967011058795864	108.978414212682	-0.986386681940533	108.93965965396	-20.5403893489057	19.4813709084791	
861200000	-20.5586803064827	-11.9289740467022	-0.975436544201694	104.263555954139	-0.983398657356568	104.163866850327	-20.6836008945127	14.8039585550203	
862900000	-20.7845694756532	-16.7498175859084	-0.967222666226049	99.4549990238573	-0.978840471971138	99.4270962549052	-20.8630445040066	10.2399655097297	
864600000	-20.9364781464203	-21.8220484720867	-0.977009882826015	94.711049096871	-0.983647144980381	94.5810644728	-21.0343212784698	6.08732513889927	
866300000	-21.1033921222687	-26.90156581451	-0.970926598621726	89.9115571670654	-0.973243104084522	89.8313992623702	-21.2482072603149	1.51496531343458	
868000000	-21.3200304552909	-31.8599240567301	-0.978369509951923	85.1855671479733	-0.975726975062396	85.1339431877921	-21.3912080488343	-2.61120638883169	
869700000	-21.4835160749627	-36.8679867005275	-0.960669279289274	80.398078484628	-0.9696347888419	80.3255922441474	-21.6083542299388	-6.56043781797454	
871400000	-21.6697883834754	-41.9956595604197	-0.97962981638135	75.6184026639821	-0.985476733666517	75.5149113571911	-21.8005190225334	-11.1236846165705	
873100000	-21.8841600725952	-46.9651669238433	-0.970218452735167	70.7937034397766	-0.989795215794933	70.7748312721849	-21.9890002202491	-14.8316326573348	
874800000	-22.0342004697047	-51.975328037969	-0.963378886164534	66.0274993812955	-0.973193930694346	65.9699292139533	-22.1792815110775	-18.6304677719131	
876500000	-22.250477390889	-57.1550288900836	-0.98144804455299	61.2587601663022	-0.976108063223268	61.2182447815719	-22.3560744215798	-22.3291493136795	
878200000	-22.427190306065	-62.153616590516	-0.966887367021948	56.4917349459579	-0.979972746327646	56.4440095409202	-22.5240021362244	-26.0893630794766	
879900000	-22.5702867859873	-67.0944770366136	-0.964279378993039	51.6676866246406	-0.989989466843066	51.6269189337137	-22.6789967935488	-29.7634211075175	
881600000	-22.7874033141104	-72.3777668272186	-0.970282951209621	46.8758890821727	-0.971797718073476	46.9053326953381	-22.7888842431829	-33.2599378446222	
883300000	-22.9030149873111	-76.9078628527888	-0.966120314516624	42.1374269164966	-0.977734895233253	42.1371494099529	-22.9578125866572	-36.9676661443584	
885000000	-23.012377157934	-82.2464081874839	-0.964081714942299	37.3462979308831	-0.973231411439087	37.3452314542756	-23.0447276278009	-40.1390228278001	
886700000	-23.1417154453371	-86.9271879617283	-0.973694019842271	32.5298788137972	-0.980830740461172	32.5883296699183	-23.198491278326	-43.700723653691	
888400000	-23.2938781434529	-92.1050057943608	-0.968783329823023	27.7459419062052	-0.976561780820936	27.8289751799238	-23.2020128532408	-47.1102875568718	
890100000	-23.383201561039	-97.2713436231229	-0.967525977092789	22.9502714901509	-0.983717692278668	23.014044663291	-23.2897452732272	-50.4302275130275	
891800000	-23.4718698146449	-102.007793582902	-0.969946445153301	18.1756197165694	-0.981688437159887	18.2183835931391	-23.2954214794923	-54.1169910787679	
893500000	-23.5008100544951	-106.895399192667	-0.985896083607332	13.3998290291517	-0.983391868104326	13.4348247228594	-23.3712298816951	-57.4256878184942	
895200000	-23.5735960479832	-112.085592490943	-0.977492292788549	8.67622202730404	-0.995492218060736	8.69756896985144	-23.2876609520412	-60.5082785716861	
896900000	-23.5673592362017	-116.500558343188	-0.986246273000634	3.82870644119531	-0.983995677435103	3.95596362070972	-23.2661179845988	-64.3011578554828	
898600000	-23.5611344329661	-121.432446911259	-0.984055447800529	-0.903586421415354	-0.996503347708736	-0.795144428139111	-23.228956964883	-67.7014905979919	
900300000	-23.532873983109	-126.273727762788	-0.984274339064636	-5.61728463090784	-0.981488069043055	-5.60187648229611	-23.1097854049409	-71.6422257938778	
902000000	-23.4850373135849	-131.002434298921	-0.99229357111561	-10.3666540718577	-0.994358990977196	-10.4112308606658	-22.9731852254028	-75.4480488254684	
903700000	-23.3973264705428	-135.808862989909	-0.990419217697754	-15.2141758386335	-0.999368617812763	-15.1897396799546	-22.8758812811881	-79.1946964916534	
905400000	-23.2963822264054	-140.526523122386	-0.994080033847467	-20.0141398426415	-0.992415100020006	-19.8982469492154	-22.7506677168127	-83.3256135815459	
907100000	-23.1646755611173	-145.312881021977	-0.99316932797422	-24.8282307641088	-0.995979030611165	-24.7366634243883	-22.6152784191237	-87.6129276578754	
908800000	-23.0500316472012	-149.943727099152	-1.00169961998604	-29.541111229449	-1.00621666951005	-29.5136341073268	-22.4541207661661	-91.8011396179625	
910500000	-22.9383961699173	-154.686197254957	-1.00962517600497	-34.3210879199729	-1.01235532755707	-34.3071247208977	-22.3081556015505	-96.1699384016792	
912200000	-22.7351011449283	-159.265177949467	-0.994153747562752	-39.0485427779411	-1.0064646166176	-39.0876740158062	-22.1404006358505	-100.794966083007	
913900000	-22.5187135410342	-164.137402429372	-1.00330805245241	-43.8395792991043	-1.01599248109527	-43.9249290941356	-22.0241777021551	-105.391331291137	
915600000	-22.3609416478304	-168.688945204415	-1.01756529739641	-48.6601468217959	-1.01568821732008	-48.6361840578106	-21.769278935969	-110.444422693641	
917300000	-22.1718020018934	-173.389683448643	-1.019347749685	-53.4613399149288	-1.02258588470677	-53.4103730157787	-21.5896985859101	-115.434625182403	
919000000	-21.959090943961	-177.750191432402	-1.01741760331766	-58.1655474453913	-1.01842463391561	-58.1795544552851	-21.4227294349804	-120.036527767701	
920700000	-21.7186379735474	177.149470566913	-1.01072031874946	-62.9525321956379	-1.03253264223451	-62.9633862440422	-21.2973657335199	-125.085448045103	
922400000	-21.5001467746991	172.572301639944	-1.01916454255691	-67.720018711894	-1.03262255038438	-67.6786482928524	-21.0828331843838	-130.458450937823	
924100000	-21.3171934230409	168.200964537745	-1.02140730860664	-72.4494902809936	-1.02440110556933	-72.5331346475223	-20.8769020220039	-135.46331686785	
925800000	-21.080326370636	163.427684188742	-1.03966603475402	-77.2625147060921	-1.04385342799684	-77.2442725370263	-20.7357456629368	-140.652467514933	
927500000	-20.8640314346783	158.539472201694	-1.04056915800155	-82.1052260617109	-1.04460936943487	-81.973255355227	-20.5214819012418	-146.396293960949	
929200000	-20.6748879797699	153.695122757875	-1.03743201866038	-86.8630079666725	-1.04227755632748	-86.741697896998	-20.375031392483	-151.303276980483	
930900000	-20.4340036589076	149.188476076028	-1.04468583215947	-91.6228674776494	-1.04612669543467	-91.4225021692098	-20.1940382619181	-156.600779913874	
932600000	-20.2742197711757	144.434702142571	-1.05413929092859	-96.3782608068067	-1.051061780524	-96.2141273263863	-20.0637175172988	-162.101500937821	
934300000	-20.0213766688913	139.917986487572	-1.05421998083459	-101.12327806711	-1.0593556905852	-100.927858622615	-19.871234705978	-167.45586290714	
936000000	-19.8582742522927	135.200010804087	-1.05595872644528	-105.821067771948	-1.05710875427291	-105.72164915243	-19.7203656287296	-173.108009343524	
937700000	-19.6783878233686	130.286755186866	-1.05767670835351	-110.709475044248	-1.05773373860734	-110.471014754282	-19.571728561945	-178.462392806393	
939400000	-19.4643746953914	125.791405910294	-1.05606737338289	-115.385001155179	-1.07341266724993	-115.314882781037	-19.4280878386105	175.998680440165	
941100000	-19.334145179784	120.876270876225	-1.07454093238505	-120.16731961077	-1.06821775607917	-120.027407729809	-19.2593894749839	170.319296857197	
942800000	-19.1636740224761	116.434462698591	-1.06650872680009	-124.873979006599	-1.07414258383353	-124.766110632017	-19.1482301832584	164.987696724674	
944500000	-19.0276704926121	111.438896278834	-1.07493001130506	-129.584553723519	-1.08230171204976	-129.457111732538	-19.0463817619855	159.558026673588	
946200000	-18.8679596500725	106.938020650652	-1.07488996550607	-134.345281899736	-1.08066962253215	-134.223427337783	-18.9451151815702	153.999459998761	
947900000	-18.7615379949847	102.082370040441	-1.09079841763673	-139.049461815165	-1.09588356000712	-139.007698652844	-18.8234336248308	148.412086385868	
949600000	-18.6302203037162	97.3796092256234	-1.08572223990622	-143.828967968006	-1.08821314323971	-143.738760841036	-18.7439107013426	143.003157226742	
951300000	-18.5236833808161	92.6474845846915	-1.08886141088171	-148.584915709169	-1.08507239194026	-148.543011343629	-18.6502518478184	137.579935617075	
953000000	-18.4307811607442	87.9248715779959	-1.07989345413725	-153.337965875589	-1.09339302825714	-153.273734266828	-18.5773993269775	132.050553943161	
954700000	-18.3114615486118	82.9698934049515	-1.08993332734803	-158.042157195276	-1.09261938381065	-157.908515397939	-18.5487840017559	126.615523487236	
956400000	-18.2322687448043	78.4024354130316	-1.08557939904282	-162.738513562876	-1.08284178674528	-162.733439392174	-18.4975023292188	121.463588476846	
958100000	-18.1906939960578	73.7796571697545	-1.09441412838669	-167.417595588695	-1.09595875621433	-167.466994480064	-18.4844425165021	115.977133752077	
959800000	-18.1136512300319	68.9594969840685	-1.0848223863446	-172.203597605295	-1.09063010965935	-172.203316715055	-18.4343684847912	110.635270599188	
961500000	-18.0726200249799	64.2744255810538	-1.09267171778439	-176.861874185449	-1.09551807466292	-176.88358828555	-18.4047550029454	105.297582833762	
963200000	-18.0436399808339	59.3895570456766	-1.08583571479977	178.370648998461	-1.09229327505462	178.297065847562	-18.3975007272763	99.9960690685062	
964900000	-18.0361255264189	54.7142380863999	-1.08419763333078	173.680177567316	-1.09896053603213	173.56324644742	-18.4191885598074	94.715046138352	
966600000	-18.0106268589552	49.7868632666409	-1.07732546471636	168.830642855193	-1.08231319986405	168.871391245483	-18.4205332397775	89.3156958708647	
968300000	-18.0393586561065	45.0410838302673	-1.08155938136969	164.146600915615	-1.08890468604419	164.095172805996	-18.4481213692779	84.2433670117825	
970000000	-18.0801035836346	40.0932976569953	-1.08742542336058	159.441213886897	-1.09490947755178	159.355967387777	-18.4932622057674	78.9895109539932	
971700000	-18.0698739881828	35.3002820168843	-1.08328136761551	154.668924080587	-1.08501900513461	154.52647077453	-18.4760153235799	73.7546215421438	
973400000	-18.11521674325	30.5999611379856	-1.0820009002186	149.895572985109	-1.08815366692872	149.813759445757	-18.5275623656177	68.7322455789789	
975100000	-18.2041336923836	25.9079816619777	-1.07446797762979	145.151962677772	-1.08698154688545	144.997742459117	-18.584717848478	63.6422801376229	
976800000	-18.2642738198774	20.9489965166736	-1.09545361987828	140.379363999616	-1.07990399226488	140.287499765127	-18.6654769230536	58.5676712598287	
978500000	-18.3496520263815	16.179724800807	-1.0778058578117	135.709459458522	-1.07884163126056	135.540297891543	-18.756049055202	53.5413725707156	
980200000	-18.4251296059472	11.2069006553829	-1.07162973370045	130.904145447789	-1.07780902524883	130.73606274823	-18.8562847156891	48.5064560744284	
981900000	-18.5235244499449	6.45741570969525	-1.07920577086751	126.187888051203	-1.08224038083104	126.089252830925	-18.9647681007756	43.6114015974964	
983600000	-18.6777308107731	1.5966685775693	-1.08115035433233	121.429984062566	-1.07626065459345	121.324550712318	-19.1048694061872	38.5170204491784	
985300000	-18.8071382872035	-3.22988861014416	-1.07335194802962	116.599693325444	-1.07551766920746	116.5766879708	-19.1761050676009	33.6234025878763	
987000000	-18.9368793345269	-8.23633442743209	-1.06908058734613	111.795278409715	-1.06839337489258	111.774596200851	-19.3282330560582	28.7386146802432	
988700000	-19.0752013757609	-12.9137901966514	-1.06481884794038	107.047869185862	-1.06232782052535	107.028341237554	-19.4618800135968	23.9407967184022	
990400000	-19.2177780910829	-17.9467239817916	-1.06675616113424	102.252420954068	-1.07713866333285	102.264222276421	-19.6040689114405	19.5618336358158	
992100000	-19.3869889554898	-22.6730877749035	-1.05867265340879	97.5857507184077	-1.06809780996702	97.4575832537356	-19.759456376473	14.6960067787508	
993800000	-19.5695676347628	-27.6817236966739	-1.06232574139189	92.7731760230287	-1.05998991721625	92.7426092710144	-19.9305669622351	9.91469311584883	
995500000	-19.7731734328512	-32.5258629511015	-1.05559770506546	87.9116956515931	-1.06630812779249	88.0210607584912	-20.0851891797945	5.67280441488207	
997200000	-19.9409730371982	-37.0266718090998	-1.05983370356509	83.1685185830655	-1.05457506501013	83.2315617786553	-20.2679710032585	1.15469918316442	
998900000	-20.1220128595422	-42.0950537826588	-1.0516918414358	78.4836322804905	-1.05775341827095	78.4923339510327	-20.4869514090742	-3.56531434190033	
1000600000	-20.3310989484903	-46.9600392610168	-1.06293522602744	73.600075763516	-1.05888472651693	73.6587705848131	-20.638133783594	-7.76947579958019	
1002300000	-20.5225492034964	-51.8857849021519	-1.05550007966331	68.7807661919914	-1.05817271536776	68.9248306881989	-20.868709115654	-11.7324136547892	
1004000000	-20.7141513124894	-56.6695801054077	-1.05687728527655	64.0217892101745	-1.05369734400441	64.1145832358374	-21.0291324193037	-16.1520185286249	
1005700000	-20.9011950524792	-61.5538495554942	-1.04952022646807	59.3021631679004	-1.05979455008801	59.3624943174881	-21.1977637061951	-20.3898803183673	
1007400000	-21.1490219457012	-66.2867438950277	-1.03526566123051	54.5498488273637	-1.06632194667948	54.5932495456119	-21.3779125376246	-24.6072406218248	
1009100000	-21.3343005173687	-71.2370994996075	-1.04458023710323	49.6901506315349	-1.07053524993122	49.696768483551	-21.5524556754056	-28.5495362685184	
1010800000	-21.501695751395	-75.95436693758	-1.04488455377085	44.9651520156375	-1.05257417053913	44.982396476762	-21.6963181369031	-32.6065063377428	
1012500000	-21.6971630937331	-81.2870120264909	-1.04596814824849	40.1097638335752	-1.05462961176271	40.1898372844641	-21.8505747691246	-36.5007943511559	
1014200000	-21.8399652937116	-85.7501741292517	-1.04965124750605	35.3829102951216	-1.06392678679532	35.4173924260014	-22.0113119150081	-40.2117850998184	
1015900000	-22.0566052092315	-90.6805506350148	-1.0475908670738	30.6270039425824	-1.05454585346859	30.6246663169681	-22.1324397139164	-44.2798746111851	
