!Keysight Technologies N9950B: A.12.38
!Date: Tuesday, 25 April 2023 12:11:57
!Timezone: (UTC-06:00) Central Time (US & Canada)
!Model: N9950B
!Serial: MY61131330
!GPS Latitude: 
!GPS Longitude: 
!GPS TimeStamp: 0001-01-01 00:00:00Z
!GPS Seconds Since Last Read: 0
!CHECKSUM:0754912636
!Correction: S11(Rdy)S21(Rdy)S12(Rdy)S22(Rdy)
!S2P File: Measurements:S11,S21,S12,S22:
# Hz S DB R 50
800000000	-25.7198212017423	144.42167071609	-0.881538109157106	-82.6675911878765	-0.884156442249629	-82.586322529832	-23.9676632992231	-126.416048166962	
801700000	-25.4448775826921	140.507126538008	-0.87854655786303	-87.3371003994366	-0.88453355857315	-87.3446700238587	-23.8182245700176	-132.623197950677	
803400000	-25.1215946179552	136.713757015782	-0.877586704898524	-92.0907067769249	-0.891360095108976	-92.12763929593	-23.6969687981127	-138.795779307942	
805100000	-24.8914147784936	132.293847569076	-0.88389319483776	-96.8727281394348	-0.888423093370743	-96.7606635925475	-23.5407487485253	-144.92161493562	
806800000	-24.6255013461666	127.617330813851	-0.888508005112661	-101.600925963956	-0.898237771529	-101.53890158209	-23.4676468854744	-150.981806146613	
808500000	-24.3581321543107	123.695506662744	-0.882376842268507	-106.29623416323	-0.897333758785044	-106.280604791869	-23.3270623230026	-157.060064045413	
810200000	-24.1662006206234	119.151165938025	-0.893618130800654	-111.039626167667	-0.895672253472217	-110.993600934571	-23.2396003188151	-163.205479411559	
811900000	-23.8983159543251	114.377216046963	-0.898440422650362	-115.825263923715	-0.892215923964111	-115.809031985267	-23.1046633953863	-169.48705164452	
813600000	-23.6969463832263	109.995184189326	-0.887951997009443	-120.593849139105	-0.899229881067468	-120.529005233805	-23.0381535331634	-175.646639779116	
815300000	-23.5117652074438	105.045135172137	-0.89983455033817	-125.386087904393	-0.902321436167302	-125.353108499705	-23.0099833658459	178.153293479867	
817000000	-23.3486082978576	100.602398548382	-0.895857439180358	-130.188030179971	-0.914486734185183	-130.100730057853	-22.909273332617	172.109525479547	
818700000	-23.158419069886	96.1230520222882	-0.902735575052912	-134.865650333293	-0.910960307136766	-134.802092387699	-22.8386155455912	166.253327742994	
820400000	-23.0666058832844	91.3005172409471	-0.903585234236511	-139.548856348624	-0.916523187622893	-139.596327428449	-22.793082645697	160.098734002903	
822100000	-22.8693671185038	86.4542068016702	-0.906591865173574	-144.31320361005	-0.910332391859603	-144.232428760371	-22.747631573388	154.318918975872	
823800000	-22.7651628938542	81.7945612939715	-0.911474289583202	-149.143883502672	-0.920296426584075	-148.987584128833	-22.749853222308	148.286064925739	
825500000	-22.6666128677567	76.8654660888743	-0.908467685981638	-153.928702309864	-0.917089816961151	-153.790290600508	-22.7041505472396	142.611726085866	
827200000	-22.5859623154261	71.9252261163093	-0.909405262148451	-158.638704802479	-0.90166358788008	-158.496305868913	-22.673724392916	136.779934572514	
828900000	-22.5032400477318	67.1083969693039	-0.91490867892296	-163.444806689401	-0.913873342797777	-163.329281691335	-22.6955538073049	131.088268864792	
830600000	-22.4209405765555	61.921161075286	-0.907823557103859	-168.108105623948	-0.925329269598676	-167.997055401228	-22.7183626787429	125.270267403291	
832300000	-22.4442324579	57.0652234604726	-0.914963109129371	-172.863353417993	-0.915020716261665	-172.829353604549	-22.7522081141206	119.764400558276	
834000000	-22.4378911314298	51.8710830567786	-0.913727225963205	-177.563927991683	-0.912806793716694	-177.483488618895	-22.782219934267	114.134882255324	
835700000	-22.3823897274396	46.7132491293182	-0.919007079446461	177.576202704898	-0.909670297466954	177.774632946089	-22.8778915411341	108.894878095374	
837400000	-22.4176917651673	41.6112134104856	-0.915280103137773	172.833444907286	-0.910898224566167	172.909672534129	-22.9510239513735	103.04526082129	
839100000	-22.4558431064773	36.6994650413362	-0.911339836998046	168.123612353189	-0.912302358508316	168.237904659207	-23.0117486821792	97.6428055020724	
840800000	-22.5158214643223	31.4260213583906	-0.912628646917816	163.451177535608	-0.915283491991538	163.471808946918	-23.1372822645903	92.6356032781325	
842500000	-22.5349200270705	26.1965601756139	-0.908617205479903	158.703025416989	-0.91172622506522	158.673471519061	-23.2535866063197	87.4638547031965	
844200000	-22.591395889856	20.5745351257384	-0.905317789467488	153.946230121851	-0.917631633313622	153.97896766886	-23.3993368765637	82.2055476649669	
845900000	-22.7647161698859	15.2358189012816	-0.895680615043917	149.117331256504	-0.914033877501843	149.186140239038	-23.5391435928622	77.3216174081949	
847600000	-22.827387658607	10.0637591723045	-0.913874310262534	144.45665951507	-0.904667387217224	144.374472846744	-23.7600048403303	72.2972166849666	
849300000	-22.9925920740161	4.56335801172535	-0.908288513766428	139.607161261354	-0.908299680705678	139.67994762559	-23.8738282408343	67.5604956125518	
851000000	-23.0546430910133	-1.45808058598132	-0.905467187399445	134.891578789845	-0.912812115350357	134.928556730325	-24.1360112938262	62.6084647181751	
852700000	-23.2219804883831	-6.76626013515471	-0.904689729217818	130.208235500072	-0.910860821324682	130.165544650968	-24.3449742360352	58.2054508936306	
854400000	-23.3661235456787	-12.5735682835013	-0.900302384500108	125.370008733313	-0.906475230594289	125.356195273039	-24.5925805443096	54.0762309460736	
856100000	-23.548930953022	-18.145261940154	-0.902050878908328	120.640372382979	-0.912606678683747	120.720517577531	-24.8895689840826	49.552112709421	
857800000	-23.7269869936642	-24.1484770673284	-0.90068310026468	115.93917085645	-0.923377394000714	115.934760893298	-25.1324514850946	45.5967402092201	
859500000	-23.9390142256457	-30.054147800609	-0.897529773683303	111.156252787881	-0.9083185970621	111.110102213401	-25.3259006356481	41.8731641334711	
861200000	-24.1828398330544	-35.8785500032171	-0.902984151862963	106.377456555848	-0.905765273095835	106.364600782838	-25.6285516196549	37.9470291211426	
862900000	-24.3136193919196	-41.752794372223	-0.900937637467783	101.598676423708	-0.898780619845975	101.598899609754	-25.9468769809105	34.4392450685153	
864600000	-24.6081223739405	-48.0506018874415	-0.898602880854465	96.8423107555515	-0.91045715051156	96.8062044871832	-26.1670234102488	31.2094449080536	
866300000	-24.7978176749572	-54.2865839721641	-0.910662220818773	92.08916197146	-0.915637152085633	92.0689234274784	-26.4892478243596	28.3054104468967	
868000000	-25.0251552993228	-60.378748695476	-0.904706167038871	87.2976604169623	-0.911786558890345	87.2749112188117	-26.7636691918805	25.0741779385076	
869700000	-25.2725565930209	-66.8336884637484	-0.906865674178197	82.5771138151638	-0.907502751436499	82.4996973569252	-27.068622618549	22.5062331061603	
871400000	-25.5215394421122	-72.781001239269	-0.91107780369683	77.7870750307367	-0.911137798996669	77.7850265913902	-27.2815758109889	19.9578661791562	
873100000	-25.7109098609382	-79.311010570474	-0.894541706260028	73.037711672315	-0.908036061979616	72.9331922610536	-27.457344735494	18.0295839529998	
874800000	-25.9217026385642	-85.5163510966591	-0.898192730695891	68.320723464277	-0.910723626612924	68.2149352557176	-27.6475096201501	15.8959743422984	
876500000	-26.1696974455152	-91.880057998365	-0.911864702817039	63.4482188575916	-0.918145814144799	63.3987362440319	-27.8248276040944	14.3982580635323	
878200000	-26.3240039193967	-98.0170912924211	-0.908117409013784	58.6990165513387	-0.925962987493818	58.6814099998526	-27.9881901106832	12.7647633630932	
879900000	-26.5638794336711	-104.529268756348	-0.910683301241452	53.9662156389738	-0.905788638850075	53.8866596670109	-27.983100918883	10.6197572969451	
881600000	-26.780356808849	-111.165929388177	-0.91515692643099	49.1456648437434	-0.910465728966385	49.1565349485706	-28.0090333162963	9.45721958246394	
883300000	-26.9161942033536	-117.110175181972	-0.903392480212671	44.3844608215326	-0.906195696862068	44.3431328917449	-27.9863728894406	7.43206721423569	
885000000	-27.0377581290355	-123.167238909168	-0.910929238967762	39.639835094291	-0.920358805972615	39.6396294433995	-27.8914606164077	5.71222167881827	
886700000	-27.0464274910324	-130.082833829265	-0.906420558514382	34.8869911581906	-0.91790246325092	34.8537929685988	-27.7366942339377	3.67035661762055	
888400000	-27.2064755877389	-135.816361462021	-0.924890759977821	30.0989693387368	-0.926416478203135	30.1055040453678	-27.6070476541177	1.37397891105596	
890100000	-27.2997929290681	-141.713252151365	-0.921326253887352	25.3268553515477	-0.920718554943934	25.3200859726664	-27.3883008757463	-1.32051140965657	
891800000	-27.3627066470943	-147.465134199065	-0.920040164138191	20.5046403377697	-0.924686176342774	20.5898335235693	-27.2240203286323	-4.11113789182169	
893500000	-27.4888893298969	-152.856403151674	-0.928094028575397	15.8289791827426	-0.924019170903534	15.8225467401087	-26.9907428785519	-7.05479983572541	
895200000	-27.4832767490067	-158.382753733228	-0.903734124111922	11.056412363442	-0.923865043315053	11.0448817847824	-26.6706562250234	-10.26599540672	
896900000	-27.5051499394006	-163.186521812119	-0.927630780276817	6.25885877462213	-0.93043836849216	6.30348923105904	-26.4586140982903	-13.6905028551159	
898600000	-27.4717995927402	-168.737990074613	-0.915003948522659	1.48477132874329	-0.934864888624068	1.53121064727523	-26.2131367382983	-17.4707133501004	
900300000	-27.5510169204548	-173.233330074446	-0.927831279084726	-3.28573988053213	-0.91886070856187	-3.19575378312179	-26.0228180934552	-22.0635206504581	
902000000	-27.4398315007486	-177.780167095484	-0.926188206752321	-8.01945328694634	-0.924460693189827	-7.98450757897362	-25.7517279173642	-25.8900657432535	
903700000	-27.2859121896695	177.794671845018	-0.918652298656374	-12.7694468596533	-0.93052038756225	-12.7492567593033	-25.5019694951156	-30.4695425010282	
905400000	-27.2278266119756	172.966683800808	-0.922841218100541	-17.5498695487061	-0.936785493958564	-17.5111717164775	-25.3001608748472	-34.9736141270725	
907100000	-27.1402323523892	169.63554188526	-0.940263953802216	-22.2395422930617	-0.933432292637637	-22.3172113427578	-25.0843720323704	-40.0833269398843	
908800000	-27.0909069769935	165.343110024518	-0.927543866477248	-27.0444985620493	-0.942815712031465	-26.9937168881334	-24.8440165289508	-44.7168617764171	
910500000	-26.9433585953277	161.723616263049	-0.930838191742707	-31.7546230623068	-0.945372382256205	-31.8246850776977	-24.6417784077354	-49.9449721178738	
912200000	-26.7804658056448	157.965817441502	-0.932656375669755	-36.5216602855797	-0.949441052605291	-36.5873124631551	-24.4329026730349	-55.5252216064937	
913900000	-26.5697780209065	154.215339150075	-0.921499085200406	-41.3783221812353	-0.944997843378797	-41.4039341899421	-24.2386717910574	-61.0256904758337	
915600000	-26.3399153067489	151.283331038372	-0.936293857349312	-46.1196608289483	-0.937935079417189	-46.1039768701077	-24.065450502807	-66.7924363304747	
917300000	-26.1540315193664	147.75433389414	-0.931665160062065	-50.8478023669052	-0.94424401731835	-50.9450941490352	-23.9027269421352	-72.3306752132682	
919000000	-25.9191103763298	144.240047009436	-0.948635168245365	-55.697790203128	-0.950384545155222	-55.635105592556	-23.7299910885512	-77.8861618460776	
920700000	-25.7140031013909	140.981046051031	-0.939476534196863	-60.4639610654845	-0.941521630639019	-60.3613513864317	-23.5438065522052	-83.7628927260339	
922400000	-25.5044817651029	137.515614996765	-0.94971301735535	-65.2200721961242	-0.944648647333558	-65.1849541133228	-23.4428743919751	-90.1203243256751	
924100000	-25.204383911014	133.921893959767	-0.943374729303187	-69.9588449275611	-0.948883065782051	-69.9089486008601	-23.2833601598046	-95.6972703224251	
925800000	-25.0029003200503	130.750576545529	-0.943147315030451	-74.8000417906464	-0.955609416939517	-74.7477540967171	-23.14089107033	-101.780824328392	
927500000	-24.7015960794399	127.283815215432	-0.948694148673474	-79.5371344261534	-0.956652236448745	-79.4680038806632	-22.9965745993469	-107.977593185242	
929200000	-24.4265553525494	123.652577310469	-0.950475090299846	-84.3283625822844	-0.961659639805971	-84.2148886168962	-22.8870175533644	-114.331767481234	
930900000	-24.1982122376462	120.194072810294	-0.960744281264892	-89.0200578079092	-0.958145825983744	-88.9440832039113	-22.7451500168342	-120.254763020414	
932600000	-23.9270431610889	116.127162934064	-0.961871966127202	-93.7766961749974	-0.964062798901713	-93.6642685182539	-22.650707342404	-126.622920752378	
934300000	-23.6714861743504	112.460442929886	-0.969407241177136	-98.5543736482458	-0.965228266736108	-98.4535837859895	-22.5132241692113	-132.711007849735	
936000000	-23.40833121552	108.644092724015	-0.960258959227757	-103.313394743558	-0.967545561383451	-103.118616987582	-22.3601125301351	-138.799964231567	
937700000	-23.1347643233168	104.673093603519	-0.965490465795164	-108.180433662313	-0.97274754311953	-107.957964680832	-22.2707639184794	-145.221314714606	
939400000	-22.9426535900519	101.092502175134	-0.955304115453178	-112.859575335708	-0.983718989568128	-112.72600325574	-22.2345728390249	-151.405631036682	
941100000	-22.6898532909095	96.4908384932567	-0.970304783083467	-117.644153071125	-0.974629696139045	-117.417338356438	-22.1351769292398	-157.539800633283	
942800000	-22.4873467285553	92.6881568299012	-0.98046354293786	-122.346905007404	-0.983949285423347	-122.258900203628	-22.0635777322252	-164.069601008983	
944500000	-22.3456717885898	88.4709928840145	-0.984895674758683	-127.108403579338	-0.9730490121777	-126.941681502738	-21.9362449226763	-169.633799451351	
946200000	-22.0746675390483	84.2804270846185	-0.982220861945696	-131.797878652619	-0.990416992804004	-131.693727990484	-21.9675266666285	-176.156718596405	
947900000	-21.9335768736773	80.0486459661238	-0.978490843594008	-136.513138808379	-0.996697383358214	-136.433210798783	-21.892724334714	178.253323282936	
949600000	-21.7820474668724	75.6760004096516	-0.984495850460779	-141.275012770434	-0.98769035169773	-141.240335280944	-21.8257801710492	171.70601987946	
951300000	-21.6211076449979	70.8872393620552	-0.984694016416201	-146.068091993654	-0.988972184376992	-145.928299946761	-21.7689796771959	166.033643425271	
953000000	-21.5139430064624	66.6100996662426	-0.986603973124204	-150.766931060982	-0.990804343187302	-150.714253800485	-21.716634586806	159.9989703407	
954700000	-21.3724937855069	62.4508365602251	-0.979758262580259	-155.468263378402	-0.994136021849432	-155.443928361157	-21.7864246847871	154.238998339715	
956400000	-21.2567079108091	57.9491464186256	-0.97372461859786	-160.22625169084	-0.979622602758251	-160.190368968149	-21.7657062886016	148.882826928717	
958100000	-21.2039104297473	53.0468635540878	-0.991365816641405	-164.946482033804	-0.99112144689308	-164.927931432426	-21.7833004480464	142.924566191751	
959800000	-21.1352090732865	48.5598731055896	-0.982503916509599	-169.705387515433	-0.987933345280097	-169.700285121835	-21.8142156772849	137.281253793422	
961500000	-21.0509064330989	43.9384640696482	-0.988641367437725	-174.415282742134	-0.998917904730708	-174.482905111143	-21.8083199964233	131.465888479922	
963200000	-21.013376324828	39.2773140093885	-0.995892085718196	-179.202940674193	-1.00303238892468	-179.175495820387	-21.8458013904313	125.724779167477	
964900000	-21.0253549866601	34.3412823063531	-0.996510733774135	176.134584060629	-0.998678622861789	176.017830617852	-21.9176512408131	120.406987190693	
966600000	-20.9691372319465	29.4266834310651	-0.989712904740036	171.34860357833	-0.992984559512923	171.249734961777	-21.9759570732092	115.035585170671	
968300000	-20.9927387963081	24.6109751101786	-0.989974247185759	166.575296557419	-1.00121290760082	166.553956359208	-22.0382169372031	109.756528879254	
970000000	-20.9896449439158	19.5538709212947	-0.992345381240764	161.85162535246	-0.997427196811695	161.787792802771	-22.1489294086291	104.621753664943	
971700000	-21.0128395368341	14.5479420430528	-0.994615849535375	157.130197658699	-0.993943796610554	157.061562997028	-22.2229089792767	99.5620076415206	
973400000	-21.0529593663288	9.57311248293609	-0.984800058924207	152.386452714024	-0.981079003351752	152.265856642481	-22.3289517452734	94.2301715990494	
975100000	-21.1456988917239	4.41009735152034	-0.99003532344403	147.628470745977	-0.997597774930973	147.541228161904	-22.4417511719586	89.4678189811714	
976800000	-21.2194645338507	-0.926009209852601	-0.978531428025765	142.813302855887	-0.990090119320265	142.685382372938	-22.5935786214968	84.2500626963251	
978500000	-21.3068078708094	-5.99632264976054	-0.986494070038389	138.111232416338	-0.983707927550317	137.989781173388	-22.7708177825782	79.6612763437417	
980200000	-21.4299504816132	-11.4314103403966	-0.980524899960565	133.364749030998	-0.992675833599304	133.276555578671	-22.9190410690973	74.8038076321486	
981900000	-21.5763639846637	-16.5860626836332	-0.9869394536623	128.511035220456	-0.989269352810483	128.479215877297	-23.0789480699588	70.5156688174543	
983600000	-21.6923266650055	-21.8614129373337	-0.981683796059443	123.826938541638	-0.983461938872888	123.772324174802	-23.2904863716643	66.0192382266321	
985300000	-21.8430919535303	-27.4543938612044	-0.975907072741478	119.08524290391	-0.980699096456593	118.969368195877	-23.5211598831246	61.5560214303103	
987000000	-22.0661139893442	-33.1824400028441	-0.992773303671091	114.285430311267	-0.978107929578038	114.261839292741	-23.7255336985845	57.2385058586659	
988700000	-22.2079583693016	-38.6836520009718	-0.98116296802395	109.57235915614	-0.979821650907254	109.494996054605	-23.9312318292606	53.2518942738964	
990400000	-22.4022847320728	-44.2721586598927	-0.985375688648774	104.832571972826	-0.986495757857206	104.711080877301	-24.1787143789748	49.6913499383288	
992100000	-22.5709843908797	-49.9325456038255	-0.974256334555935	100.044035096383	-0.987920070448691	99.9483163031986	-24.4245959210416	45.7059594717497	
993800000	-22.8005020349651	-55.9404084378024	-0.974091073145667	95.3097792157932	-0.984549262373137	95.2594214058303	-24.6132975736731	42.3531007616632	
995500000	-23.0074873615635	-61.8278197883097	-0.971095236693003	90.4542155244264	-0.975383207497986	90.495664730126	-24.8738779740668	38.7312053618585	
997200000	-23.2823214751429	-67.7031017972633	-0.978260975499901	85.6302601696548	-0.980215578532113	85.7275906095147	-25.1260616606805	35.3888010006838	
998900000	-23.4460768461414	-74.0667241818681	-0.976001218028942	80.8151048071997	-0.976376805309061	80.9256249101491	-25.4047142969163	32.3867745181296	
1000600000	-23.6931975819267	-80.2344770075964	-0.980810507026065	76.0199406347732	-0.978937399813051	76.2530020022375	-25.6382590694685	29.2963607302689	
1002300000	-24.001624959032	-86.064321939219	-0.981657285881756	71.3638570741727	-0.980017418704553	71.4016111206532	-25.7654018147682	27.029303043029	
1004000000	-24.1658747726952	-92.5104346888401	-0.981481235880366	66.6148942597419	-0.980336955875556	66.6922857940706	-25.9922666975486	24.4548051673153	
1005700000	-24.4148805401381	-98.8465234908239	-0.976617582942068	61.8729379545519	-0.977753719549724	61.8451842759512	-26.1943695038619	22.230270366766	
1007400000	-24.6901558412505	-105.119336824917	-0.978319854646508	56.999568422088	-0.980109638085475	57.1188255694108	-26.3196566688397	19.7296991680008	
1009100000	-24.8856906586402	-111.191094334868	-0.978649788439668	52.2689604058206	-0.982355428794856	52.3620474187263	-26.4358249452776	17.2135191767432	
1010800000	-25.1095455753784	-117.539273707561	-0.984473155309663	47.4406782865371	-0.988520020048879	47.5094239728369	-26.4747616201657	15.3721900127251	
1012500000	-25.2470397998078	-124.062723876384	-0.971780775890504	42.7657165643694	-0.979643317490772	42.7984605524128	-26.5454569080327	13.2353567874524	
1014200000	-25.4823570069122	-130.254742634458	-0.981986962603864	37.9763902904375	-0.986836307698325	38.0300887033626	-26.5109961628941	10.9619364825096	
