!Keysight Technologies N9950B: A.12.38
!Date: Tuesday, 25 April 2023 11:47:37
!Timezone: (UTC-06:00) Central Time (US & Canada)
!Model: N9950B
!Serial: MY61131330
!GPS Latitude: 
!GPS Longitude: 
!GPS TimeStamp: 0001-01-01 00:00:00Z
!GPS Seconds Since Last Read: 0
!CHECKSUM:1684009695
!Correction: S11(Rdy)S21(Rdy)S12(Rdy)S22(Rdy)
!S2P File: Measurements:S11,S21,S12,S22:
# Hz S DB R 50
800000000	-35.9884168958232	-31.7568671204848	-0.784473990315433	-78.1930217149037	-0.772904751882027	-78.093626077187	-33.9764000990938	-28.9470576733949	
801700000	-36.7138729574371	-39.8493300862752	-0.765662843751067	-82.9337542444109	-0.788051951388564	-82.9841993894256	-34.8052836490971	-36.5120251076281	
803400000	-37.7165496671638	-46.6772607352316	-0.767981731851705	-87.6915594806857	-0.781456793356823	-87.6367848016022	-35.5439326280353	-44.1785941386083	
805100000	-38.7252660314642	-55.7136528222603	-0.781561594500998	-92.4190214057945	-0.780469737702136	-92.3277212860794	-36.4963547367335	-52.7808209569666	
806800000	-39.910294278185	-67.9174509790187	-0.776462004753048	-97.1844479428917	-0.791067715271334	-97.1290978577614	-37.5468755851185	-60.857113879256	
808500000	-41.1742567059274	-81.2178077028532	-0.775020540923773	-102.001435916719	-0.78462302780466	-101.862870122159	-38.7773444015108	-69.7940823835776	
810200000	-42.5996599753298	-95.3039474086869	-0.783595065979369	-106.655369372492	-0.78925386763137	-106.671247401557	-40.0348540535628	-82.5821751705686	
811900000	-43.3686627492864	-108.555511826906	-0.774021956829025	-111.432140091851	-0.785884800610685	-111.454037311547	-41.2062154707843	-94.6342161800013	
813600000	-44.732735110179	-126.244320891174	-0.784261539030718	-116.233436176624	-0.781821399952127	-116.16132648958	-42.8021125925697	-110.525453342794	
815300000	-44.7151257494331	-143.34739383282	-0.780310570000961	-120.99678329009	-0.801111058816785	-120.936854893149	-44.7591678950124	-126.763078039108	
817000000	-44.1918005730762	-168.665071404199	-0.787549445045203	-125.640581249797	-0.789233676225012	-125.644636493436	-45.3305276310652	-146.481563724138	
818700000	-43.6284075501281	178.203161432341	-0.773942467963825	-130.415012475616	-0.793459929906112	-130.397534202047	-45.9888657949919	-170.74383242786	
820400000	-43.3642901657931	162.097234010973	-0.787844532788615	-135.20810511864	-0.790479622453707	-135.160713203074	-45.8535247997239	162.693809617508	
822100000	-42.5054320511818	151.139286894298	-0.786227458748412	-140.000206918458	-0.781903784777751	-139.845548570881	-45.2768388445097	142.25639583761	
823800000	-42.0225345700203	142.292376092149	-0.787263679162179	-144.69666904719	-0.795894221744456	-144.589569210371	-43.9012556124951	124.782942976124	
825500000	-40.995044028054	131.926411204421	-0.795080830905875	-149.455259873858	-0.802705339602683	-149.329874216225	-42.4030658449312	108.235742262594	
827200000	-40.6938258685773	123.796229530003	-0.785649952008807	-154.285599933997	-0.802989669625161	-154.097619107541	-41.3561668775323	94.2893891748051	
828900000	-40.647186786478	114.411260387909	-0.78058986886803	-158.925538061783	-0.804782564045432	-158.882981704128	-40.3075092324026	84.7197432108874	
830600000	-40.3669158073843	104.318480126896	-0.790010801914468	-163.756416211155	-0.794496589356296	-163.727473157321	-39.1226451060517	74.0586377387388	
832300000	-40.249887120522	99.4936843947699	-0.797637142065002	-168.449974900107	-0.8005271379929	-168.392434854705	-38.3994574918124	65.6880315375406	
834000000	-39.859815625613	93.3888032144563	-0.794017219615327	-173.269620296354	-0.791602821931491	-173.109603162942	-38.0108393709261	55.938438877464	
835700000	-40.5222489151105	85.8551843790374	-0.792778000895039	-177.987307266945	-0.797391042783355	-177.89390304443	-37.5168237562269	47.0126828070254	
837400000	-40.4731935678821	78.9940776505461	-0.798593231668937	177.255806152841	-0.79288678256055	177.403526571138	-37.1306851376619	37.9865780068482	
839100000	-40.929537347677	73.5682464290102	-0.802684042478003	172.599143663202	-0.802285816098979	172.594699110045	-36.4956872092325	30.4629584880343	
840800000	-41.6792397445468	67.9884483770056	-0.789183763467937	167.753678168952	-0.801008041677794	167.7971613288	-35.9639807614496	20.7109423814277	
842500000	-42.2301964079	60.8883555837785	-0.798567637444236	163.178574895293	-0.807834872395367	163.102564719572	-35.8260565587858	11.772668030385	
844200000	-43.082953038562	53.6012961972418	-0.796291178363696	158.323972169241	-0.810710206572768	158.290870420822	-35.4452173353366	2.72733185511418	
845900000	-45.1060047578498	46.0740609375222	-0.806545258776889	153.599552262251	-0.80443028979071	153.572732881189	-35.4696443399578	-6.23407284982176	
847600000	-46.640150057186	37.0052079618026	-0.794545340788524	148.753831397757	-0.800027547942876	148.838856907191	-35.3211230944622	-15.0128052297592	
849300000	-50.0169226735266	30.3323374902397	-0.799368455548009	143.991175315113	-0.802709977289335	144.10816561283	-34.7791035063425	-23.632635793829	
851000000	-51.8032468321334	1.94581793601828	-0.794936555976581	139.325950430899	-0.80784148866055	139.369474203266	-34.7985906156404	-35.2262759688246	
852700000	-58.6940425495403	-43.4882575460927	-0.80025903693778	134.534129206754	-0.812090142182778	134.585666829874	-34.6393225861029	-44.9971613069615	
854400000	-56.0859185507276	-100.696242732674	-0.806754699554959	129.855415889332	-0.813518878758207	129.86335474627	-34.4966395025506	-53.5699703941503	
856100000	-49.6470173153754	-136.491511595932	-0.794531535835541	125.121278492113	-0.808434564650564	125.053605527222	-34.1935208605461	-64.2660639846673	
857800000	-45.9142259825609	-144.437395575218	-0.809101464449424	120.408663926971	-0.812883154347513	120.335829483425	-33.8676604207049	-72.9202006623871	
859500000	-43.1502137503777	-154.554609820127	-0.804268585423749	115.644225808641	-0.816508645036873	115.564735525402	-33.5957410461554	-83.0712851751293	
861200000	-40.8040449966731	-163.719562236303	-0.821268925170551	110.806447481411	-0.816230254477227	110.793739173253	-33.3505765438027	-93.2652263665135	
862900000	-39.3322393522969	-171.470492841293	-0.807541821284576	106.110729035884	-0.817157417905301	106.061964537086	-33.0429373275648	-102.306583656504	
864600000	-37.5977752007803	-175.835043275249	-0.817306792948841	101.257685427613	-0.812437970069368	101.216198007417	-32.8370177218225	-113.205595235421	
866300000	-36.4060203596792	177.809783445436	-0.821898031118918	96.5443469904608	-0.818223162073268	96.5010856512464	-32.2664124056013	-121.932874709918	
868000000	-35.13040130812	172.423017507167	-0.815001627927023	91.8225922729391	-0.817715802541561	91.8097906922493	-32.0034628477757	-130.500272090516	
869700000	-34.2394752327385	165.841232641938	-0.802963910734259	87.0771749632373	-0.822133816931831	87.1042273109164	-31.7279114058523	-139.541874682321	
871400000	-33.2995129861149	161.554113778083	-0.816138831597932	82.37918403982	-0.817316183947043	82.3346199701062	-31.1230557313888	-148.617044205465	
873100000	-32.5329670610556	155.676803913544	-0.817364064862315	77.5202955600168	-0.825421823686226	77.5080187930163	-30.9029724229371	-157.734560580434	
874800000	-31.7898676892685	150.082042937232	-0.819902327812746	72.7946140220874	-0.824679109966593	72.7880767230043	-30.3530525088656	-166.135605600923	
876500000	-31.1510190744359	145.268311262062	-0.827605923959516	68.0904956257258	-0.83436636454525	68.0644913978201	-30.1093358358611	-173.883700238901	
878200000	-30.4177842527531	139.168861596762	-0.816339601956095	63.2844839331808	-0.83328080453535	63.2194790483483	-29.8759620607712	177.577950546068	
879900000	-29.929414190276	134.349798272376	-0.825182831604085	58.5132176921875	-0.841898692559159	58.4828458947705	-29.4385696185098	169.941637386545	
881600000	-29.56363775296	129.770717787994	-0.830736695651005	53.8216859060816	-0.826412372424786	53.7668707886781	-29.0778527823535	162.151581196427	
883300000	-29.1461168149974	124.042813551832	-0.815344638001463	49.0503646847878	-0.83109117181552	49.0386356572022	-28.8212434316517	155.11224798873	
885000000	-28.7793374741578	119.385764092784	-0.835704423851771	44.2505088257238	-0.837506614464146	44.2570238400487	-28.4745915303972	147.196258054246	
886700000	-28.365344722807	114.01202954705	-0.825037952879461	39.4842337843671	-0.83143334812169	39.5593140986492	-28.2140921402495	140.33550218677	
888400000	-28.086902308133	108.986104207792	-0.82856071279981	34.7728733204674	-0.834262648319215	34.8121253996148	-28.0161533484931	133.182578501188	
890100000	-27.8890680575435	104.18489888355	-0.839432302263933	29.9935612774296	-0.850503566571035	30.0224374836545	-27.8233368968348	126.377855067354	
891800000	-27.6601770320758	99.4524424620474	-0.839853025150863	25.2566678709712	-0.844962914237227	25.3259153165268	-27.5615762630834	119.115876922619	
893500000	-27.3318972722464	94.3665257042366	-0.824797333013607	20.5638413984374	-0.849325255472162	20.5758920131106	-27.3194425768899	112.842537341267	
895200000	-27.3289399377324	89.8415218661004	-0.826030778972496	15.8418798192821	-0.849091254826331	15.8801612564508	-27.1683247529099	106.113789628895	
896900000	-27.1744322950159	84.7053225126113	-0.838239341062077	11.0181739254051	-0.844591111990046	11.0576223613127	-27.0132484883945	99.020498680041	
898600000	-27.0811668832938	79.8116596762906	-0.836015237404659	6.3354239128299	-0.837743553090242	6.34608091012732	-26.9180907448679	93.1015960516643	
900300000	-27.0476640253295	75.1276356641131	-0.834866429129324	1.56810586070836	-0.835332784780447	1.67569138585544	-26.9028566199816	86.4443919592692	
902000000	-27.0464608992234	70.4599592049044	-0.836510078295515	-3.09670035503144	-0.855661567695599	-3.1459573419964	-26.8608004182305	79.5484651386903	
903700000	-27.1147485390823	65.5149576724298	-0.831586050440679	-7.79625285173962	-0.84235746470064	-7.8473700779616	-26.7720604485486	73.6555906033631	
905400000	-27.1392008742239	60.3785051338727	-0.825402056231256	-12.5920113416678	-0.841952991389903	-12.6037858036457	-26.7838707776037	66.9579822952066	
907100000	-27.2110902177178	55.6490594693813	-0.834986901689832	-17.3539143104682	-0.838532354335509	-17.3539350387148	-26.7974072473295	60.3099251535267	
908800000	-27.3505543218724	51.4191524014061	-0.84073628042693	-22.0670913337515	-0.839211210029244	-22.1563094251368	-26.772754137626	54.1449104096649	
910500000	-27.5264097458564	46.5280091207795	-0.836673417571809	-26.8220949575667	-0.857718125967744	-26.7801431062796	-26.8837809350903	47.731819500438	
912200000	-27.7561174088298	42.0291262768979	-0.840057484054893	-31.6611956459391	-0.855854691491999	-31.5563110964305	-26.9942297573083	41.125977297797	
913900000	-28.0103352316088	37.2092937591839	-0.840627110136685	-36.3201114929266	-0.849454176950264	-36.36309290412	-27.0127914873164	34.9797645644265	
915600000	-28.2531026322385	32.6829738007772	-0.840094689236265	-41.0844664025718	-0.843816841965499	-41.0915780697838	-27.2478295661609	28.6080015826193	
917300000	-28.5379319211962	28.2959294190004	-0.820832509754489	-45.8821441720399	-0.856069059854244	-45.8200969740437	-27.3925690336624	22.1312157775289	
919000000	-28.9872168683432	23.9980880291832	-0.833030520969134	-50.6517217578717	-0.84637596455907	-50.6056491972273	-27.5989757142442	16.2355813540713	
920700000	-29.3906889071866	19.073739438516	-0.828785931754233	-55.3593190027659	-0.84448307418371	-55.4213951986847	-27.9169656673639	9.6817098845953	
922400000	-29.8740087543794	15.2013746164537	-0.835781805513079	-60.1941962862512	-0.846165198857996	-60.1495080457017	-28.0628401668823	3.38096719240523	
924100000	-30.3882490572625	10.940888459544	-0.827987291424032	-64.9840582133457	-0.843979513506962	-64.9192699831445	-28.4918505813929	-3.37370622843403	
925800000	-30.970588850344	7.01456926556669	-0.835033014172207	-69.7051863948051	-0.850335004863258	-69.7208487057251	-28.7736703512015	-9.6810557789033	
927500000	-31.5711151043654	2.79335186004375	-0.84016771908161	-74.3776606570885	-0.859595957731329	-74.3341332040788	-29.0455876431857	-16.3061548963668	
929200000	-32.2938629447605	-1.07535767016227	-0.83389393392181	-79.333052588429	-0.840854342685627	-79.0326026927969	-29.4581777086542	-23.0965756136843	
930900000	-32.9434746727059	-4.02368021349484	-0.831954433424721	-83.9499672901207	-0.8419893263247	-83.8404165646131	-29.9715174946185	-30.2607862184499	
932600000	-33.8756162122125	-7.43508635301284	-0.84116103581278	-88.6925087932189	-0.845549249734732	-88.5550238336146	-30.5026551176179	-36.8220667673363	
934300000	-34.8806900789461	-10.532468432844	-0.829649774244593	-93.5104426451962	-0.845903249725849	-93.3483626223564	-31.0568390225864	-44.7936476734727	
936000000	-35.8664390360274	-11.8211608340608	-0.833230568855426	-98.2881853594128	-0.841329491995397	-98.1230173320926	-31.5948243099442	-51.0842898972436	
937700000	-36.9214891491977	-12.7765029955045	-0.832489872158135	-103.059932876651	-0.851897301821699	-102.926859854907	-32.2794885919498	-58.47638825716	
939400000	-38.2643963806372	-14.1872727572558	-0.844942698184396	-107.754962756841	-0.854316138750588	-107.600151073692	-32.9319660727571	-65.4886870460156	
941100000	-39.5294706283191	-12.9450785892721	-0.838989929924671	-112.495535010872	-0.850857319239723	-112.329806805548	-33.6008189358262	-73.9426845609179	
942800000	-41.0450689653232	-9.48222362369416	-0.837625459912107	-117.330457709218	-0.848993750753473	-117.119362137719	-34.5167517604052	-82.0381025148967	
944500000	-42.3865031902401	-3.81737726268728	-0.833368853174687	-122.083263697637	-0.861151834552624	-121.953261979654	-35.3938607772442	-91.2569381891001	
946200000	-43.1696488736319	4.93139142266672	-0.840701913762707	-126.807166571915	-0.855811985119921	-126.66868359772	-36.389511634685	-98.6919614346731	
947900000	-44.0901576323876	16.5457772453745	-0.843289029688833	-131.440525893026	-0.857166718544094	-131.404593353412	-37.4187493240448	-108.540548676936	
949600000	-43.5755566216763	27.0143192975992	-0.846469443799311	-136.213375105267	-0.84218436292803	-136.131607164997	-38.3247611749626	-119.435934726215	
951300000	-42.990741761486	34.3854046673498	-0.8279074919593	-140.977652480098	-0.851702267871807	-140.907254423901	-39.5809800948193	-129.927376776039	
953000000	-42.1279323211389	40.8325882711611	-0.845973875342718	-145.735032029114	-0.84961039986935	-145.606408986079	-40.6708900915059	-140.667796596493	
954700000	-41.536958542396	43.788634701413	-0.84587550677904	-150.485114708253	-0.851255441572951	-150.363337242531	-41.8371975912094	-155.122805257217	
956400000	-40.4090401274805	44.7104773570636	-0.8418135829826	-155.19353068646	-0.858510768383233	-155.155257629066	-43.3326359036678	-165.422841536112	
958100000	-39.8111571310248	42.453900893587	-0.844723491865553	-159.949117327594	-0.854780998616839	-159.890648028804	-44.2522299309699	175.077611928807	
959800000	-39.0449964204767	41.104295024999	-0.855662809719716	-164.650555812248	-0.854017994788599	-164.678847387052	-45.5697253781193	157.90631794498	
961500000	-38.9809999118129	37.2302232011514	-0.847682026505864	-169.400791931181	-0.849930592660093	-169.376154264776	-46.7783447918021	135.597323558693	
963200000	-38.431840127578	34.6804384479776	-0.851060210511466	-174.1357228784	-0.857759520168049	-174.199540663691	-46.827443319601	110.922914182887	
964900000	-38.3642200480517	30.4837238219671	-0.847882422098097	-178.89952869163	-0.863112647200494	-178.940216111576	-46.0601530933346	92.5006027375166	
966600000	-37.9533289396608	25.4320195603725	-0.856554994493767	176.370422150209	-0.857974561520854	176.336011562398	-45.0774039424554	69.0996579467247	
968300000	-37.9107611731668	20.1624468367335	-0.861209170009398	171.673664538186	-0.856826564184254	171.582341201165	-44.8781089344025	54.5527492235754	
970000000	-37.936357683989	14.1058515354911	-0.858201016762884	166.817359641608	-0.865161947605968	166.783830625233	-43.8096895382672	37.4113829332467	
971700000	-38.1801189687104	8.88790300477448	-0.856970227197183	162.104933420258	-0.859825643290081	162.107883480892	-43.4436017803201	26.2509628983897	
973400000	-38.4026522131014	1.395268897241	-0.865620404331304	157.385186331121	-0.86190316225364	157.25087114058	-42.3602323546888	10.3246929844899	
975100000	-38.9002975935935	-5.95660857133833	-0.859403890472678	152.634153694753	-0.85752854723456	152.576184027063	-42.1203784524654	-5.65720707474476	
976800000	-39.285607498392	-12.9496002444816	-0.854867772763923	147.953843985271	-0.861111852165313	147.816280282454	-41.0630701249544	-16.4999719911002	
978500000	-40.2170902656509	-24.0836484463891	-0.858595652513504	143.153849987725	-0.869604330013644	143.034688575621	-40.3249793101481	-28.218675996547	
980200000	-40.2968110710747	-35.1761979889848	-0.855045865890875	138.297447062046	-0.860047398731433	138.282847809322	-39.9935201451121	-40.7514337170343	
981900000	-41.1487584948198	-47.5904008424463	-0.846259281611577	133.623885421641	-0.873008799473277	133.516747765533	-38.8667182494093	-49.4031026341478	
983600000	-41.8395854978749	-61.9212891363638	-0.867922530754135	128.826949305751	-0.869294516547414	128.80783607629	-38.50781484463	-61.8477664464965	
985300000	-41.4884585462308	-82.7546882886315	-0.844558080924486	124.123785473951	-0.864772067134009	124.00110432701	-37.5077978162232	-72.6496398661233	
987000000	-41.5387739412992	-100.484945452453	-0.856122649892255	119.369611188846	-0.881351835992096	119.331205409448	-36.8687418618955	-83.2614379065671	
988700000	-40.6283744432326	-114.110534657479	-0.863219135069918	114.576194467977	-0.869190653508927	114.523616034381	-36.106295580062	-92.7391884518145	
990400000	-40.0771576470774	-130.092207668827	-0.856264040217271	109.775103167848	-0.864206881462158	109.771557883692	-35.5737536623848	-102.254049864936	
992100000	-38.5390814310964	-144.001817704143	-0.858886577174795	105.007088319969	-0.869401550290689	105.063557920656	-34.7741809220441	-112.858160858632	
993800000	-37.3295234400202	-155.633518761713	-0.877032599317023	100.22837048074	-0.862967239438341	100.268861735887	-34.0253269340377	-121.754762373328	
995500000	-36.4925428064499	-168.312888657836	-0.868123303407436	95.4662446997096	-0.881142450063646	95.5487851917022	-33.255067259671	-130.548443068752	
997200000	-35.4019549301749	-176.908601350581	-0.869050914983816	90.7842842161781	-0.877848323830403	90.7893838642744	-32.5944124023369	-138.213738288976	
998900000	-34.3076952318089	174.696438776907	-0.87907657952648	85.9381736763344	-0.870025586898919	86.0402401162338	-31.9180265585782	-147.311515414176	
1000600000	-33.2118475900392	167.642951814923	-0.885078908156297	81.253790229977	-0.870923972955243	81.2913823861217	-31.3393176001703	-154.542454806305	
1002300000	-32.4648659881089	159.619865250019	-0.872384561127612	76.4703540241872	-0.883861047573636	76.5508819142754	-30.7583582764717	-162.347464134628	
1004000000	-31.7294582869193	153.044995229205	-0.875825661097944	71.7313902618462	-0.8871300880973	71.7846784650253	-30.3036625856593	-169.360155501061	
1005700000	-30.8969763487794	146.47949702109	-0.868543360156519	66.9516837712406	-0.879786352829618	67.0962181300363	-29.6885513966162	-177.088642716652	
1007400000	-30.2912904500754	140.407953760195	-0.871987529961074	62.2097692761152	-0.885026960878465	62.2555137284341	-29.2055385221274	175.65037386251	
1009100000	-29.6775200566128	134.348384336682	-0.870966587590996	57.4659747964729	-0.897642475202101	57.4857951609889	-28.8432790199468	168.682504132973	
1010800000	-29.0976748169614	128.380101674512	-0.877405046108212	52.7635394695568	-0.88885842822083	52.8085040574613	-28.4902791814907	162.210362317491	
1012500000	-28.5404072676873	123.421672149463	-0.883838902381048	48.0627675314383	-0.881624285662804	48.0302097959546	-28.0230589955124	156.006469746355	
1014200000	-28.1772394101494	117.437009491283	-0.888616398574539	43.2847462044937	-0.891123511101179	43.3106324560116	-27.6622835320743	149.570243070513	
