!Keysight Technologies N9950B: A.12.38
!Date: Tuesday, 25 April 2023 12:33:49
!Timezone: (UTC-06:00) Central Time (US & Canada)
!Model: N9950B
!Serial: MY61131330
!GPS Latitude: 
!GPS Longitude: 
!GPS TimeStamp: 0001-01-01 00:00:00Z
!GPS Seconds Since Last Read: 0
!CHECKSUM:1835827977
!Correction: S11(Rdy)S21(Rdy)S12(Rdy)S22(Rdy)
!S2P File: Measurements:S11,S21,S12,S22:
# Hz S DB R 50
800000000	-23.0084251397175	174.512712302035	-0.819806333720712	-83.7613628844658	-0.847070004415722	-83.7377998586247	-22.3834164229596	-146.857145599807	
801700000	-22.7514692823003	169.579308754088	-0.82823236276866	-88.5730981935428	-0.848693838166281	-88.4928854397452	-22.1854167672041	-151.810187659757	
803400000	-22.5960194669906	164.465065130619	-0.832318401436789	-93.3306190053178	-0.831908540009631	-93.2737265629372	-22.0251335142458	-157.746600329677	
805100000	-22.3335651256846	159.515043488615	-0.836971420855326	-98.0367570432988	-0.854674003357374	-97.928316204947	-21.8889934684965	-163.429506285319	
806800000	-22.1242300383952	154.688101158262	-0.840752304735671	-102.776122948345	-0.844559039004922	-102.708744085188	-21.7641565486202	-169.091974564635	
808500000	-21.9293309891338	149.773092328082	-0.835989237955877	-107.490462257083	-0.846709516146639	-107.509752096627	-21.598064289011	-174.853445303088	
810200000	-21.747314275499	144.416412268498	-0.846616597376469	-112.369525174137	-0.849650849049694	-112.245311077368	-21.440866415635	179.358690865738	
811900000	-21.5693575805321	139.647813234373	-0.856683876735151	-116.998545798889	-0.851721784686101	-117.038232086101	-21.3285393734572	173.399381680229	
813600000	-21.3678014742937	134.491612995099	-0.841191650477273	-121.822407755818	-0.852475698524613	-121.786344357827	-21.213730799141	167.765256130535	
815300000	-21.2605587435082	129.275428558261	-0.851107253749053	-126.631337162917	-0.858007250051642	-126.587580841787	-21.0760423891444	161.952403684322	
817000000	-21.1022696068208	124.650263245414	-0.852062925855465	-131.317846769771	-0.85980114143873	-131.284953998675	-20.9950848130904	156.419627594689	
818700000	-20.9805607722791	119.616145222846	-0.866498052588164	-135.984491531357	-0.860672478099699	-135.950925083419	-20.9361669502931	151.009839459968	
820400000	-20.904727189321	114.460377466509	-0.85846370232311	-140.775053272756	-0.86395057416185	-140.740537161747	-20.8421081001118	145.163822629483	
822100000	-20.7454475322207	109.365227140443	-0.862749914774758	-145.547150728785	-0.868906474575762	-145.536951373083	-20.8020467471343	139.123544359872	
823800000	-20.7167357905282	104.574466096451	-0.865593332282652	-150.30043307202	-0.868194307169988	-150.225950490435	-20.7077341316401	133.594576559779	
825500000	-20.6294956012603	99.533604297234	-0.87554533133482	-155.056755999357	-0.863636656246547	-154.998350150409	-20.6335161653247	128.304681235067	
827200000	-20.5319097037012	94.5584073020526	-0.867044178240594	-159.913499296836	-0.869153367969973	-159.67830234923	-20.6230431583456	122.759062672383	
828900000	-20.4910397523614	89.8068967513629	-0.853222435311812	-164.583977088711	-0.869307472450052	-164.38861506596	-20.6142391894409	116.936533778032	
830600000	-20.4807406096435	84.7449726134811	-0.864701879231712	-169.333966900985	-0.870043756750336	-169.19232371389	-20.6038477053652	111.318057812682	
832300000	-20.4537174209011	79.7347758310113	-0.868109201347338	-174.034435116006	-0.867350407310794	-173.885271013255	-20.5901420416642	106.132259076448	
834000000	-20.4735174366349	74.5704028860879	-0.86440011246557	-178.834068310482	-0.87716161115219	-178.646370322972	-20.6121493868283	100.411941821215	
835700000	-20.4279968180156	69.831840693457	-0.863864130729721	176.42556101477	-0.875259059623447	176.53653097044	-20.6189563239264	95.1099678203521	
837400000	-20.4935547922609	64.8355917408426	-0.861460778300722	171.708635828114	-0.876114509776668	171.769392946571	-20.6613958971528	89.6179523843346	
839100000	-20.5342271647282	59.9721924492172	-0.873611321773906	166.955522276396	-0.880093261497484	167.078214270318	-20.7466201760035	84.2128217482235	
840800000	-20.5688420703096	55.113914761409	-0.86240887495172	162.255465132234	-0.877874587143115	162.319752505906	-20.7805183267246	79.0466432714763	
842500000	-20.6367965759418	49.7841011042232	-0.86669002124083	157.466451903989	-0.874534455892857	157.57344784888	-20.8729242295297	73.7271704763056	
844200000	-20.7276185304072	45.0331490447513	-0.864923626575164	152.819324910399	-0.874230925060666	152.737093460029	-20.9500996009862	68.8796723154401	
845900000	-20.7940873450053	40.1954681934776	-0.858989127635205	148.036951160838	-0.871580090584306	148.012722835215	-21.0597580755625	63.5739794169656	
847600000	-20.9072137573339	35.2628241230897	-0.862695201488111	143.238041833431	-0.875038354092162	143.319456541857	-21.1922178295444	58.4446385539904	
849300000	-20.9960760695357	30.0188036938254	-0.857691800711756	138.441773950324	-0.873332991723164	138.538032916991	-21.2502032325912	53.3586000846338	
851000000	-21.1672181275822	25.1141135076814	-0.86618133843595	133.730271342385	-0.867951229191497	133.855142699754	-21.4616483942753	48.7028188383293	
852700000	-21.2991254683265	20.2061427926904	-0.857510422407056	129.02368089464	-0.868444964507515	128.998332958331	-21.5984725783002	43.5524052445444	
854400000	-21.4875557867855	15.3254873104938	-0.84665559858849	124.299330518797	-0.871981600503715	124.317411363565	-21.775208295526	38.8594118436121	
856100000	-21.6061786630702	10.399787775082	-0.848529587122201	119.55133770889	-0.865015873774873	119.520351200297	-21.9840388129878	34.1787631101725	
857800000	-21.81339010709	5.60229534137851	-0.849788811600392	114.7214907403	-0.853981729971504	114.722929898315	-22.178019415653	29.3997225455348	
859500000	-22.0200094581966	0.751623555582104	-0.85146803077602	110.013690189863	-0.857047271299476	109.903993174533	-22.3243267465359	24.9607228980146	
861200000	-22.271826123553	-4.45353534147829	-0.845626151946317	105.260559855846	-0.859863683971363	105.217377922668	-22.5962604722154	20.7190072843403	
862900000	-22.4538461648332	-9.17069833538705	-0.858247098095037	100.518537134864	-0.851875756539843	100.394650562281	-22.7543343769486	16.2353239572774	
864600000	-22.7479453907533	-14.117609387609	-0.85473258308358	95.7148083647424	-0.858796335430078	95.6566875876123	-22.9733719123339	12.1830870111685	
866300000	-22.9268159602173	-19.0005123041594	-0.858278373328056	90.9396211795919	-0.850562289282591	90.8317230838232	-23.2719225068298	8.12349331950313	
868000000	-23.154440077474	-23.7378876683823	-0.835951282279188	86.2013870319975	-0.866970445172413	86.0853870003297	-23.5093118991283	3.80685640017517	
869700000	-23.3618856669602	-28.8346126294668	-0.849477829226914	81.4248350473272	-0.861163361474933	81.2971075360971	-23.7305366259052	0.13001961854283	
871400000	-23.6464516619623	-33.8726496542497	-0.855152396139319	76.6103633303658	-0.846494655832208	76.5208969518647	-23.9525117589837	-3.55657495707293	
873100000	-23.918650469187	-38.557446590996	-0.85110868234057	71.8289138571979	-0.84773529431488	71.7929393234712	-24.1985148786499	-7.10052769939223	
874800000	-24.1546437353442	-43.3781654348464	-0.85347411028345	67.0732956826444	-0.848773059643357	67.0214235011557	-24.404305520808	-10.4817309563929	
876500000	-24.374225293743	-48.3920025036146	-0.847062823878165	62.3246509598235	-0.858221744359511	62.2593683224412	-24.6105964296769	-13.8974612104068	
878200000	-24.6541298041621	-53.1284726417702	-0.838113226048849	57.5517063171672	-0.856919507245763	57.4821475807221	-24.8662988153325	-17.3390338561753	
879900000	-24.8515014032004	-58.1130090204662	-0.844512458131871	52.7919261906388	-0.845956454830149	52.708547975001	-24.9912852966288	-20.3685707453397	
881600000	-25.1240815617577	-62.9097729080828	-0.841423003522514	47.863482945967	-0.844991712513332	47.9550542549675	-25.1765499657038	-23.2070302802303	
883300000	-25.2700693437435	-67.956583573201	-0.848606117685625	43.2191382379464	-0.862277990205233	43.1590541305667	-25.2645534630657	-25.9649894246004	
885000000	-25.5051894361125	-72.6602590828421	-0.848733948029588	38.4169563127564	-0.850024881695493	38.4263086477478	-25.3693517745365	-29.0701308713478	
886700000	-25.6412791353544	-77.4531280964893	-0.843449569908779	33.6187820409768	-0.858495609520769	33.6732713255894	-25.4681815321075	-31.7327912298003	
888400000	-25.8079528021093	-82.1101346729988	-0.854869917142794	28.8217002401725	-0.860682134033668	28.8926815469105	-25.4848326431995	-34.5747925643696	
890100000	-25.9616706111821	-87.3495023527536	-0.840526384742692	24.0593533897415	-0.858176900401663	24.0553605092018	-25.5969007423125	-37.2017248699857	
891800000	-26.1113097403618	-91.9935885115184	-0.859704262795521	19.2304224943038	-0.861108174500403	19.32501145939	-25.5432382537145	-40.7388054095185	
893500000	-26.1450305631221	-97.1855031373764	-0.849640120668773	14.4537118339895	-0.858708230909225	14.578085705889	-25.4790350896544	-43.3699391369485	
895200000	-26.2594298763324	-101.668290150642	-0.856822728793263	9.7899319416602	-0.857282347994308	9.77368484846397	-25.422218892264	-46.1834315750902	
896900000	-26.207152647489	-106.083228727531	-0.851060382735377	4.92383620937927	-0.858301611376329	4.9790247789785	-25.3307759501573	-49.9517936968712	
898600000	-26.2522877444226	-110.985487406556	-0.865724232478765	0.239380473868196	-0.864867233135576	0.22866851885464	-25.231450182943	-53.0406505521455	
900300000	-26.203242722196	-116.108144438034	-0.852264102451342	-4.57305952144235	-0.859770242848049	-4.44385098116677	-24.9798879584329	-56.3835603825433	
902000000	-26.1622966070854	-120.710033053334	-0.859914675360859	-9.30618241917293	-0.86344292442392	-9.275031815675	-24.8614103194371	-60.1599934269783	
903700000	-26.0393744677474	-125.694484688118	-0.853415727532089	-14.0480522789423	-0.870732932094242	-14.0379521984578	-24.7240826389747	-64.1649197489885	
905400000	-25.9029532196178	-130.434332078456	-0.85873768312959	-18.8335357143672	-0.869752694954442	-18.859738787823	-24.5041951917468	-68.0230087887444	
907100000	-25.7718403586246	-135.349373231044	-0.860300496772651	-23.5423791457258	-0.867978916657627	-23.5554825665575	-24.3049497384671	-72.6600681126403	
908800000	-25.5911648115972	-140.076806279032	-0.871725675051713	-28.3620526361789	-0.871056881458654	-28.3770480598065	-24.0781028687634	-77.1343581342935	
910500000	-25.3793702024602	-144.891043620572	-0.857807886600038	-33.1884182918921	-0.862776702240082	-33.2250047698877	-23.9279337135241	-81.8315115536117	
912200000	-25.2058783103497	-149.828106817378	-0.864221446746788	-37.981396507897	-0.867943004743626	-38.0063690095007	-23.6744057078142	-86.4189713158433	
913900000	-25.0075975998785	-154.781441973321	-0.86638459439757	-42.7264444333909	-0.877896768277316	-42.716975343305	-23.4820430278012	-91.0678020441447	
915600000	-24.7290243226243	-160.05356929146	-0.869938363587918	-47.5213237245134	-0.875770520035205	-47.5624959421578	-23.2725418731001	-96.4416575519621	
917300000	-24.4574772892579	-164.258143031257	-0.888615740639964	-52.2790576195673	-0.887782307136416	-52.3103708198418	-23.0896833995045	-101.337852631499	
919000000	-24.2238787236815	-169.323068403254	-0.873140659706556	-57.0861460411828	-0.893582140934501	-57.0801643326398	-22.9078543392267	-106.738825645536	
920700000	-23.9595473766495	-174.108508868691	-0.879289656518783	-61.8928931013905	-0.891888020802712	-61.8112883341192	-22.6617547667987	-112.067235477814	
922400000	-23.6153433458935	-178.872962285991	-0.884181603245374	-66.5901109706172	-0.886683508944264	-66.6742977814942	-22.4822379752213	-117.771450206726	
924100000	-23.3710593228496	176.25140431472	-0.891942102887321	-71.3944926418573	-0.894591603087034	-71.3244147152937	-22.2864571816946	-122.800332492587	
925800000	-23.1036867207749	171.421581795966	-0.883957209856319	-76.1873019841005	-0.900141217688951	-76.1895949776432	-22.0679668283036	-128.642545456849	
927500000	-22.7509532059056	166.359279221691	-0.878489453722437	-80.943567148947	-0.900600097747193	-80.9561375151573	-21.8954394658892	-134.306927741507	
929200000	-22.5360097406609	161.501513633628	-0.893308931252715	-85.7908514912532	-0.898018398339436	-85.656200202523	-21.6589958351231	-139.886454449494	
930900000	-22.2629458270067	156.801692175456	-0.900903898152949	-90.5350416183845	-0.900396474774637	-90.3873379504987	-21.4988407970289	-145.594187302525	
932600000	-22.0299977537483	151.900942238464	-0.902121386972871	-95.2316907425785	-0.910125080161587	-95.1239015787507	-21.3322141926248	-151.140933443841	
934300000	-21.780678130001	147.279031952427	-0.90853484251789	-100.01453734986	-0.920890749108406	-99.8416281202994	-21.2008544259282	-156.910890384799	
936000000	-21.5370480464969	142.30212839402	-0.905438601882752	-104.781721723199	-0.91401816764637	-104.645824056109	-21.0274302007032	-162.851258177425	
937700000	-21.2837433822475	137.469562088808	-0.917089108169344	-109.541404675597	-0.923083106078967	-109.394886672259	-20.8821985409874	-168.647617162231	
939400000	-21.1060311906827	132.431271453762	-0.912457688873371	-114.33219117393	-0.919507830828733	-114.185540121427	-20.6801833089562	-174.462019306783	
941100000	-20.8777749091833	127.577178501598	-0.924790977912444	-119.080280067693	-0.9243086230753	-118.926259598213	-20.5378591442558	179.944338217705	
942800000	-20.6750693682006	122.894901679112	-0.927274009539556	-123.810286406484	-0.929670335864153	-123.657552771249	-20.4642580058124	174.21468580727	
944500000	-20.503296226733	118.108500667085	-0.923622658723104	-128.539693776269	-0.939239219454265	-128.424257465238	-20.3232166869389	168.424647155927	
946200000	-20.3442690832571	113.275643614572	-0.926056766780679	-133.186554813531	-0.932344837810821	-133.215695669087	-20.2111524261306	162.567248411705	
947900000	-20.152591359505	108.336961563137	-0.92515632508017	-138.007202975667	-0.938709472498627	-137.898833875974	-20.1131451822274	156.937707484293	
949600000	-20.0441942400827	103.592285190113	-0.933520234886756	-142.782809760095	-0.945088603978066	-142.71783153467	-20.0267592482897	150.939766086517	
951300000	-19.898638080674	98.7351571302986	-0.934796513479497	-147.533195793238	-0.93558884617583	-147.438936959074	-19.9223241758712	145.490487664661	
953000000	-19.7621238963671	94.0264561632979	-0.936299334837828	-152.190184791327	-0.931280561915616	-152.177973319321	-19.8458428481366	140.072787963628	
954700000	-19.6582213227187	89.153439659486	-0.936386327026514	-156.865972999131	-0.936465359684477	-156.802099463218	-19.7985320835621	134.488632512446	
956400000	-19.5911246658118	84.405772256938	-0.947529387606127	-161.699004293051	-0.954137918699426	-161.666974025536	-19.7902745066224	128.857246026779	
958100000	-19.4969074170863	79.5076348521629	-0.939826952533218	-166.468299444475	-0.948960091765214	-166.438945404107	-19.7575244852619	123.295833180899	
959800000	-19.4043762143714	74.7173487299869	-0.938166485767076	-171.171118151464	-0.945419710297148	-171.166021156167	-19.7507644855489	117.813303577752	
961500000	-19.3907810733409	70.1239572874404	-0.950968087519163	-175.801757789851	-0.943288323142033	-175.822284644842	-19.7348091906195	112.289440753234	
963200000	-19.3234355543437	65.2167710259767	-0.937876924038697	179.418148867311	-0.944787046830459	179.35854227549	-19.6917103883009	107.281620588232	
964900000	-19.315068072387	60.4442026318468	-0.949086197483809	174.682023541677	-0.950481076580591	174.657422425189	-19.7329199294174	101.440410742655	
966600000	-19.2964059360052	55.6196840464201	-0.938714330801592	169.938500619364	-0.952472828694299	169.894724603018	-19.7435703444262	96.2899273994408	
968300000	-19.3034083782898	50.7654005944295	-0.944360310882621	165.21714561903	-0.941475227637156	165.135773663255	-19.7885145573097	90.8449055404319	
970000000	-19.3229801074171	45.9927980812893	-0.949839288739213	160.42346154894	-0.946727241023606	160.436822071398	-19.8220609397778	85.5209339808091	
971700000	-19.403710054045	41.1868183103446	-0.946133198879439	155.693496205304	-0.950944917723334	155.601135481604	-19.8741514482595	80.3450251982156	
973400000	-19.4445720583245	36.441883066853	-0.948598868798542	150.923885778405	-0.945865866243927	150.849288904538	-19.9465652145482	75.0605790524425	
975100000	-19.4920352443249	31.6764990176039	-0.943551308025989	146.263883920107	-0.950488112259926	146.125061056285	-20.0060594535946	69.7987923201592	
976800000	-19.5940476290372	26.7821188507715	-0.934153325174151	141.432966448122	-0.931125537498854	141.345755048097	-20.1056360485038	64.7722924767685	
978500000	-19.7088628812891	22.0568106752894	-0.944148634402168	136.662757302594	-0.938036357809501	136.660120349994	-20.2395464872687	59.8548802619954	
980200000	-19.8091248039529	17.2308455925926	-0.938416355880818	131.956531651163	-0.927645960870994	131.884850246484	-20.2961183641915	54.6722031126721	
981900000	-19.9144128842507	12.3616283346972	-0.930350238871843	127.161878209015	-0.941696777215654	127.096742717052	-20.4549680378192	49.9325428354498	
983600000	-20.0373561025116	7.53353066028447	-0.92324514625851	122.324532759532	-0.928560674126155	122.332944652982	-20.5873799462313	44.962395554008	
985300000	-20.2199870166113	2.87694683662979	-0.932930434782404	117.629389450604	-0.937460543675838	117.65815320126	-20.7256989885191	40.119181856045	
987000000	-20.3655229247617	-1.69956158083473	-0.928318277335565	112.898370737868	-0.940247629531584	112.843830460217	-20.8826173544456	35.3157058848654	
988700000	-20.5525822220819	-6.43206473041607	-0.93464711273791	108.177118578689	-0.939048621004685	108.038389619658	-21.1150338170802	30.6187094072759	
990400000	-20.7367405789598	-11.1187334866943	-0.926377595851484	103.354493918365	-0.933391407037337	103.334835748739	-21.2317122962242	25.988420000194	
992100000	-20.9161299122328	-16.233859049722	-0.914672336027754	98.5399710519917	-0.932654520687614	98.5634710493515	-21.4531089898203	21.6851277460078	
993800000	-21.1693481161065	-20.6052758031559	-0.922524234658591	93.899031190693	-0.92726791978916	93.8059144523845	-21.6796386164498	16.9742483925427	
995500000	-21.3707293796165	-25.81044842425	-0.918579919408326	89.0001717298913	-0.926080061498693	89.0668247292334	-21.8851421083173	12.9034653077427	
997200000	-21.594070527187	-30.0981168332351	-0.922371793714996	84.2659682608279	-0.916362432584693	84.2954591077199	-22.0862758915291	8.26365410788691	
998900000	-21.7990703711749	-34.8734342242757	-0.9071761730058	79.5170930313865	-0.927838914436438	79.5378672958305	-22.3102277172582	4.35045273673322	
1000600000	-22.1059013552407	-39.8528599744255	-0.920684887685765	74.6732274955176	-0.925431249579968	74.8325029084221	-22.5620015913231	0.0532885753745584	
1002300000	-22.3476768594943	-44.2538285185254	-0.913687294416438	69.8911863768007	-0.920037904419776	70.0407155587844	-22.7424761870305	-3.9976705764449	
1004000000	-22.6347901344597	-48.8383352573544	-0.916486252411608	65.1229011272544	-0.921022424333518	65.1471585392377	-23.0082085705397	-7.96974641134562	
1005700000	-22.8966223363023	-53.6686302889534	-0.90993892979136	60.3754004350246	-0.913072906434798	60.4630303752926	-23.215563648019	-11.6617569050921	
1007400000	-23.1204194651109	-58.3450498354201	-0.908784593070035	55.5972043229121	-0.921412064672075	55.7105399332131	-23.4188921739707	-15.5026261439878	
1009100000	-23.3567587062027	-62.8518784081524	-0.905709759367593	50.829588985829	-0.920693809640752	50.9109429976877	-23.6104758044283	-18.7439105895221	
1010800000	-23.6299846932992	-67.3920615576739	-0.907760415641213	46.063815966033	-0.913480084689705	46.1677377206072	-23.7949351481316	-22.497675138384	
1012500000	-23.8049564427167	-72.0006690126406	-0.912306862991281	41.3051156326572	-0.913657074439152	41.305994302492	-24.0064178960092	-26.0143780788286	
1014200000	-24.0735683650971	-76.5616303443222	-0.914220866458204	36.5294677756562	-0.925096724516243	36.6096480850892	-24.1050191270138	-29.3025013079709	
