!Keysight Technologies N9950B: A.12.38
!Date: Tuesday, 25 April 2023 12:37:43
!Timezone: (UTC-06:00) Central Time (US & Canada)
!Model: N9950B
!Serial: MY61131330
!GPS Latitude: 
!GPS Longitude: 
!GPS TimeStamp: 0001-01-01 00:00:00Z
!GPS Seconds Since Last Read: 0
!CHECKSUM:1497885406
!Correction: S11(Rdy)S21(Rdy)S12(Rdy)S22(Rdy)
!S2P File: Measurements:S11,S21,S12,S22:
# Hz S DB R 50
800000000	-18.202328523991	157.344864377535	-1.02335531191399	-87.173071260961	-1.03408511623348	-87.0945987659325	-17.8086206542466	-156.393458327557	
801700000	-18.0582370484128	152.580596689954	-1.03928707763808	-91.9144924515304	-1.04362211498102	-91.8774203136793	-17.692890055383	-161.693996416355	
803400000	-17.935654244831	147.972090972891	-1.0414228414477	-96.705628917812	-1.05174485342857	-96.6555298498673	-17.5940817154833	-166.969177096035	
805100000	-17.8147997084569	143.125371070998	-1.05387273153142	-101.468538772266	-1.04794455041714	-101.45337560089	-17.4939208586575	-172.31742022764	
806800000	-17.6935438137977	138.431968794474	-1.04910770185883	-106.174805767893	-1.04962892278454	-106.159519064922	-17.4102188094661	-177.548584326885	
808500000	-17.5282157982692	133.603123900258	-1.04902257552343	-110.965978624338	-1.06003472124796	-110.932242161342	-17.2980460830183	177.252152411184	
810200000	-17.4667762242757	128.6812246897	-1.06547620054805	-115.775876625113	-1.05573142952586	-115.648861159395	-17.2259489042736	171.969423744079	
811900000	-17.3784458975697	123.961555040752	-1.06180625610127	-120.38097800232	-1.07228726556973	-120.385217998931	-17.1332044839961	166.629994229125	
813600000	-17.2548205603199	119.245036717235	-1.06690181242506	-125.221153953053	-1.0793376415773	-125.096544294393	-17.0895266397153	161.377646703164	
815300000	-17.1475606992478	114.264129894572	-1.07088440675151	-129.939890578971	-1.07232645363472	-129.880524430604	-16.9805883467846	156.1158028668	
817000000	-17.0725782017977	109.605201791129	-1.07604404310528	-134.609350691099	-1.06993182198236	-134.64728854943	-16.9120690952179	150.704207295927	
818700000	-16.9847013023613	104.719347234625	-1.08033506292497	-139.387407261657	-1.08224326729135	-139.369066925019	-16.8713645111263	145.39164907865	
820400000	-16.9071825483523	99.9934460979582	-1.07333319928921	-144.166650061663	-1.08336306829019	-144.120270984665	-16.8247639265579	140.189840567184	
822100000	-16.8498957202692	95.1041607472177	-1.08052610909497	-148.915324939847	-1.08969741717716	-148.789911215836	-16.794419280441	135.038174400374	
823800000	-16.7762488709186	90.1611490732544	-1.07016213767435	-153.686711575892	-1.08604917612341	-153.593990275975	-16.7506656441582	129.620073349834	
825500000	-16.751791080478	85.4190114926016	-1.09360000581936	-158.429533540698	-1.09273761921345	-158.292160436187	-16.7429744702483	124.416290350823	
827200000	-16.7239674795423	80.5400546532655	-1.08308730816964	-163.134147611809	-1.09471730808515	-163.015540475001	-16.7176324470171	119.242752407163	
828900000	-16.6921490445448	75.531788184926	-1.08423147598082	-167.945849138569	-1.08894639579071	-167.788405650603	-16.67404718344	114.092244670604	
830600000	-16.6563399185457	70.6343831063558	-1.08652090659458	-172.705370780269	-1.08655103112944	-172.539859929247	-16.6681033389837	108.893397205916	
832300000	-16.6192669430616	65.651124321663	-1.07798393008636	-177.462146701597	-1.08729300852933	-177.262341547411	-16.6853455981893	103.686877814665	
834000000	-16.6234979613687	60.9758209805703	-1.08381724326837	177.874405504445	-1.09958891369955	177.967724425057	-16.6979776653481	98.3454151121292	
835700000	-16.6125581355729	55.8518322482644	-1.08421254306602	173.131212736729	-1.09047480407522	173.263882303872	-16.7072331464537	93.655957988242	
837400000	-16.6517366939967	50.9812506412283	-1.07806483609921	168.320247130409	-1.0907179097966	168.47943933568	-16.7626376387075	88.3208160542527	
839100000	-16.6651291200585	46.0844321589443	-1.08477446880326	163.623811424061	-1.08143310875287	163.762005113436	-16.7568946731565	83.3785806212921	
840800000	-16.668935980475	41.0818936833961	-1.07342939929527	158.85319212844	-1.0884895575869	158.983084385546	-16.8221780397749	78.3499941394322	
842500000	-16.7509376690742	36.2442779046442	-1.07660797902837	154.20434934052	-1.08752885872294	154.190978623541	-16.8712033242147	73.3504760407171	
844200000	-16.7795962733276	31.1974176013269	-1.08010754011204	149.387847020408	-1.08062418470688	149.447565280447	-16.9420447563815	68.3775701644961	
845900000	-16.8334126524988	26.1152882809838	-1.07054110255692	144.639374177496	-1.0810958761671	144.644011598436	-16.9663181124552	63.5622389068345	
847600000	-16.8857325949857	21.3756983549713	-1.06986786358031	139.896305392162	-1.07397762000221	139.907743168272	-17.0537217663129	58.7075599505401	
849300000	-16.9719193273234	16.3842476695583	-1.06725252913984	135.067347317868	-1.07521144089859	135.146666315428	-17.1564477615587	53.7326129910992	
851000000	-17.0169956910282	11.2046744142912	-1.06977537304446	130.34688183411	-1.07600159488691	130.440327195507	-17.239435788835	49.156012931753	
852700000	-17.1026583144384	6.28966998718908	-1.0596977207939	125.664742719071	-1.07537161605971	125.665282110966	-17.3489182036461	44.4081573572951	
854400000	-17.1997751342676	1.1732612476969	-1.05295662830883	120.869841965025	-1.07899875794588	120.854137188648	-17.407556161719	39.7450235574847	
856100000	-17.2996610132298	-3.91540346409178	-1.064393603857	116.112094074662	-1.06172490214103	116.049639810359	-17.5254167655181	35.01684508944	
857800000	-17.4014182802007	-8.9055991435044	-1.05447389337848	111.401686527359	-1.06468874805977	111.42739821473	-17.6374839113945	30.6310319283171	
859500000	-17.507730064323	-13.8425775840423	-1.04632496283671	106.617483661015	-1.0578954433803	106.545655195418	-17.7376874289726	25.9898373135726	
861200000	-17.6122373143465	-18.8582698985475	-1.0515537794483	101.815946215293	-1.05613293507889	101.85496194191	-17.8471433295624	21.6114352367897	
862900000	-17.7450741132548	-24.0041400793291	-1.03384654893458	97.0652757601956	-1.0602817632166	96.9760794592702	-17.9555549979987	17.1962590151247	
864600000	-17.8413801013642	-28.6706196315591	-1.03992998573536	92.3045376779655	-1.05244326088293	92.1970688161388	-18.0736498817711	12.806949398209	
866300000	-17.9750441374329	-33.9695316329791	-1.05180884769601	87.6008434633854	-1.03655898424989	87.3396000284486	-18.1891417997043	8.47216157896163	
868000000	-18.068893316791	-39.083110565792	-1.04366270386516	82.7083246554544	-1.04713200779239	82.6948358685775	-18.3320434140272	4.34554191612627	
869700000	-18.2087692778825	-44.1402798106499	-1.04250354182769	77.9295034192109	-1.04268519475845	77.86475018151	-18.4280255326512	0.0171765091172477	
871400000	-18.310569599833	-49.1167397348651	-1.04972871766066	73.1796842250591	-1.0573883233631	73.0944387689671	-18.523553684367	-3.83972354785972	
873100000	-18.4499785427959	-54.0638537278174	-1.04508006129663	68.4157729888363	-1.05036011752664	68.2547447393606	-18.6305320654561	-8.19652027849176	
874800000	-18.5523746437023	-59.1948644840778	-1.03681411638444	63.6441992846515	-1.04011006108677	63.5745638461204	-18.7054400325373	-12.0635928534837	
876500000	-18.6556323776316	-64.3531797408483	-1.04683741942326	58.7846716652062	-1.04249731168749	58.6742064382955	-18.8292722987484	-15.9109351784869	
878200000	-18.7756822764431	-69.4384238123693	-1.05274814840942	53.9220272794352	-1.04320506611986	53.9591418420393	-18.9149872573494	-19.924495420017	
879900000	-18.8744837048428	-74.2872748122734	-1.03829736453027	49.1559486134815	-1.04379603806492	49.1358221671874	-18.9973455078238	-23.9303121468732	
881600000	-18.979650221312	-79.4329760059452	-1.03599436744001	44.3531196998984	-1.04629258102941	44.348814927175	-19.0660155240456	-27.7957442187904	
883300000	-19.0485288556801	-84.4086737961151	-1.03819908061777	39.5789601247882	-1.05133304691849	39.5743070369249	-19.1078187352304	-31.6384528707953	
885000000	-19.1084627419054	-89.3436264283989	-1.04473236471423	34.8190490690036	-1.04772158347855	34.8588830019151	-19.1354574276195	-35.5803753924251	
886700000	-19.1996633561852	-94.3965403229827	-1.05410258648768	29.9911345647535	-1.06214076837752	29.9989768982809	-19.2273498965132	-39.3517232730158	
888400000	-19.2818837716161	-99.4637359213675	-1.05875927024411	25.1874358074756	-1.0478638475204	25.2811385277965	-19.1871321635791	-43.0665741639404	
890100000	-19.2826360052015	-104.456629329877	-1.05008097312936	20.3645600314682	-1.05581194405718	20.4088143183009	-19.2128684149622	-47.0755984476981	
891800000	-19.3201255062111	-109.226450049793	-1.04731945586455	15.5833561067415	-1.05624402655272	15.6545946975853	-19.2156820358395	-50.9259144056492	
893500000	-19.3526404782793	-114.047625187517	-1.05872771516617	10.8037569860922	-1.0557569350829	10.8459955160695	-19.1595804520832	-54.840556185239	
895200000	-19.3562460093165	-119.079714544809	-1.04267317155815	6.05244220090165	-1.05525240605163	6.09267686183701	-19.1335904130325	-58.9102880142429	
896900000	-19.3418559085038	-123.841855069361	-1.05107529985657	1.3807619977133	-1.06783990535853	1.35064759080563	-19.105748946822	-62.8233316259693	
898600000	-19.3661605930889	-128.774157137209	-1.06447528230569	-3.53228182920426	-1.0611029952817	-3.39142242770659	-19.0637614435979	-66.936254817415	
900300000	-19.2895796969424	-133.489318899367	-1.0645984773441	-8.25112856751614	-1.05851640531054	-8.21985967091073	-18.9621023185023	-71.1440374339725	
902000000	-19.2630345802956	-138.392762306868	-1.06425509121924	-13.1358608289859	-1.06705734467263	-13.0412185579261	-18.8898538662278	-75.1449342155276	
903700000	-19.1989888906273	-143.093713109541	-1.06431142495776	-17.8425301380796	-1.07568261016447	-17.7835646177156	-18.8168726101391	-79.5693200618355	
905400000	-19.1216926104572	-147.826389521138	-1.06878170128653	-22.6351350000088	-1.08125259334209	-22.6194169125385	-18.7354827917987	-84.1071205431096	
907100000	-19.0601784120953	-152.693985832565	-1.06843243809718	-27.4332103607617	-1.08373289454827	-27.379217941072	-18.6200209019255	-88.4284157975548	
908800000	-18.9774472198172	-157.220086885423	-1.07012919704636	-32.140066400327	-1.08131916969929	-32.218408128888	-18.5290891632904	-92.9010630886894	
910500000	-18.8890397948707	-162.043971280294	-1.07836738456036	-36.9540212760868	-1.0948957514469	-36.9801600172063	-18.4026078004763	-97.5793361245739	
912200000	-18.7735898486069	-166.767320536552	-1.08562514452352	-41.8288508644912	-1.08313000591893	-41.7783774838591	-18.2761280381249	-102.239055189578	
913900000	-18.6424769791394	-171.567730523357	-1.08430261548557	-46.5403154379047	-1.10396462439089	-46.5303611260482	-18.2099126279613	-107.007222850832	
915600000	-18.516742613575	-176.17938403831	-1.0875859247254	-51.3264147163692	-1.1054604355146	-51.347936230601	-18.0647408283173	-111.761133691499	
917300000	-18.379986826182	179.044876269246	-1.09826167961157	-56.1997407355429	-1.11353917908316	-56.0010623074562	-17.9330361239179	-116.497256227116	
919000000	-18.2511999788564	174.36514912837	-1.10258018472504	-60.9497293841725	-1.10669612189815	-60.8775817658289	-17.7845600611512	-121.766125642736	
920700000	-18.1304098555594	169.814098018655	-1.1157442355568	-65.7147447573555	-1.11199698098368	-65.6880216474284	-17.7051945712444	-126.723900641986	
922400000	-17.9938428905421	165.111412159005	-1.11997131060992	-70.5071110814516	-1.13204279202267	-70.3700971728597	-17.5971558822763	-131.597375322661	
924100000	-17.8080424041963	160.6767717137	-1.12610199472084	-75.1838270949488	-1.13032506522253	-75.167783112249	-17.4411081341156	-136.686965983813	
925800000	-17.6623449391214	155.971163994232	-1.13069054990092	-79.9916550282813	-1.13367583408528	-79.9086633878415	-17.3219357763917	-141.863305250227	
927500000	-17.5175730639062	151.084242217139	-1.13046728086861	-84.8140003934081	-1.14414158779099	-84.7481757852019	-17.2273029361952	-147.166306535338	
929200000	-17.3549602716894	146.475307158956	-1.12620951576532	-89.5919520857797	-1.15060333263387	-89.5119693871793	-17.1207565832	-152.30828437409	
930900000	-17.2381992252297	141.86599641122	-1.1403269448685	-94.3022886868898	-1.1467532856807	-94.2007842181066	-16.9758785936648	-157.499560347336	
932600000	-17.0856385972538	137.122179593248	-1.14371780378708	-99.1323984482394	-1.15533476729315	-98.9529383493657	-16.8658827585295	-162.715675320397	
934300000	-16.9687064687853	132.613780857849	-1.15844674435604	-103.842339105309	-1.16189460266919	-103.687766242223	-16.7580111423045	-167.847003145296	
936000000	-16.8138378714357	127.811602307399	-1.15427661954071	-108.637575117823	-1.1633583160634	-108.44430539185	-16.6480222075668	-173.062430595849	
937700000	-16.6684924256841	123.17650408327	-1.16017407841191	-113.40750458745	-1.17006735017283	-113.235129582228	-16.5450701240397	-178.590009686431	
939400000	-16.5509944634975	118.505125403917	-1.15828380559476	-118.171907430658	-1.1722225238893	-117.961386866598	-16.4659789291483	176.289761945332	
941100000	-16.4640889044408	113.749977184891	-1.17846941121973	-122.870583077244	-1.17734842283864	-122.696356084256	-16.3662071170661	170.96847945945	
942800000	-16.3320179662212	109.055328790487	-1.17431869821776	-127.627574281342	-1.18837401212414	-127.472421455581	-16.29448561409	165.670623380553	
944500000	-16.2347522462392	104.410260938265	-1.17744080158216	-132.257976447738	-1.18944759626083	-132.23602959814	-16.209822284845	160.316169167388	
946200000	-16.1280540876795	99.7315870134171	-1.18439109425105	-137.01670751708	-1.19690230977668	-136.999374060755	-16.1539322117476	154.946939810661	
947900000	-16.0137525556284	94.9803985591064	-1.18364289859838	-141.768051204102	-1.19642340669164	-141.717122587621	-16.0600627209373	149.649118086822	
949600000	-15.9239694620848	90.4414853440339	-1.17868338144285	-146.464680384393	-1.19227555687587	-146.457214452363	-16.0007382094643	144.394050192683	
951300000	-15.8658417066437	85.5444531142135	-1.19477218105881	-151.259795069971	-1.19810959736886	-151.161272794126	-15.973832229013	139.333719013368	
953000000	-15.7988611263728	80.9397735331432	-1.19116656907378	-155.948180372867	-1.19601625497217	-155.878928412784	-15.9209721745406	134.104134081702	
954700000	-15.7357212251988	76.1071128550922	-1.19311399827055	-160.779843985966	-1.20531490370224	-160.601893242655	-15.8896758582914	128.858690585552	
956400000	-15.662686955499	71.4767832623321	-1.19910863160181	-165.387271274884	-1.20052145233133	-165.442735724139	-15.8592598659371	123.652059343337	
958100000	-15.6377207116208	66.7104189434715	-1.20531875889635	-170.16052813618	-1.19715113505808	-170.202115556594	-15.8629209972206	118.430477024756	
959800000	-15.5814835150731	61.8563889575169	-1.19638462250972	-174.925399953692	-1.20454803899371	-174.911648623503	-15.8254252292986	113.239692561608	
961500000	-15.5729633289052	57.125192231492	-1.2016789485011	-179.619644561046	-1.18895290339374	-179.624375333825	-15.8014639440707	108.173921623786	
963200000	-15.5287453476324	52.2577519331091	-1.19857003036496	175.55974637485	-1.20868742193732	175.698575667688	-15.8336573022926	103.018517114319	
964900000	-15.5245786595132	47.6398898405766	-1.19658979601955	170.984459242985	-1.19830492081641	170.943686568442	-15.8305018481669	98.0430622341355	
966600000	-15.5362488128622	42.6177087529275	-1.19151898836271	166.137516055044	-1.1976204336424	166.143357222518	-15.8429580705106	92.8566412473951	
968300000	-15.5374252631801	38.0381459180604	-1.19035653537944	161.514678281566	-1.19838864816586	161.380323355401	-15.8726413013712	87.6492957826085	
970000000	-15.5429505667399	33.1221173333996	-1.19771800737967	156.777301561145	-1.19377987265099	156.693048312364	-15.8925777787727	82.8731177125449	
971700000	-15.5637739265426	28.4747102613857	-1.18098066448891	152.058705239446	-1.19208763995173	151.906311342259	-15.95035451584	77.7434109625874	
973400000	-15.6089656908933	23.4670575325351	-1.18605146327384	147.214418383848	-1.19253932047458	147.12417299771	-15.9654775350202	72.8500178791666	
975100000	-15.6483440026221	18.6858283835542	-1.19418950644461	142.607416482887	-1.19224778121134	142.341325900529	-16.0229177907102	67.8727110178907	
976800000	-15.6883367488748	13.7957352868743	-1.16786221235102	137.746397149199	-1.19515373521176	137.640367146386	-16.0965486263471	62.9777247958931	
978500000	-15.7694927901832	9.11685637892658	-1.17970099195582	133.056842547486	-1.17859856952113	132.865194732557	-16.133554295603	58.0665135670382	
980200000	-15.837788376233	4.01173034432817	-1.17727551912786	128.19176550202	-1.18817412034255	128.112272625864	-16.2161806845011	53.3287434918182	
981900000	-15.9077607733029	-0.797799955078993	-1.17219778833152	123.440822701255	-1.17989521847887	123.303576797167	-16.2804853501625	48.4508921337194	
983600000	-15.9908057935157	-5.68389631072819	-1.17537387441164	118.724622587783	-1.18621689602498	118.632988712786	-16.3732241111048	43.8399668735524	
985300000	-16.0732396523844	-10.5615416274243	-1.16316847648392	113.912353752796	-1.16902921118617	113.883525894922	-16.4498581653653	39.0800917159408	
987000000	-16.1566742430755	-15.5551617756038	-1.16096825507209	109.092653821976	-1.17029458249407	109.061675278768	-16.5369777155845	34.4325247609107	
988700000	-16.2530416692651	-20.3271210417779	-1.16508830206969	104.416578259552	-1.17331968382878	104.395758214341	-16.6531964890416	29.8207305817461	
990400000	-16.3998012739089	-25.4787886308916	-1.17065051470783	99.5122499577059	-1.16036528558037	99.5446594233106	-16.742369087394	25.1878931763461	
992100000	-16.4855459855674	-30.3135335768062	-1.15776813429435	94.8001695379424	-1.16686250658253	94.902513099521	-16.8644062171	20.6548888890363	
993800000	-16.5926519154001	-35.2122754630755	-1.13603213334209	90.0263255339141	-1.15796818195848	90.0982796287719	-16.9808075919247	16.1784148328009	
995500000	-16.7162477976448	-40.1581809241037	-1.14591008636832	85.1797252736909	-1.15357887225991	85.3181877799806	-17.1055867789769	11.702317845021	
997200000	-16.8548219870146	-45.0315352837901	-1.13316054815074	80.4889832079811	-1.15393256781374	80.5208569900333	-17.2137727930265	7.19760174284045	
998900000	-16.9858351892521	-49.9616170791109	-1.1555747549456	75.6546330166918	-1.15512234092851	75.7447458938441	-17.3187142870983	2.94733045818364	
1000600000	-17.116640315968	-55.039435779269	-1.13698467985353	70.8642761304288	-1.14702926048647	70.9960788296734	-17.4472577520118	-1.46637844137708	
1002300000	-17.2396184638065	-59.8246596965567	-1.14759573408766	66.0497444734333	-1.15875424984063	66.1890994238423	-17.5477403321094	-5.59927830199053	
1004000000	-17.35659290113	-64.8236993741854	-1.13722636469759	61.2932197868793	-1.14227518318353	61.4018570001798	-17.6489852640548	-9.98397652350099	
1005700000	-17.4790489241622	-69.7488337154372	-1.13205865724239	56.4790292591438	-1.14714442070828	56.5506848800616	-17.759368384605	-14.0723652728387	
1007400000	-17.6228898266933	-74.8347151651273	-1.13511285628318	51.6756477510108	-1.13478509651304	51.7625488179976	-17.832576820422	-18.2857540951165	
1009100000	-17.7338793649077	-79.5866734074669	-1.1287067291351	46.9321751780987	-1.15121915384034	47.0293749515081	-17.9401684306928	-22.4821231653977	
1010800000	-17.8510674691447	-84.5124765692577	-1.13443955153724	42.1883749089731	-1.13737515760042	42.2037397042351	-18.0558081636692	-26.7454181181129	
1012500000	-17.9617982880737	-89.3869659545338	-1.13198392566095	37.3900408030945	-1.14539360415367	37.4295218038286	-18.1115342206198	-30.7894382242114	
1014200000	-18.0732714741707	-94.3366594417627	-1.14881094366723	32.6004426284994	-1.14445772199469	32.566265301563	-18.1668948027497	-34.8740799210477	
1015900000	-18.1938598409963	-99.2509527963312	-1.14411580942549	27.7232905688537	-1.14741489088105	27.7986848390231	-18.2284614833579	-38.9155766938348	
1017600000	-18.2432694949121	-104.185907152112	-1.13405552372968	22.9705594522769	-1.14335831305272	23.0561233183762	-18.2742275461588	-43.0387946351166	
