!Keysight Technologies N9950B: A.12.38
!Date: Tuesday, 25 April 2023 12:31:35
!Timezone: (UTC-06:00) Central Time (US & Canada)
!Model: N9950B
!Serial: MY61131330
!GPS Latitude: 
!GPS Longitude: 
!GPS TimeStamp: 0001-01-01 00:00:00Z
!GPS Seconds Since Last Read: 0
!CHECKSUM:1416468995
!Correction: S11(Rdy)S21(Rdy)S12(Rdy)S22(Rdy)
!S2P File: Measurements:S11,S21,S12,S22:
# Hz S DB R 50
800000000	-24.9898270929619	175.634818187792	-0.806921195670716	-82.8392914534156	-0.829616432845198	-82.7804695878948	-24.1349069662951	-141.504483058493	
801700000	-24.717885063752	170.65349232816	-0.812781323263601	-87.5968862564583	-0.82298724660321	-87.587748650901	-23.9059527651801	-147.846462746241	
803400000	-24.3792631010749	165.853549131461	-0.824396541899341	-92.2731371346522	-0.820372861587197	-92.2609905285489	-23.7227935623839	-153.624199208221	
805100000	-24.1501377470347	160.498067449871	-0.827793903441792	-97.1249673285845	-0.834738595264967	-96.9902481237695	-23.5377078372136	-159.572143632659	
806800000	-23.8956376651095	155.49056522709	-0.817084239711157	-101.829401176565	-0.83097397719981	-101.779506626227	-23.4034627783558	-165.439115754776	
808500000	-23.682854685399	150.442909800072	-0.822903663832769	-106.581379064092	-0.842575755908743	-106.533844400406	-23.2207264413592	-171.673120157138	
810200000	-23.4408098547939	145.339934287138	-0.829872912342541	-111.35945291379	-0.852368856606118	-111.295629210137	-23.1198964601436	-177.623397774874	
811900000	-23.2295090970253	140.426335763406	-0.839604267703579	-116.087688287339	-0.825135348245712	-116.06683795553	-22.8733418775897	176.487831732528	
813600000	-23.0251517020307	135.139414699172	-0.837231675143735	-120.898474240624	-0.841796882127083	-120.842922066196	-22.7788096988095	170.427474236558	
815300000	-22.8296871766501	130.270345950866	-0.831866485072597	-125.699847555223	-0.854127987232643	-125.577331696442	-22.6978392328946	164.437983285498	
817000000	-22.7432159616003	125.271559554168	-0.843258549489808	-130.35489823427	-0.846508128216383	-130.337643836887	-22.5344323651576	158.401093983619	
818700000	-22.5369554462598	120.080800654783	-0.836260120690736	-135.137182286453	-0.844502057727445	-135.064090237302	-22.4460439423903	152.781159341521	
820400000	-22.3833251646576	114.893277664282	-0.837014364105364	-139.88684985728	-0.845306276727389	-139.782851160868	-22.3570658606467	146.951689606979	
822100000	-22.2990052517071	110.05598313413	-0.846949422397105	-144.64176105097	-0.858000949694455	-144.499217400493	-22.3048038405143	141.241216674411	
823800000	-22.2071489796326	104.975867682854	-0.861100774885095	-149.376772271026	-0.859394413050698	-149.322069851972	-22.1838273011802	135.177535021211	
825500000	-22.092781307691	99.8526442957096	-0.842029602648433	-154.158628333165	-0.852465748143728	-153.929141991038	-22.1572005842937	129.560699307284	
827200000	-22.011848140929	95.0083737205617	-0.851016967684941	-158.85362395695	-0.853561504494376	-158.785321838028	-22.1271275988471	123.710617365269	
828900000	-21.96004018933	89.8990335020902	-0.845543790694102	-163.597828497091	-0.863559045498898	-163.484469930688	-22.1198462220014	117.854194592723	
830600000	-21.9485832726985	85.0057955104499	-0.844942045507377	-168.36221470423	-0.861689163987838	-168.264601182557	-22.0696999550409	112.191712101294	
832300000	-21.9297930535206	79.8778778891062	-0.846968637505774	-173.080311533851	-0.856695338534686	-173.081573450292	-22.0609628014656	106.466825863445	
834000000	-21.8983965063304	74.9645485703684	-0.85103264478308	-177.868047644592	-0.853911157040118	-177.764319180695	-22.0780193020954	100.839109898374	
835700000	-21.8914645189592	69.8022179586316	-0.850938538422293	177.357204411704	-0.85912951145492	177.450543407097	-22.0914741514606	95.4586855375419	
837400000	-21.9274816241498	64.9227623252789	-0.850119684582479	172.640410581405	-0.847071071154851	172.789651634847	-22.125863654442	90.0758996040969	
839100000	-21.9721655619994	59.9555815588827	-0.845721772530042	167.896834204877	-0.858270262904903	167.94621053778	-22.213152956869	84.2826111090786	
840800000	-22.044726616202	55.0280030785391	-0.848429600875922	163.195063462592	-0.855041018653934	163.237624228984	-22.2360506784247	78.9288054137166	
842500000	-22.0824543809678	49.8595756223222	-0.852176984498112	158.46422332006	-0.854565750268634	158.50356493349	-22.3882793181125	73.5972417179395	
844200000	-22.1855884160688	44.9312523228324	-0.84334218222515	153.611157825496	-0.856606389689282	153.713826251795	-22.4458955578888	68.3653156219503	
845900000	-22.3102847178914	40.119867519434	-0.841800360629491	148.908286148789	-0.851615973687218	148.974348924621	-22.5647894603856	63.0875943664894	
847600000	-22.435111375222	34.9242505262711	-0.849170740238896	144.150917581769	-0.844947169987226	144.250845861507	-22.7025649593189	57.801211444305	
849300000	-22.586141031783	29.7944906228686	-0.845730720945676	139.425014542153	-0.844051087438595	139.49333604737	-22.8824363492507	52.5158890531693	
851000000	-22.7421940305208	24.7694495964266	-0.842800283586656	134.716654428034	-0.8469293022901	134.723234118732	-23.0600810334695	47.304748501967	
852700000	-22.927340970147	19.8123708211524	-0.852398487037631	129.998481596988	-0.858527925249229	129.900369692459	-23.2453277657692	42.8217102181443	
854400000	-23.1132604064707	14.7427088533578	-0.847756257668475	125.212921508295	-0.849277842842724	125.245956187015	-23.4961863134722	37.8438147626508	
856100000	-23.3340159360573	9.51115083736823	-0.84280053408652	120.483258163164	-0.855090895230591	120.348673747555	-23.7049619239427	33.2145052654229	
857800000	-23.5721528599956	4.9964894060265	-0.849359252740525	115.797993289417	-0.856870082733404	115.687945818324	-23.9336910532208	28.2560006736066	
859500000	-23.770372191782	-0.164952118834513	-0.844286346607064	111.026935878027	-0.853651754126587	110.910150662754	-24.1389201625609	23.8594886294523	
861200000	-24.0533446593764	-5.06763277704644	-0.841249503435516	106.226209834204	-0.855188984127462	106.100003114905	-24.4295950319426	19.3371758902362	
862900000	-24.3436524104177	-10.1790290796235	-0.839303873719035	101.373606495606	-0.849028135581807	101.275296812916	-24.7114709022021	15.0553693378662	
864600000	-24.6123097482567	-14.9176725906451	-0.83447826799614	96.7111318979535	-0.838500768210332	96.5611089783524	-25.0103517162807	10.4457076932559	
866300000	-24.9116347052598	-20.1883286297239	-0.839426962500863	91.8731386109744	-0.843691438180998	91.771836912081	-25.2979945379458	6.85085495925933	
868000000	-25.2428136024848	-24.9260335726381	-0.84077449777846	87.089449104956	-0.842726578473598	86.9980914052927	-25.6352608222514	3.53313817703435	
869700000	-25.4987639154626	-29.8047373866808	-0.827241076034367	82.3758783898083	-0.853713740792375	82.2697133895416	-25.964325818343	-0.548916005165681	
871400000	-25.8876572848957	-35.3351522737176	-0.840493433779648	77.639454903281	-0.844642302216818	77.5217619772058	-26.1967255043466	-4.02356368891326	
873100000	-26.2037850857221	-40.162342783971	-0.840625516722065	72.7856793460323	-0.839628904903695	72.7784104227222	-26.6061340424335	-8.08286645304969	
874800000	-26.5271129858595	-44.8799911068487	-0.83624171260784	68.0523775067443	-0.850835392215797	67.9478880841762	-26.8845025866247	-10.283531380963	
876500000	-26.8556478676266	-50.2334803218951	-0.837099562977282	63.1856534636522	-0.834553919405967	63.2441152504114	-27.152785463939	-13.2001477512013	
878200000	-27.1655065796138	-55.0290254659186	-0.836148205927664	58.4499675039931	-0.852120527970627	58.4656408501594	-27.4657712264099	-15.6225401115961	
879900000	-27.4670758138045	-59.9148146688649	-0.836867575897652	53.6674704672551	-0.852901998427895	53.7051772154616	-27.6309382301899	-18.4857490522077	
881600000	-27.8054370921872	-64.9877162432505	-0.825737103578029	48.9661965546607	-0.849089967024642	48.9236438880397	-27.9804170324572	-20.3352710716708	
883300000	-28.0828761097956	-70.2835629101662	-0.853685248553131	44.2065752130986	-0.853927383146472	44.1496078450965	-28.0679081943709	-22.7044245252597	
885000000	-28.3578792926025	-75.0272081445928	-0.834613506414748	39.3962713158976	-0.844710677446684	39.463100576853	-28.2966732485908	-24.7131427358732	
886700000	-28.6532502919317	-79.9444249568438	-0.844639612566926	34.6315329292909	-0.842578462424465	34.6603633458796	-28.2840008662434	-26.6687403640167	
888400000	-28.886508176644	-85.3833129180527	-0.855389569588467	29.8763845005768	-0.854003263291	29.9060993062208	-28.4705048474439	-28.5534916101414	
890100000	-29.0514030155652	-89.3977284505067	-0.842126469028606	25.0889696327048	-0.864290096532748	25.0862108303151	-28.3988865432682	-30.2007066159998	
891800000	-29.3359538239748	-94.7754780523791	-0.845699590340405	20.3151080298307	-0.845946881997667	20.3652340931007	-28.3354832546833	-32.9582230997302	
893500000	-29.4834679708041	-99.4721259415781	-0.854742600157717	15.5754326955036	-0.847792134218225	15.5579483520532	-28.2369923346878	-35.0487055339857	
895200000	-29.5813660606798	-104.26389119934	-0.851434872717125	10.7681313622907	-0.850202525010473	10.853971077409	-28.1040522176916	-37.5111442738807	
896900000	-29.5780198810127	-109.323462846682	-0.850354542063193	6.00511864054053	-0.863331297736794	6.08332528490784	-27.9797031495863	-40.0953382765886	
898600000	-29.6738158930729	-113.981009011707	-0.855284781940552	1.27922180161379	-0.854324823176375	1.36959337157888	-27.7753731449998	-43.3641524630628	
900300000	-29.5549190119495	-118.307165895462	-0.849641817482748	-3.5121861802221	-0.858756164332257	-3.52033922460469	-27.635631374066	-46.8223082961408	
902000000	-29.5707548618007	-123.095215245425	-0.841851609586187	-8.29132425076699	-0.859442005679535	-8.24088543784525	-27.3434464046954	-50.2564007561451	
903700000	-29.3559098627051	-128.565048654519	-0.847111913782955	-13.0768783113358	-0.859781424888827	-12.9991940264557	-27.0678847897887	-54.0553847092642	
905400000	-29.1456043063584	-133.40595154871	-0.843066759648696	-17.7609735015912	-0.86152173088471	-17.7528352503265	-26.7521109742236	-58.0303797058504	
907100000	-29.0216374317601	-137.847624241832	-0.849893722284797	-22.6056654510352	-0.857682849367417	-22.5788940076456	-26.5766827952861	-62.6024349442549	
908800000	-28.7999312349001	-142.62887417295	-0.852461763310503	-27.3256106762742	-0.856906413734829	-27.3262732742493	-26.2678314162275	-66.7910731786359	
910500000	-28.5448431296095	-147.559213203609	-0.854991857135006	-32.0932592038628	-0.869027202828512	-32.1461937546809	-26.0446484908612	-71.8157931299186	
912200000	-28.2695661923567	-151.828048155255	-0.859867719701344	-36.8820235012336	-0.861640754269498	-36.8629447300811	-25.7060801515156	-76.7478255694567	
913900000	-27.8830349282491	-156.410091389331	-0.850560671747932	-41.6370587813056	-0.882715558942451	-41.6738555087086	-25.518093190318	-81.5509253035862	
915600000	-27.4698774833341	-161.232326218847	-0.860418348761058	-46.4731076779759	-0.865816198262782	-46.4435601653903	-25.3219212199045	-87.0077680258569	
917300000	-27.2409331522147	-166.308126510442	-0.848803905978292	-51.1862557020613	-0.869910776615834	-51.270999450107	-25.0075737674412	-92.815680529794	
919000000	-26.8354140629385	-170.712323307336	-0.868283601591678	-55.9365955434629	-0.873532661892953	-55.9846515121235	-24.801392344047	-98.3239694208086	
920700000	-26.4589931423407	-175.384066487085	-0.859221574781842	-60.7050507662499	-0.872206340533162	-60.7152159943082	-24.5418607668098	-103.812447866047	
922400000	-26.1403798894022	179.567854975259	-0.864649569457204	-65.4794904403976	-0.880654316429086	-65.461972367761	-24.368156830454	-109.185752038792	
924100000	-25.8101455433221	175.053719952968	-0.87711060434541	-70.2978411718008	-0.883632512163687	-70.2933194817553	-24.1118446982941	-115.557768756862	
925800000	-25.4741337626074	170.212962931101	-0.881718293366427	-75.055615061434	-0.881566248505636	-75.0649026661174	-23.8382912519832	-121.532273213691	
927500000	-25.0243043668406	165.101434818867	-0.87551166434475	-79.8308929960906	-0.895869700192875	-79.83059989259	-23.663212437973	-127.006465507204	
929200000	-24.7659503758248	160.322486741279	-0.884515019500248	-84.6641981358183	-0.88758474971358	-84.5098514935115	-23.4639460826963	-133.020401172948	
930900000	-24.3584451647413	155.587946648003	-0.886790932789489	-89.4398739978701	-0.892693310969001	-89.2263843225127	-23.2686975964067	-139.173398742963	
932600000	-24.0322449707505	150.732154909437	-0.88087037800529	-94.1261655104756	-0.895339675677339	-94.0554032185999	-23.0626903217526	-145.041795682561	
934300000	-23.7726723841188	145.850361094428	-0.883110818401334	-98.9568180066814	-0.898824574064195	-98.8165431207357	-22.8632919293874	-151.0802657666	
936000000	-23.4478459510048	141.143665983083	-0.899146918348182	-103.691769944588	-0.907470308478309	-103.596164766931	-22.6877148337784	-157.658460707556	
937700000	-23.1764613733534	136.308188476082	-0.901165226320988	-108.448231753897	-0.903990865975775	-108.349404583456	-22.4815462267843	-163.503200919388	
939400000	-22.8580176248344	131.748778371792	-0.886899356496476	-113.195274366923	-0.907350323798142	-113.123507505536	-22.3293296950152	-169.736172024981	
941100000	-22.648608743267	127.104037816497	-0.895552496293867	-117.94737043415	-0.908348123985398	-117.805760295211	-22.2244836357301	-175.508289724397	
942800000	-22.409485643519	122.103063457382	-0.904750844443842	-122.662369655875	-0.911083540118567	-122.557968212385	-22.0521869175892	178.729193083405	
944500000	-22.1824071744385	117.357543389403	-0.908701198862299	-127.431811062323	-0.911085264039554	-127.329060377817	-21.9252400635455	172.331996132946	
946200000	-21.9680485749018	112.412812035549	-0.906080204356232	-132.183887872416	-0.915773849644433	-131.971780287355	-21.7891325898115	166.759250898969	
947900000	-21.7647121405027	107.83186916605	-0.908724449377119	-136.951189914781	-0.928764799978975	-136.812191969823	-21.6596530970827	160.72444220301	
949600000	-21.5926390157495	102.856266694154	-0.906902485683119	-141.604559971528	-0.920713670329752	-141.621813354561	-21.5451179217576	154.588543831602	
951300000	-21.4386397901554	98.0938864483907	-0.91660627953164	-146.375617377282	-0.928265025093921	-146.308942653974	-21.5130516902156	148.801043292337	
953000000	-21.2972350403965	93.0778991269215	-0.911920751994485	-151.14335242613	-0.9102919749917	-151.065415066906	-21.3726843826175	142.933729891214	
954700000	-21.1743531770006	88.328815417243	-0.919835421914776	-155.922044564491	-0.911776516919638	-155.845149154031	-21.3079534831998	136.99047319546	
956400000	-21.0566365527478	83.8064208190784	-0.915822283496477	-160.55979867717	-0.925659933269807	-160.568084497541	-21.3571425245299	131.600170936823	
958100000	-20.9582702910177	78.9677191638269	-0.920139819112634	-165.310429774931	-0.921583286063907	-165.238039604733	-21.300758859068	126.000342609903	
959800000	-20.8630823986387	74.2321954198251	-0.912778144445094	-170.059699210899	-0.932638696432137	-170.048717340169	-21.2907564820225	120.043657210482	
961500000	-20.8339257304139	69.1263638087624	-0.929281113041814	-174.770814394344	-0.924689097010634	-174.834697383028	-21.2278697321217	114.401365294287	
963200000	-20.7774649357683	64.5276051458525	-0.926613067419662	-179.496293261415	-0.931088191331823	-179.595552378674	-21.2161080657273	108.975035289937	
964900000	-20.7404622011838	59.5958182283124	-0.926463556507669	175.72199159305	-0.930473618157378	175.736839854891	-21.2326808621137	103.331138808738	
966600000	-20.7422900573151	54.7017149477073	-0.928042502848993	171.019357415123	-0.932071050593604	170.996760223962	-21.2651976121252	97.9382323829469	
968300000	-20.7692036415528	50.0451796699873	-0.922817009511083	166.244686754379	-0.935308654137136	166.160735517087	-21.2964156941838	92.2715959400024	
970000000	-20.7901253355961	45.2432918060564	-0.930504093065126	161.543936510205	-0.930441372352275	161.428911518448	-21.3430445934292	86.9237506923541	
971700000	-20.8152993767159	40.404775353423	-0.929553851903628	156.797510526041	-0.921869114383854	156.714044161431	-21.4225133057064	81.5975834778279	
973400000	-20.8847792160246	35.507225795426	-0.924677814253044	152.077812800274	-0.91910555630902	151.833242593183	-21.4610416839083	76.2246688435008	
975100000	-20.9556410775164	30.6359411006265	-0.925608163399403	147.29165561908	-0.926679605168311	147.17976412004	-21.5933115232033	71.0858485853519	
976800000	-21.071874758587	25.976726746652	-0.913493597755531	142.597916121872	-0.923322387385008	142.378920625364	-21.6970702590526	65.8117782394285	
978500000	-21.1443605424874	21.1398291852637	-0.919001313609657	137.818053232702	-0.926155237688344	137.653025159123	-21.8062317373113	60.7730636274596	
980200000	-21.2689427479645	16.3490762407695	-0.911931085610043	132.975867033803	-0.92238041003668	132.902694992481	-21.9479123964568	55.4374943760017	
981900000	-21.4439467519629	11.5571201604264	-0.912614088327716	128.235685318282	-0.92272812484883	128.172810671639	-22.112949717851	50.6336101591151	
983600000	-21.6239095886908	6.70432260509317	-0.917330569498449	123.49557990659	-0.931117493840956	123.392394176933	-22.2763229594596	45.3661603939385	
985300000	-21.8067612322039	1.750561346502	-0.910089513193644	118.746631776433	-0.907486819881352	118.70239618697	-22.4863392926552	40.683139824299	
987000000	-21.9889951948752	-2.97497737871804	-0.911052963777993	113.959235353035	-0.915272095372959	113.894985305033	-22.675921618506	36.0748430556384	
988700000	-22.1596719633827	-7.8877851133291	-0.901123153540736	109.194479899354	-0.919072422134701	109.178712606966	-22.8795383660161	31.0994561588969	
990400000	-22.4150769868359	-12.5634233576763	-0.899086528621642	104.450446374885	-0.918385543048628	104.414879930077	-23.1687476913043	26.7893632037867	
992100000	-22.6435837829972	-17.4981844765681	-0.901906413727052	99.6619468131244	-0.916095980916901	99.6698154189933	-23.3553760856602	22.2402069327991	
993800000	-22.9544683524	-22.2648048359451	-0.909674575119328	94.814694530661	-0.9052156504872	94.9503083770797	-23.6323992036332	17.6298020767899	
995500000	-23.2577013851484	-26.7724714647873	-0.903081313014988	90.1170897601743	-0.913578945482183	90.211988967432	-23.8995681453897	13.3595596700122	
997200000	-23.4636729848263	-31.7935107554622	-0.907213960032189	85.2707439573104	-0.913129692315313	85.3067807619567	-24.1433022190261	9.2260054399458	
998900000	-23.7849585261145	-36.3282524348627	-0.894767012584044	80.6206182280761	-0.911728031190893	80.6492425962885	-24.4664717609543	5.13758044530889	
1000600000	-24.1313759668529	-41.2259899995269	-0.902676110721659	75.7474852159103	-0.901902294198702	75.8542876560117	-24.7255067391028	0.775932442949671	
1002300000	-24.4697684783504	-46.0446332000333	-0.893343230035748	71.0174557978992	-0.914825181240527	71.1070550493169	-25.0982340543719	-2.43009425448829	
1004000000	-24.7833425462559	-50.7922630973112	-0.89356603165491	66.1878847244918	-0.911771472865113	66.4258921972296	-25.3770765707858	-6.28361346370077	
1005700000	-25.1471825518081	-55.322441287905	-0.904445180917931	61.5136294214202	-0.915454436723191	61.6060419149298	-25.7047059362957	-9.38438613965063	
1007400000	-25.500002193229	-60.0690586089847	-0.892110082202368	56.6990614029381	-0.909607005333014	56.8329332735066	-25.9703468944611	-13.2288955236507	
1009100000	-25.8313431112093	-64.9956139327787	-0.90617881216407	51.991225417783	-0.907321250097405	51.985617488693	-26.192684057844	-16.0963753923235	
1010800000	-26.1891838011346	-69.3360299452381	-0.905956526923655	47.2374620056338	-0.909001890005704	47.2157401468062	-26.5207982512038	-19.291734237457	
1012500000	-26.5153722001025	-74.2866133504483	-0.900957171899187	42.3920072249125	-0.90522712966698	42.4267168752556	-26.7932586313218	-22.5988361609523	
1014200000	-26.8800580203077	-78.4486776518237	-0.900095719340273	37.6317340617427	-0.909254393126957	37.6411621069347	-26.9460271432633	-25.0158445332465	
