!Keysight Technologies N9950B: A.12.38
!Date: Saturday, 22 April 2023 16:31:58
!Timezone: (UTC-06:00) Central Time (US & Canada)
!Model: N9950B
!Serial: MY61131330
!GPS Latitude: 
!GPS Longitude: 
!GPS TimeStamp: 0001-01-01 00:00:00Z
!GPS Seconds Since Last Read: 0
!CHECKSUM:1565177220
!Correction: S11(ON U?)S21(ON U?)S12(ON U?)S22(ON U?)
!S2P File: Measurements:S11,S21,S12,S22:
# Hz S DB R 50
1000000000	-7.18382401560347	171.443160493644	-1.47538273629492	-98.3552701747564	-1.48529366737451	-98.3940526536383	-7.15856401341145	165.54230393346	
1005000000	-7.18692039137508	171.312448435578	-1.48077291228844	-98.7881119091139	-1.49713707827869	-98.7801264019707	-7.17447325042467	165.334030292976	
1010000000	-7.22786086958205	170.845156474868	-1.47264246783678	-99.2535074203415	-1.48967338013975	-99.1426660604497	-7.18251504881134	164.678767968538	
1015000000	-7.20592571384376	170.552238184209	-1.484870952838	-99.6407697022322	-1.49362001932397	-99.7552105753536	-7.22020619838894	164.512517676076	
1020000000	-7.23780803811429	170.082447156784	-1.46653723846362	-100.035270808019	-1.49254469185253	-100.142352022045	-7.23290817831645	163.935995270129	
1025000000	-7.25477825583526	169.723551894951	-1.46737576838229	-100.577711457933	-1.47530397068788	-100.568329413643	-7.20933135117937	163.442352500884	
1030000000	-7.27741278475129	169.16418899552	-1.46648122375827	-101.027945414858	-1.48695735661898	-101.012958792567	-7.27283527034382	163.264830456092	
1035000000	-7.29757237652916	168.948803781699	-1.47734336800191	-101.438176525177	-1.48325673267565	-101.550868590588	-7.2706534728874	162.69625064599	
1040000000	-7.3062596558628	168.706481500342	-1.4582193053049	-101.922651209973	-1.48420080065543	-101.968370623705	-7.28938701697635	162.427281649875	
1045000000	-7.3173593760952	168.17018345838	-1.4725176207145	-102.305807262607	-1.4617229126558	-102.325785156958	-7.32610222392044	161.949613578077	
1050000000	-7.3170613800254	167.834980806504	-1.45952518466252	-102.753517841307	-1.47363510865261	-102.772389322901	-7.32854139644327	161.385743229804	
1055000000	-7.34052819233496	167.322628428906	-1.44739615612629	-103.318817584924	-1.47376706689491	-103.316482289514	-7.33524731829983	160.965443203028	
1060000000	-7.3675731081404	167.009666196032	-1.46153631774319	-103.631695199574	-1.46428535942303	-103.7408247129	-7.38010219014094	160.40373408128	
1065000000	-7.41769716828597	166.614711156986	-1.46136129297453	-104.065689114982	-1.47469116402584	-104.157640133328	-7.3700868225383	160.227023733399	
1070000000	-7.39364318978497	166.380012157704	-1.42988654171431	-104.584444455915	-1.4557677567898	-104.525435773973	-7.3981392749311	159.73209341231	
1075000000	-7.42856693643658	165.71227858681	-1.447739884604	-105.05386931467	-1.47863671888404	-105.058172932002	-7.44227997586529	159.388776394777	
1080000000	-7.44417765923582	165.366155351912	-1.44618713907372	-105.547241530102	-1.462684897658	-105.526865360577	-7.44393098977483	158.633473073489	
1085000000	-7.49134386870297	165.020395862489	-1.44802679699644	-105.968099673466	-1.45689344112643	-105.97994176236	-7.45973075451106	158.436703243698	
1090000000	-7.51160469958874	164.668038007952	-1.44221991633505	-106.465112384055	-1.45089763591964	-106.399311316094	-7.51581444033956	157.962630303156	
1095000000	-7.55146790341351	164.173912536314	-1.428604622577	-106.873207701231	-1.44260095135708	-106.846532056209	-7.53078382891799	157.499258466537	
1100000000	-7.56738218284154	163.837218932391	-1.42214879165505	-107.294596354501	-1.45984005566838	-107.335821290905	-7.54076762135917	157.156473743145	
1105000000	-7.62428131307666	163.532072731897	-1.41146366503435	-107.764100138535	-1.42869832832136	-107.766476109291	-7.59250592164092	156.879271889892	
1110000000	-7.59854628162131	162.984974090298	-1.42287009015056	-108.199870903629	-1.44363312919406	-108.252668322502	-7.62481722493151	156.544646314192	
1115000000	-7.63248483591532	162.561111248539	-1.41207982941404	-108.678706465908	-1.42070982689678	-108.700415928507	-7.61022377195217	156.024998224018	
1120000000	-7.6938119346892	162.128556440647	-1.40319375105233	-109.160929343618	-1.42614208168657	-109.146553452097	-7.67555521408508	155.63938305372	
1125000000	-7.70747376084794	161.955043493067	-1.40652539887126	-109.538359243755	-1.41007535568641	-109.625930741249	-7.69433724303648	155.054231420391	
1130000000	-7.7222848033424	161.200300703339	-1.38838810936517	-110.035881941353	-1.42096072414298	-110.011647803845	-7.72584902075481	154.732395221161	
1135000000	-7.76520665089917	160.992721863193	-1.40855466406884	-110.480268299108	-1.41456544107175	-110.524206913325	-7.760154666652	154.023283428249	
1140000000	-7.79012305826912	160.549793436978	-1.38478691083043	-110.953674128868	-1.40158600069723	-110.954727645653	-7.79339603775117	153.700999642551	
1145000000	-7.81773175292749	160.281996408268	-1.38603714060394	-111.455331687139	-1.40485440505707	-111.365895462747	-7.80749317077825	153.348810425817	
1150000000	-7.87697081679285	160.030602136119	-1.39115343227193	-111.880534073676	-1.39505614272156	-111.958023011387	-7.8680985859692	152.816024055416	
1155000000	-7.87436976894517	159.575907334774	-1.38854096922364	-112.387818873131	-1.39912528424566	-112.320349161675	-7.8779051119411	152.573711366681	
1160000000	-7.92734224832993	159.055709269003	-1.38138919546706	-112.79773166017	-1.38532827707812	-112.850369263747	-7.92586781160225	151.856295642411	
1165000000	-7.94801202267969	158.798628352527	-1.36758637549041	-113.279261374687	-1.38363272626683	-113.27914457127	-7.95163066599276	151.589264069468	
1170000000	-7.97893100559432	158.385430003685	-1.37855411609308	-113.717954580577	-1.3744324374187	-113.715525243898	-7.97992178592779	150.999310043409	
1175000000	-8.01513584527897	157.90724416525	-1.35978133652921	-114.234271598142	-1.37645729378211	-114.325962278678	-7.99338046659048	150.845013707337	
1180000000	-8.06940587497959	157.607539565405	-1.36729782738151	-114.763221979786	-1.36882229525607	-114.679410524531	-8.07857489685551	150.13042310073	
1185000000	-8.09282425326145	157.165795419218	-1.36017066100643	-115.149827394665	-1.37680476413565	-115.170388758342	-8.08396544909471	149.962326986798	
1190000000	-8.09450913648039	156.726324319309	-1.36142584304656	-115.672454079789	-1.35332385777849	-115.618065217976	-8.07520961824989	149.295172588906	
1195000000	-8.14498441331653	156.524427414396	-1.3546676026323	-116.061632590456	-1.35098758202325	-116.108858471892	-8.13427410624371	148.83321971045	
1200000000	-8.21039317707167	156.11880633882	-1.34710400635244	-116.692746617176	-1.35275243624037	-116.460078899605	-8.20615445653155	148.427736394656	
1205000000	-8.2134817720017	155.605468136544	-1.33999038575335	-117.081075308903	-1.34623124587729	-116.963929650884	-8.21922080671778	147.990633302414	
1210000000	-8.24483703004199	155.210567552431	-1.3258828445165	-117.409509256046	-1.34662015457498	-117.430474750246	-8.24235557968568	147.696453382109	
1215000000	-8.31236900695683	154.839654174241	-1.32470903495314	-117.959661113801	-1.33443243075818	-118.010791365947	-8.31653551712047	147.422230560631	
1220000000	-8.3467552828131	154.503834793842	-1.32411402826677	-118.474206795382	-1.31967432762111	-118.424024300815	-8.3521363022383	146.707046817788	
1225000000	-8.42082768048776	154.14949656202	-1.31909596324994	-118.823594311339	-1.32849202448343	-118.816971872566	-8.40444338494973	146.374306081319	
1230000000	-8.43750479060329	153.65475598064	-1.3067854547358	-119.377657991048	-1.32024875380948	-119.364271870839	-8.4330807889787	146.030961216651	
1235000000	-8.49843096163201	153.221330964336	-1.30595621326356	-119.926970298123	-1.32280882612524	-119.790228022201	-8.46794089647518	145.371128099504	
1240000000	-8.54105764805357	152.868025816254	-1.29608455281371	-120.340181316479	-1.31142944314525	-120.277369513878	-8.54461359254751	145.067368701042	
1245000000	-8.60631114513352	152.456337349501	-1.29019612812598	-120.794400119147	-1.30784936059848	-120.752102108762	-8.57450685025421	144.863398963684	
1250000000	-8.61210275531808	151.991966318676	-1.28579455437489	-121.200982767862	-1.30035992001678	-121.247184062601	-8.61629297744142	144.377830264918	
1255000000	-8.67706564010336	151.70017457106	-1.28173016908834	-121.812361837906	-1.28908805209576	-121.719121073641	-8.67838394142528	143.930253674527	
1260000000	-8.70332699617851	151.399614311508	-1.27598019210453	-122.145439719733	-1.28771355960207	-122.198087036228	-8.733696729534	143.365922708746	
1265000000	-8.79822546486622	150.880059677594	-1.26341603324532	-122.722077682748	-1.28288850941324	-122.698584514544	-8.76864313713003	142.964946966993	
1270000000	-8.83471617145694	150.470414772746	-1.26392259049568	-123.194326147535	-1.2752886313638	-123.07816309971	-8.82877167079779	142.522739013749	
1275000000	-8.8895260709058	150.066359001783	-1.25956931277738	-123.706269693446	-1.26790185680295	-123.673334578628	-8.88633566125648	142.032510937846	
1280000000	-8.91207386342962	150.040295423678	-1.26245462463332	-124.126677089592	-1.27618359031548	-124.024088445716	-8.9354097583784	141.443385459446	
1285000000	-8.99827457669296	149.425402060271	-1.25144145428778	-124.615663687313	-1.26408076303169	-124.588602042058	-9.0029722154223	141.329423524213	
1290000000	-9.02239805594712	149.17935646615	-1.2458778666842	-125.014031952819	-1.25303348675599	-125.103986750707	-9.03651062763774	140.547130937012	
1295000000	-9.07945125674469	148.905038148513	-1.24260523986023	-125.622158144485	-1.24998396118959	-125.55723394593	-9.11038140113796	140.309897763566	
1300000000	-9.12408084907031	148.345294930338	-1.23964012605752	-126.056270256662	-1.24740003034257	-126.0518699226	-9.13557789800115	139.735947333751	
1305000000	-9.16769335260637	148.050910815274	-1.22698181389142	-126.535897805246	-1.24300335995426	-126.502919053111	-9.1809247922493	139.5124379537	
1310000000	-9.262577985338	147.485634836057	-1.22685021578315	-127.047145957864	-1.24160227379592	-127.044239359737	-9.25997738448183	138.897993195032	
1315000000	-9.30134366222238	147.210916257618	-1.22277585726485	-127.631859872369	-1.22844183525182	-127.465943636886	-9.28681059733945	138.494081950872	
1320000000	-9.36649935268788	146.887470720082	-1.22014524286258	-128.035772685131	-1.22141804895341	-128.027308421703	-9.37643899895557	138.185989769913	
1325000000	-9.38630084148559	146.270147596236	-1.20135044022558	-128.489229324794	-1.20771278116195	-128.438108738652	-9.41853488696459	137.660834512556	
1330000000	-9.48418150234087	145.796823800902	-1.19476305981454	-128.963708951409	-1.20640943925537	-128.965569077457	-9.50173019348083	137.123177032967	
1335000000	-9.56436975243425	145.500685463867	-1.18832058363615	-129.456514663223	-1.19900931325045	-129.400686891068	-9.53595962569204	136.975966644491	
1340000000	-9.64177185611649	144.984918136634	-1.18338263257605	-129.908549835766	-1.19981402032594	-129.93817906352	-9.63163379676313	136.560928096747	
1345000000	-9.6950393236067	144.647232794641	-1.17873183771768	-130.489094745595	-1.19403665753994	-130.38866553461	-9.69778470648531	136.153185318547	
1350000000	-9.7678317588439	144.515404666837	-1.16810899377264	-130.971102326932	-1.19083368168142	-130.906204510554	-9.72787119944068	135.609765270334	
1355000000	-9.84051759181878	144.030267889339	-1.16652874724231	-131.372602716059	-1.19542475359936	-131.472999298457	-9.80345634168682	135.094839562242	
1360000000	-9.89554602677487	143.743498667028	-1.17220238419999	-131.886836135721	-1.17958569294285	-131.843516227782	-9.90543704067399	134.866519548649	
1365000000	-9.98784090321199	143.164133983626	-1.14638140931166	-132.384853341812	-1.17878330482571	-132.403355966403	-9.99975374224793	134.287140723018	
1370000000	-10.0446260078956	142.786968119051	-1.14738844779219	-132.897155909998	-1.15795503731426	-132.930211842603	-10.0541791084083	134.237010323209	
1375000000	-10.158893615759	142.53739399215	-1.14710352827736	-133.458574582891	-1.16449459933561	-133.438458661698	-10.179659029245	133.603295141727	
1380000000	-10.1678508712711	142.226042865391	-1.13749663674058	-133.813142612267	-1.14761930514919	-133.881851957354	-10.2161106340621	133.239798153724	
1385000000	-10.2853770102619	141.800775085647	-1.12816011062638	-134.446687023684	-1.14603201319302	-134.393177694868	-10.3054002611333	132.717205151816	
1390000000	-10.3497061390348	141.59537193162	-1.12267377979159	-134.86020329436	-1.14165100025644	-134.860836415472	-10.3483623996308	132.128144626811	
1395000000	-10.4209375357906	141.066349616826	-1.11920159702047	-135.454246875493	-1.14258813135201	-135.373991887012	-10.4496427062609	131.844538288243	
1400000000	-10.518484783176	140.951997339137	-1.11438511995925	-135.870756331675	-1.13492501565874	-135.851078066532	-10.5554709549025	131.50597084933	
1405000000	-10.5605866631836	140.513005154397	-1.11387892824764	-136.321768699682	-1.12312458052185	-136.324685055477	-10.6264893300922	130.958440497862	
1410000000	-10.6685194531069	140.05724358769	-1.10748583067984	-136.941207450942	-1.11446039870299	-136.836552327885	-10.6586550132853	130.610819475621	
1415000000	-10.7092605110416	139.687529940418	-1.11226640846928	-137.416891749805	-1.11827052550684	-137.32352412246	-10.7339579737956	130.066474602684	
1420000000	-10.8037048220007	139.476643524862	-1.11013749773537	-137.874625661963	-1.1092190805995	-137.883949680731	-10.8786009757097	129.668038132049	
1425000000	-10.8904815089035	138.855384056137	-1.09419715842592	-138.352363014381	-1.1021786653567	-138.315200809331	-10.9299051420979	129.089820617982	
1430000000	-10.9805929828533	138.650429818575	-1.09626498592028	-138.848986162825	-1.0960391072539	-138.954576425214	-11.0306985403968	128.815398113969	
1435000000	-11.0640538643209	138.254669326129	-1.08549841654004	-139.382137702029	-1.08242329764677	-139.388974229113	-11.1227028628586	128.331123759679	
1440000000	-11.1677402806053	138.021788130288	-1.08122070835142	-139.92804061602	-1.08771104563006	-139.882270262126	-11.2166484147628	128.022710258718	
1445000000	-11.267540911651	137.467250319189	-1.07493455422873	-140.368035711872	-1.08103792356844	-140.435303137019	-11.3167138087134	127.563952097575	
1450000000	-11.34589085517	137.222730195494	-1.05891781430256	-140.871330859381	-1.08721662986702	-140.926021535248	-11.3993769010741	127.393969608087	
1455000000	-11.441224814877	137.098013006013	-1.06382368175611	-141.385315222376	-1.08599665237992	-141.453619726712	-11.5281970625875	126.894271541815	
1460000000	-11.5611541494836	136.623614720367	-1.05765149633261	-141.927032233296	-1.06779025128373	-141.861789922981	-11.592607510997	126.384640246225	
1465000000	-11.6584033304724	136.404992889403	-1.05585351573108	-142.418159647854	-1.05995558670393	-142.484126598406	-11.7079747750779	126.137420823472	
1470000000	-11.7876093939162	136.055472147655	-1.05414284774151	-142.987134926801	-1.05887702825355	-142.948656826329	-11.8100135091988	125.645514062117	
1475000000	-11.863616801055	135.627182240915	-1.04071674641494	-143.418699938193	-1.05822312317343	-143.470047520093	-11.9146714586125	125.22735803087	
1480000000	-11.9788803388513	135.301114321155	-1.02973650368147	-144.051152195649	-1.05214893792802	-143.916196706605	-12.0218501876076	124.867274264108	
1485000000	-12.1229300128032	135.102095721614	-1.03351854650205	-144.496119878304	-1.03627281097836	-144.488547907366	-12.1528550385544	124.654598598298	
1490000000	-12.2554909549744	134.811105901286	-1.03187843862009	-145.067316089148	-1.03780867561864	-145.057458560303	-12.2947891630069	124.211858845755	
1495000000	-12.3062761855634	134.650492540914	-1.02159320262423	-145.514403027988	-1.03336602414394	-145.473398380726	-12.3741521400757	123.815738190864	
1500000000	-12.4403359675764	134.297590339803	-1.01924994637926	-146.072485321535	-1.0213859587975	-145.995450715157	-12.5068104688591	123.185587984777	
1505000000	-12.5680407205351	134.016417104206	-1.01740609944808	-146.567982676372	-1.02316043722345	-146.536359834653	-12.648089505174	122.83671121318	
1510000000	-12.6737692114056	133.743384540461	-1.01098619480109	-147.129234287529	-1.01511181365864	-147.066293209983	-12.7656383705164	122.616976819572	
1515000000	-12.7581401245475	133.392268297855	-1.00738106210118	-147.597290455885	-1.01771462990677	-147.592869026739	-12.8709485346222	122.285075704379	
1520000000	-12.9224005997191	133.036874144469	-1.00377925631802	-148.074856879833	-1.02216242392147	-148.050970775877	-13.0157650222017	121.779227875679	
1525000000	-13.0400184591386	132.945350019222	-1.00034340523952	-148.622346376696	-1.01552105221256	-148.609268300352	-13.1493686722367	121.306363751584	
1530000000	-13.1577282295984	132.699700472068	-1.00226239583461	-149.171934687904	-1.01298618061338	-149.178544014712	-13.2676674774649	121.034530489635	
1535000000	-13.2673668967744	132.55919261503	-0.986048403653374	-149.683876702727	-1.00637288598153	-149.633691069397	-13.4108854547395	120.809148976754	
1540000000	-13.412022519918	132.120749836158	-0.989656150294396	-150.167392407318	-0.997567404367006	-150.103862110446	-13.5216705119423	120.311395985087	
1545000000	-13.5572721110394	132.00901959817	-0.982867692551089	-150.750730753496	-1.00801251597249	-150.657858884326	-13.6944418781004	120.026915029889	
1550000000	-13.6984873215471	131.833591251827	-0.973131919325809	-151.188860334145	-1.00129811255319	-151.184011455794	-13.8284371694007	119.646919216445	
1555000000	-13.8180840437563	131.5209583659	-0.970293084321686	-151.80673280811	-0.987390733134648	-151.734608635105	-13.9789800270087	119.364298612433	
1560000000	-13.9717435045363	131.081541224947	-0.97074645929076	-152.217063718056	-0.990306968726101	-152.286278673301	-14.0881801916718	119.035854118081	
1565000000	-14.1362586585453	131.142731908497	-0.968920310564716	-152.770160494828	-0.983131965138382	-152.773500197774	-14.2554905074291	118.857238052546	
1570000000	-14.263173035609	130.936252588401	-0.973394598176839	-153.290781200188	-0.986111721304465	-153.293155607943	-14.4337818657963	118.691161206153	
1575000000	-14.4357897076362	130.660082348778	-0.953289395363458	-153.781203646717	-0.975007679078006	-153.809143810992	-14.5847871601505	118.453841440561	
1580000000	-14.6136494490801	130.410540559482	-0.961615985162466	-154.348454422384	-0.976883718124863	-154.321536105311	-14.7102676364019	117.979456429511	
1585000000	-14.7877884234934	130.142713383248	-0.952645940456361	-154.806415685126	-0.969146033194499	-154.899987707831	-14.9093315135905	117.73287128691	
1590000000	-14.9254097556211	130.195467245224	-0.958715696889341	-155.421616285746	-0.977030020710625	-155.463287366341	-15.0919526639075	117.507039160056	
1595000000	-15.1149650676547	130.321977891943	-0.954306550933412	-155.858097398016	-0.967078904648174	-155.929604917498	-15.3247853435016	117.262862024025	
1600000000	-15.2761870833679	129.974472586882	-0.94448548839109	-156.477078101154	-0.960311433597115	-156.454097570457	-15.4795513695502	117.072015975753	
1605000000	-15.4561069647957	130.16155320079	-0.943387968472099	-156.953732614659	-0.960487239314785	-156.984229207589	-15.6618040528964	116.75564983228	
1610000000	-15.6318207292493	130.352559256772	-0.944149580199154	-157.425192588641	-0.953740340703404	-157.523602907193	-15.8545278312774	116.625606313583	
1615000000	-15.8262415190865	129.838200756954	-0.943694410940358	-158.014132150484	-0.959593969248075	-158.047930007422	-16.0518834049862	116.278699642206	
1620000000	-15.9919355350498	130.015243396609	-0.940841888989242	-158.525920656113	-0.961212465207837	-158.55888317413	-16.3234438310341	115.993037009492	
1625000000	-16.1880014126123	129.827901894921	-0.933490584835737	-159.09219047199	-0.947916126654461	-159.068732458862	-16.4730401095396	115.913447892719	
1630000000	-16.3993543263767	130.086771551224	-0.933356591824509	-159.661273515118	-0.954989732441872	-159.645553165102	-16.7129524900974	115.74918001857	
