!Created with skrf (http://scikit-rf.org).
# GHz S RI R 50.0 
!freq ReS11 ImS11 ReS21 ImS21 ReS12 ImS12 ReS22 ImS22
1.7 -0.1851826459 -0.2996047139 0.9025267363 -0.2456427217 0.9037249684 -0.2436726987 0.005293663591 -0.352558583
1.70018 -0.1852622032 -0.2995198071 0.9025729299 -0.2457460463 0.9038444161 -0.2440790832 0.005233060103 -0.3524301946
1.70036 -0.1852373183 -0.2993971705 0.9023579359 -0.2456703335 0.9038284421 -0.2442644835 0.005385594908 -0.3524041176
1.70054 -0.1853242964 -0.2994404137 0.9024401307 -0.2457662076 0.9038784504 -0.2443121821 0.005346330814 -0.3524060547
1.70072 -0.1853042841 -0.2994280457 0.902325809 -0.2458069175 0.9037385583 -0.2445682883 0.005046897568 -0.3523674607
1.7009 -0.1853052229 -0.2995093763 0.902343154 -0.2457454354 0.9036722183 -0.2445136756 0.005133070517 -0.3524384797
1.70108 -0.1853120625 -0.2994281948 0.902316153 -0.2457887083 0.9035657644 -0.244566083 0.005029308144 -0.3524985015
1.70126 -0.1854609996 -0.2994405925 0.9023650885 -0.2458015382 0.9036409855 -0.2445951998 0.005054229405 -0.3525106013
1.70144 -0.1854469031 -0.2994613051 0.9021533728 -0.2457918823 0.9035556912 -0.2446539402 0.005120950285 -0.3527167737
1.70162 -0.1854835749 -0.2993931174 0.9021773934 -0.245729059 0.9034644961 -0.244566977 0.005321312696 -0.352686137
1.7018 -0.1856276244 -0.2994172573 0.9021179676 -0.2458299994 0.9034408927 -0.2445310205 0.005257815123 -0.3527145386
1.70198 -0.1856200546 -0.2993097007 0.9020612836 -0.2457218021 0.9032726884 -0.2446233928 0.005226356909 -0.3526044488
1.70216 -0.1856092662 -0.2993887961 0.9021266699 -0.2459555417 0.9035361409 -0.2446051687 0.005218352191 -0.3526599407
1.70234 -0.1855369657 -0.2994535565 0.9022200704 -0.2459488213 0.9034764171 -0.2445944697 0.00537046697 -0.3525432348
1.70252 -0.1855141222 -0.2994536161 0.9020034671 -0.2459961176 0.9035573602 -0.2444920987 0.005330324639 -0.3526962101
1.7027 -0.1855580658 -0.2994825542 0.9019650221 -0.2459837049 0.9031902552 -0.2447852194 0.005188390613 -0.3527122736
1.70288 -0.1855709255 -0.299546659 0.9020676613 -0.2459545135 0.9031320214 -0.2447036803 0.005270419642 -0.3527826965
1.70306 -0.1855511218 -0.2994810343 0.9021012783 -0.2460303903 0.9032595158 -0.2447143197 0.005264498293 -0.352935195
1.70324 -0.1855584085 -0.2994547486 0.902102232 -0.2459772527 0.9032896757 -0.2445451021 0.005485699512 -0.3527736664
1.70342 -0.1855942905 -0.2994289398 0.9021796584 -0.2459754944 0.9031763077 -0.2447118908 0.005493608303 -0.3528504074
1.7036 -0.1856359839 -0.2993099988 0.9021613598 -0.2460753471 0.9031445384 -0.2446864843 0.005553962197 -0.3528429568
1.70378 -0.1855983883 -0.2992942929 0.9019623995 -0.2459645718 0.9032735229 -0.2447928786 0.005675002001 -0.3527606428
1.70396 -0.185699001 -0.2993961573 0.902012229 -0.2460361719 0.9030738473 -0.2448137403 0.005496826023 -0.3527366817
1.70414 -0.1857704669 -0.2994380891 0.9019110203 -0.245971486 0.9031696916 -0.2447677106 0.005432330538 -0.3527388573
1.70432 -0.1857724488 -0.2996053398 0.901914537 -0.2457219511 0.9030887485 -0.245040372 0.005326429382 -0.3529619575
1.7045 -0.1857508123 -0.2994315922 0.901814878 -0.2459494472 0.9031111002 -0.2448799461 0.005453846883 -0.3528681099
1.70468 -0.1858312637 -0.2994716465 0.9018645883 -0.2460588068 0.9031406045 -0.244835034 0.005500973202 -0.3529901505
1.70486 -0.1858703494 -0.2995065749 0.9020100236 -0.2461293638 0.9029088616 -0.2447335869 0.005561116152 -0.3529568911
1.70504 -0.1859024316 -0.2995299101 0.9019660354 -0.2461887151 0.9031252265 -0.2449437231 0.005431832746 -0.3530058563
1.70522 -0.1858248562 -0.2995502055 0.9019421935 -0.246109724 0.9030025601 -0.2448874116 0.005498815794 -0.353107065
1.7054 -0.1859112084 -0.2994284034 0.9019137025 -0.2461616695 0.9028121829 -0.2447924316 0.005749504082 -0.3529202044
1.70558 -0.1858993769 -0.2993943691 0.9018558264 -0.2462147474 0.9028988481 -0.2449641824 0.005780347157 -0.3531814814
1.70576 -0.1860272884 -0.2994285524 0.9018690586 -0.2462854981 0.9028802514 -0.2449620217 0.005707118195 -0.3532991707
1.70594 -0.1859675795 -0.2993622422 0.9017968178 -0.2461367399 0.9028705359 -0.2451457381 0.005602774676 -0.3532015085
1.70612 -0.1859934628 -0.2994741201 0.9019058943 -0.2461358905 0.902971983 -0.2452361137 0.005659070797 -0.3533128798
1.7063 -0.1860792935 -0.2994418144 0.9018206596 -0.2462218851 0.9028196931 -0.2450952381 0.005591168068 -0.3532564044
1.70648 -0.1860282123 -0.2994917929 0.901797533 -0.246338129 0.9028376341 -0.2449412346 0.005682469346 -0.3533208668
1.70666 -0.1861109585 -0.299510628 0.9016956091 -0.2463050038 0.9029276967 -0.2450661212 0.005596942268 -0.3533095717
1.70684 -0.1861341596 -0.2995434403 0.9017266035 -0.2464221269 0.9029899836 -0.2451175004 0.005643463694 -0.3533305824
1.70702 -0.1861955374 -0.2995767593 0.9018583894 -0.246345371 0.9028605819 -0.2451384813 0.005603429861 -0.3532709479
1.7072 -0.1862300187 -0.2994589806 0.9015901685 -0.246450007 0.9028922915 -0.244908005 0.005741936155 -0.3532270491
1.70738 -0.1862816066 -0.2993989587 0.9015265703 -0.2465073466 0.9028028846 -0.2450220734 0.005688774399 -0.3532915115
1.70756 -0.1863493323 -0.2994827032 0.9017222524 -0.2465472519 0.9026501775 -0.2450439036 0.005854335148 -0.3531572819
1.70774 -0.1863137633 -0.2994363308 0.9017096758 -0.2464371622 0.9028235674 -0.2451954037 0.0058225221 -0.3531724513
1.70792 -0.1862450242 -0.2994276583 0.9015467763 -0.2463312 0.9028478265 -0.2450636178 0.005665487144 -0.3532828689
1.7081 -0.1862711608 -0.2995024323 0.9015204906 -0.2464000434 0.9030293226 -0.2451636046 0.005663179792 -0.3535400033
1.70828 -0.1864253283 -0.2994859815 0.9016196132 -0.2463752031 0.9028033018 -0.2451872826 0.00569466874 -0.3532263339
1.70846 -0.1863544732 -0.299536854 0.9015020728 -0.2463929504 0.9028675556 -0.2450467795 0.005683141761 -0.3534363806
1.70864 -0.186424315 -0.2995389104 0.9014806151 -0.2464209795 0.9028007984 -0.2449404597 0.00566080166 -0.3533981144
1.70882 -0.1864320189 -0.2995740771 0.9015555978 -0.246547848 0.9027174115 -0.2450019419 0.005534517113 -0.3534066975
1.709 -0.1865367591 -0.299621731 0.9014909863 -0.2465123832 0.9027251601 -0.2452109456 0.005577667151 -0.3532977998
1.70918 -0.1865952313 -0.2994985878 0.9014850259 -0.2465990782 0.902590394 -0.2451094091 0.005748834461 -0.3533086181
1.70936 -0.1866423935 -0.2994797528 0.9014524817 -0.2465815544 0.9026086926 -0.2452973425 0.005787546281 -0.3533528447
1.70954 -0.1866540611 -0.299489975 0.9015175104 -0.246642068 0.9025992751 -0.245290786 0.005673798267 -0.3534485102
1.70972 -0.1867140234 -0.2994523048 0.9015234709 -0.2467378229 0.9023675323 -0.2453194708 0.005590917543 -0.3534642458
1.7099 -0.1866428256 -0.2994736731 0.9015378952 -0.2464184463 0.9025347829 -0.245121479 0.005586545449 -0.353561908
1.71008 -0.1867260039 -0.2995276451 0.9014700651 -0.2466240525 0.9023836255 -0.245110631 0.005441928748 -0.353626132
1.71026 -0.1869293302 -0.2995939851 0.9014083743 -0.2467608303 0.9026928544 -0.2451202422 0.005723512731 -0.3536880016
1.71044 -0.1869824529 -0.2996271849 0.9015017748 -0.2465800047 0.9027730823 -0.2453012019 0.005638980772 -0.3537356257
1.71062 -0.1869873405 -0.2996891737 0.9014228582 -0.2466775924 0.9026447535 -0.2453519851 0.005634524859 -0.3536024392
1.7108 -0.1869931519 -0.2997150421 0.9014148712 -0.2466700673 0.9025501609 -0.2455460578 0.005673975684 -0.3535897434
1.71098 -0.1871217489 -0.2997795939 0.9014559388 -0.2466353178 0.9025568962 -0.2453755587 0.005711671431 -0.3536424637
1.71116 -0.1871804297 -0.2996267676 0.9013369083 -0.2468173653 0.9026069641 -0.245386675 0.005746275652 -0.3535920978
1.71134 -0.1871796101 -0.2995697558 0.9013643861 -0.2466077805 0.9026269317 -0.245544523 0.005615523085 -0.3536268175
1.71152 -0.1871902943 -0.2995742559 0.9013293982 -0.2468273938 0.9023377895 -0.2454223037 0.005724869668 -0.3536122143
1.7117 -0.1873425543 -0.2995497286 0.9013027549 -0.2468049526 0.9024437666 -0.245546937 0.005870719906 -0.3536486924
1.71188 -0.1873074174 -0.2995555699 0.901147306 -0.2468545139 0.902490437 -0.2456467301 0.005860761274 -0.3538644314
1.71206 -0.1872924864 -0.2995147705 0.9011445045 -0.2467294633 0.9024927616 -0.2455208451 0.005973497406 -0.3536676168
1.71224 -0.1873010099 -0.2995965779 0.9012303352 -0.2469070852 0.9026111364 -0.2455518544 0.00584756583 -0.3537429273
1.71242 -0.1873713732 -0.2994960546 0.9011573195 -0.2468073368 0.9024145603 -0.245466426 0.005737337749 -0.3535766602
1.7126 -0.187465176 -0.29951033 0.9011563659 -0.2469750792 0.9024547935 -0.2455850095 0.005620503798 -0.3536230624
1.71278 -0.1874765307 -0.299513489 0.9011677504 -0.2469286174 0.9022740126 -0.2456951737 0.005322908983 -0.3536837697
1.71296 -0.1875602454 -0.2995404899 0.9011630416 -0.2470620126 0.9022781253 -0.2456879318 0.005487793125 -0.3537064791
1.71314 -0.1876198798 -0.2995311618 0.9011992216 -0.2469277382 0.9023215175 -0.2456351519 0.005579397082 -0.3537459373
1.71332 -0.1876929253 -0.2995838225 0.9013468623 -0.2468405515 0.9025629759 -0.2456056327 0.005591885187 -0.3537778258
1.7135 -0.1876767278 -0.2995450795 0.9012674093 -0.2467891872 0.9026160836 -0.2455258965 0.005578432232 -0.3537388146
1.71368 -0.187680319 -0.2995353639 0.9012882113 -0.2468697429 0.9023618102 -0.2456085831 0.005515489727 -0.3538025916
1.71386 -0.1877519488 -0.2994040847 0.9012368917 -0.247084707 0.9023849368 -0.2459341288 0.005568182096 -0.3538282216
1.71404 -0.1877492368 -0.2995149791 0.9011167288 -0.2468691319 0.9023766518 -0.2458327264 0.005579937249 -0.3538547158
1.71422 -0.1877594441 -0.2995982468 0.9013062119 -0.247004047 0.9023483396 -0.2459010184 0.005469365045 -0.3539236784
1.7144 -0.1877339035 -0.2996578813 0.9011500478 -0.2470186204 0.902199626 -0.2456245571 0.005719306879 -0.3538141251
1.71458 -0.1879027188 -0.2996308208 0.9012797475 -0.2470353693 0.9023971558 -0.2458632588 0.005539149046 -0.353918463
1.71476 -0.1879377365 -0.2996456027 0.9011878371 -0.2469808757 0.9022762179 -0.2457773238 0.005592171568 -0.3539628386
1.71494 -0.1879869252 -0.2996162772 0.901017487 -0.2469990104 0.902287066 -0.2455209196 0.005832319148 -0.3539669514
1.71512 -0.1879672706 -0.299613595 0.901062429 -0.2470832765 0.9022381902 -0.2457640916 0.005882664118 -0.3540740907
1.7153 -0.1879577488 -0.2995454073 0.9009422064 -0.2469336092 0.9021410942 -0.2455804944 0.005911177956 -0.3540441692
1.71548 -0.188166827 -0.2996148765 0.901055932 -0.2470936924 0.9021923542 -0.2454443723 0.00586450519 -0.3539080024
1.71566 -0.1881798208 -0.2996231616 0.901081264 -0.2469144911 0.9020782709 -0.2453866452 0.005776201375 -0.3540299833
1.71584 -0.1882873029 -0.2996731102 0.9010561109 -0.2470425516 0.9020232558 -0.2454407811 0.005700386129 -0.3540202677
1.71602 -0.1882176995 -0.2997128367 0.9010978341 -0.2469621897 0.902273953 -0.2455753386 0.005680450238 -0.3541496694
1.7162 -0.1882909387 -0.2996997535 0.9009437561 -0.2470025867 0.9023102522 -0.2453878671 0.005756212398 -0.3541436195
1.71638 -0.1881730556 -0.299620837 0.9008997679 -0.2468886375 0.9021630883 -0.2458897233 0.005609173328 -0.3541512489
1.71656 -0.188263163 -0.2996714711 0.9009287357 -0.2468948662 0.9019672275 -0.2459254116 0.005593998358 -0.3540658057
1.71674 -0.1883658469 -0.2997304797 0.9010662436 -0.2469822317 0.9020937085 -0.2459057122 0.005596770905 -0.3540848792
1.71692 -0.1884270757 -0.299767077 0.9010952115 -0.2469833195 0.9021033049 -0.2458287179 0.005689455196 -0.3540349007
1.7171 -0.1885095537 -0.2997896075 0.9009828568 -0.2469750345 0.9023270607 -0.2458162904 0.005794445053 -0.3541443944
1.71728 -0.1885062307 -0.299734205 0.9010653496 -0.2470503151 0.9019516706 -0.2458170652 0.005737585947 -0.3540402055
1.71746 -0.1885067523 -0.2997683883 0.9010341763 -0.247277528 0.9020059705 -0.2459295392 0.005612561479 -0.3540317118
1.71764 -0.1886229962 -0.2997939885 0.9010133743 -0.2473940998 0.9018943906 -0.2455763817 0.005537698977 -0.3540841341
1.71782 -0.1886510402 -0.2997668087 0.9007947445 -0.2473805845 0.9017947912 -0.2460828125 0.005417707376 -0.3542405367
1.718 -0.1886594743 -0.2997301817 0.9007781744 -0.2471209764 0.9019536376 -0.2458709776 0.005496932194 -0.3541896939
1.71818 -0.1886000633 -0.2997944653 0.9008101821 -0.2472270578 0.9017960429 -0.2459724993 0.005591051653 -0.354272604
1.71836 -0.1886169761 -0.2997653186 0.9008648992 -0.2471250594 0.9016920328 -0.2461293936 0.005584400147 -0.3542814255
1.71854 -0.1887176037 -0.2997906804 0.9009535313 -0.2472296357 0.9018610716 -0.2459501326 0.005537214689 -0.3542767167
1.71872 -0.1886378676 -0.2998250127 0.9008841515 -0.2472329289 0.9018285871 -0.2459872663 0.005455037579 -0.3542479873
1.7189 -0.1887550056 -0.2999474406 0.9008099437 -0.2472049743 0.9019634724 -0.2459236085 0.005511592142 -0.3542291522
1.71908 -0.1887806803 -0.2998950779 0.9008616805 -0.2473191619 0.9020758867 -0.2458795309 0.005466709845 -0.354300648
1.71926 -0.1888155937 -0.2999260128 0.9008259177 -0.24722597 0.9019377828 -0.2459283024 0.005593479611 -0.3542515635
1.71944 -0.1888606399 -0.2998369038 0.9008640647 -0.2472520322 0.9019811749 -0.2462230027 0.005635781214 -0.3544268608
1.71962 -0.1889228672 -0.2997644842 0.9007899165 -0.2472492307 0.9017143846 -0.2460897416 0.005725163035 -0.3542319536
1.7198 -0.188933447 -0.2997385561 0.9008613229 -0.2473057359 0.9018428326 -0.2460381985 0.005719473585 -0.3542630374
1.71998 -0.1888976991 -0.299852401 0.9008779526 -0.2472944558 0.9017447233 -0.2459552884 0.005785962567 -0.3542445898
1.72016 -0.1888647676 -0.2997973263 0.9006814957 -0.2473590672 0.9017634988 -0.246010676 0.005692637525 -0.3543871343
1.72034 -0.1889428347 -0.2999116182 0.9006767273 -0.2473318875 0.9020351768 -0.2459670603 0.005753188394 -0.3544068933
1.72052 -0.1889911145 -0.2998501062 0.900760293 -0.2474339306 0.9018371701 -0.2461827993 0.005545491353 -0.3544301987
1.7207 -0.1890795976 -0.2998317182 0.9007176757 -0.2474907041 0.9017914534 -0.2461162359 0.005522690713 -0.3545487821
1.72088 -0.1891320497 -0.299890697 0.9008252025 -0.2474994808 0.9019246697 -0.2463184893 0.005372933112 -0.354688853
1.72106 -0.1892311573 -0.2997942865 0.9007179141 -0.2474389672 0.9018408656 -0.2463606298 0.005165294744 -0.3545323312
1.72124 -0.1892998517 -0.2998708487 0.9006770849 -0.2475778908 0.9019449353 -0.2464298159 0.005361535586 -0.354559809
1.72142 -0.1892527342 -0.2998491526 0.9006276131 -0.24750866 0.9017854333 -0.2464503199 0.00527090393 -0.354562521
1.7216 -0.189383775 -0.2997617722 0.9007158279 -0.2476691902 0.9018337727 -0.2463069707 0.005516584963 -0.3544971645
1.72178 -0.1893946975 -0.2997719347 0.9005180597 -0.2476593554 0.9016290307 -0.2460984439 0.005467432551 -0.3544961214
1.72196 -0.189351052 -0.2998574674 0.9005854726 -0.2476920485 0.9017381668 -0.246409595 0.005530123599 -0.3545262814
1.72214 -0.1893736571 -0.299954325 0.9006021619 -0.2475185394 0.9017522931 -0.2461282611 0.005681150593 -0.3546434939
1.72232 -0.1893981099 -0.2999901772 0.9005419612 -0.2478039712 0.9016200304 -0.2462195605 0.005543365143 -0.3545894325
1.7225 -0.18941769 -0.2999916077 0.9007457495 -0.2478254139 0.9015361667 -0.2463751137 0.005448703654 -0.3546822071
1.72268 -0.1892810315 -0.300015837 0.9006394744 -0.2477773577 0.9015601873 -0.2462830096 0.005342342891 -0.3546159565
1.72286 -0.189318493 -0.299969852 0.9006145597 -0.247695908 0.9014999866 -0.2463076115 0.005296074785 -0.3547690213
1.72304 -0.1893585473 -0.3000693619 0.9005843997 -0.2477250844 0.9015548229 -0.2461857796 0.005359126255 -0.3546566367
1.72322 -0.1894841194 -0.3001493514 0.9004859328 -0.2477528006 0.9014912248 -0.2462191135 0.005401715636 -0.3547136784
1.7234 -0.1895104945 -0.3001648784 0.9004116654 -0.2478081286 0.9015854597 -0.2463078797 0.005523219239 -0.354681313
1.72358 -0.1896226257 -0.3002054095 0.9004772305 -0.2478464991 0.9015601277 -0.2462229878 0.005631910171 -0.354747951
1.72376 -0.1896707267 -0.3001195788 0.9004283547 -0.2477437407 0.9017510414 -0.2462685853 0.005410883576 -0.3548009396
1.72394 -0.1896912754 -0.300152123 0.9004402757 -0.2476982027 0.9016262293 -0.2463322431 0.005432386883 -0.3547700942
1.72412 -0.1896345764 -0.3001508713 0.9003961682 -0.2477404177 0.9016214013 -0.2464162856 0.005462435074 -0.3549789488
1.7243 -0.1896791309 -0.3002313972 0.9005183578 -0.2477930784 0.9017657638 -0.2464738786 0.005372826941 -0.3548955619
1.72448 -0.1897041649 -0.3001720905 0.9003145099 -0.2478748411 0.9016026855 -0.2465205193 0.005305208266 -0.3548940718
1.72466 -0.1898165792 -0.3001362979 0.9005538225 -0.248047635 0.9015330076 -0.2466560453 0.005332004279 -0.3548898399
1.72484 -0.1898102611 -0.3001265824 0.9003892541 -0.2479991466 0.9012508988 -0.2465055138 0.005407341756 -0.354852289
1.72502 -0.1897175759 -0.3002770245 0.9004140496 -0.2478437126 0.9014849067 -0.2468188405 0.005299541634 -0.3550366461
1.7252 -0.1898101717 -0.3002712429 0.900313139 -0.2479528636 0.9014273286 -0.2466184646 0.005417391658 -0.3550112545
1.72538 -0.1898896545 -0.3003782332 0.9003530145 -0.2480863631 0.9012804627 -0.2464725673 0.005386467092 -0.3550437689
1.72556 -0.1898251325 -0.300344497 0.900349915 -0.2479299307 0.9012861848 -0.2464229912 0.005426387768 -0.3549724817
1.72574 -0.1897842288 -0.3003440797 0.9002503157 -0.2479419559 0.9012646079 -0.2463254929 0.005565180909 -0.3549657762
1.72592 -0.1898147017 -0.3004024625 0.9003216028 -0.2481483519 0.901306808 -0.2465205938 0.005488655064 -0.3550937176
1.7261 -0.1898941994 -0.3003996909 0.9003319144 -0.2479253262 0.9009548426 -0.2462395877 0.005641375668 -0.3549977541
1.72628 -0.1897932887 -0.3004773557 0.9002250433 -0.2479938418 0.9013149142 -0.2464664727 0.005488628987 -0.3552122414
1.72646 -0.1899019331 -0.3005007505 0.9003352523 -0.248115927 0.901211977 -0.2466751486 0.005651323125 -0.3551914692
1.72664 -0.1898747236 -0.3005518615 0.9003640413 -0.2479724884 0.9014484286 -0.2466361523 0.005568488967 -0.3551292419
1.72682 -0.1898618191 -0.3005530834 0.9003785849 -0.2480718046 0.9012758136 -0.2468345463 0.005606491119 -0.3551951647
1.727 -0.1898233742 -0.3004933 0.9003260732 -0.2480012178 0.9013299942 -0.2467143983 0.005571219139 -0.3552830517
1.72718 -0.1898784637 -0.3004278839 0.9003306031 -0.2480880171 0.9009997249 -0.2468221933 0.005471055396 -0.355257988
1.72736 -0.1898111552 -0.3004137576 0.9003395438 -0.2479023039 0.9010443687 -0.2466783226 0.005627492443 -0.3551766276
1.72754 -0.1898458898 -0.3004659712 0.9003320932 -0.2478300482 0.90095824 -0.2468948066 0.005640924908 -0.3552576602
1.72772 -0.1899547279 -0.3005793393 0.9002185464 -0.248001948 0.9010114074 -0.246647343 0.005574685987 -0.3553949594
1.7279 -0.1900080442 -0.3005870581 0.9001499414 -0.2480635941 0.9010556936 -0.2467145324 0.005557856523 -0.3554680347
1.72808 -0.190041706 -0.300627619 0.900090754 -0.2481333464 0.9009849429 -0.246483773 0.005613416899 -0.3555498421
1.72826 -0.1900206655 -0.3006548285 0.9001990557 -0.2480732501 0.9010662436 -0.2465254664 0.0055137421 -0.3555575013
1.72844 -0.1900854558 -0.3006278276 0.9002444744 -0.2481206656 0.9009844661 -0.2467482686 0.005475067068 -0.3555886447
1.72862 -0.1901752055 -0.3007046282 0.9004151225 -0.2481147647 0.9012149572 -0.2468268871 0.005702494644 -0.355606705
1.7288 -0.1900904179 -0.3006769419 0.9003784657 -0.2479312122 0.9009981751 -0.2469641864 0.00551322801 -0.3557116091
1.72898 -0.1901188493 -0.3006511927 0.9002498388 -0.2482765019 0.9010477662 -0.2469773144 0.00552920159 -0.3557338715
1.72916 -0.1902009845 -0.3006437421 0.9003891349 -0.2481651306 0.9009023309 -0.2469855249 0.005612022243 -0.355602473
1.72934 -0.1900810301 -0.3007054925 0.9003334045 -0.2481628209 0.900922358 -0.2469604313 0.005631446838 -0.3558060229
1.72952 -0.1900809556 -0.3005874753 0.9001559615 -0.2482770532 0.900901556 -0.24674429 0.005569646135 -0.355750978
1.7297 -0.1900591254 -0.3007323146 0.9000892043 -0.2482671589 0.9008053541 -0.2469585091 0.005538864527 -0.3557757139
1.72988 -0.1900034994 -0.3007676601 0.9000435472 -0.2483243644 0.9008316398 -0.2471415997 0.005441048183 -0.3558517098
1.73006 -0.1900982559 -0.3008699417 0.9000676274 -0.2484333962 0.9008972645 -0.2468308508 0.005393684842 -0.3558365405
