!Keysight Technologies N9950B: A.12.38
!Date: Saturday, 13 May 2023 13:05:08
!Timezone: (UTC-06:00) Central Time (US & Canada)
!Model: N9950B
!Serial: MY61131330
!GPS Latitude: 
!GPS Longitude: 
!GPS TimeStamp: 0001-01-01 00:00:00Z
!GPS Seconds Since Last Read: 0
!CHECKSUM:0347534235
!Correction: S11(ON U)S21(ON U)S12(ON U)S22(ON U)
!S2P File: Measurements:S11,S21,S12,S22:
# Hz S DB R 50
800000000	-18.904165585926	-121.721951723607	-0.155494537658983	-17.8283254969483	-0.17574412525804	-17.7743921034633	-18.4919384628846	-100.36726462621	
801700000	-18.9379907464849	-121.382044867958	-0.152950280828238	-17.8262675809007	-0.169623966266528	-17.8277978189548	-18.4962522209062	-99.9401598699625	
803400000	-18.9088244636408	-121.152860595106	-0.15713416295939	-17.8518454912195	-0.177072947188057	-17.8348904801717	-18.5543862647264	-100.511741396215	
805100000	-18.8788881712645	-121.221249544018	-0.167285147508872	-17.86303180191	-0.194257683761657	-17.7898173914609	-18.5187533280767	-100.443335508013	
806800000	-18.8790065968035	-121.394901447479	-0.163838582060787	-17.9483393937015	-0.192869093592939	-17.9425897329797	-18.4396564562191	-99.9578433070551	
808500000	-18.8823552235737	-122.291705819898	-0.160449742300512	-17.9661474896027	-0.177285627832685	-17.9298083786077	-18.5155734618241	-100.747330531255	
810200000	-18.8101945934006	-121.72376420506	-0.166909177028455	-17.9413992180359	-0.173981605731958	-18.0179331611406	-18.3506377656628	-100.159832969709	
811900000	-18.8427200060975	-121.74041946895	-0.155028658050336	-18.0740803046588	-0.184011828885019	-17.999103414973	-18.4207091684142	-99.9103553370563	
813600000	-18.7752297863294	-122.355416778731	-0.164611132684675	-18.1084867712784	-0.179964464310012	-18.1156208234848	-18.3622591977992	-100.02547291112	
815300000	-18.9058556053315	-122.472185212979	-0.160071395003819	-18.0984593141686	-0.175972688672395	-18.1034913745667	-18.5096489911072	-99.8401292746783	
817000000	-18.7086555916778	-121.667662430421	-0.187153420292369	-18.1392409924432	-0.187275717263731	-18.1153480755211	-18.5166685851813	-99.1130161370211	
818700000	-18.6641338231763	-121.455250315249	-0.160874116662396	-18.2488612761782	-0.1696168268107	-18.2263662867466	-18.3286529659378	-99.9404367875162	
820400000	-18.6280735561258	-122.36366633105	-0.166077332278884	-18.3265304255199	-0.188625995664051	-18.2451507245932	-18.294712794396	-99.5802978523994	
822100000	-18.6787113042165	-120.926039245716	-0.176064572607009	-18.2443992525972	-0.173903836573354	-18.2862398029357	-18.4556078566715	-99.838332148248	
823800000	-18.5723040675521	-121.780977445989	-0.162293655063045	-18.4803327607262	-0.177842156740185	-18.3072589188831	-18.0518485616263	-100.456430052048	
825500000	-18.6926945279224	-122.369921417204	-0.177334692274178	-18.2728215573515	-0.185897421693509	-18.2551029682417	-18.3190334229567	-99.887232876619	
827200000	-18.5745505856671	-121.849758871689	-0.166702228139241	-18.3811768955892	-0.182268530889498	-18.4009068326018	-18.2517303451375	-100.019082092517	
828900000	-18.5708602204783	-121.723240759346	-0.167855753422405	-18.3459218670737	-0.175067050556488	-18.4204572727925	-18.209967044124	-99.6233691197855	
830600000	-18.5942814284576	-122.89276522593	-0.169317014201564	-18.5205036499915	-0.172533714422758	-18.4046768475733	-18.1528987476681	-99.2610539594912	
832300000	-18.5449498914552	-121.861777886358	-0.180429009263475	-18.5426530386012	-0.173426687417622	-18.6643676971988	-18.2519309674961	-99.925614052982	
834000000	-18.5017357443121	-123.482444552765	-0.169524045536537	-18.5789394103983	-0.188279179719872	-18.5020925976144	-18.3268335843606	-99.7208104701504	
835700000	-18.5381999781543	-122.507582609903	-0.161673351613078	-18.5571061085866	-0.196818771376466	-18.6757357548425	-18.1703928473566	-99.3731677890769	
837400000	-18.4402390455265	-122.348199054362	-0.178117996348252	-18.5848973358273	-0.192225456534116	-18.6376415859334	-18.1802070920875	-98.2404177519689	
839100000	-18.4563416877298	-122.293785697303	-0.174530700147331	-18.5498788289411	-0.191645390581058	-18.6245342429951	-18.1769102402577	-100.442984720354	
840800000	-18.4421726791994	-122.875159768785	-0.174665711261267	-18.7344362315648	-0.174653740614687	-18.6430820645751	-18.1740286289204	-100.644954088077	
842500000	-18.5063673032191	-123.158938388163	-0.182194794010267	-18.6454698709468	-0.162910796169989	-18.7158975118707	-18.2138110772613	-99.8395975302404	
844200000	-18.3842212360491	-122.279652019658	-0.184481215251526	-18.7546877028677	-0.190307602768796	-18.7998949412022	-18.1371738180224	-99.2810205544244	
845900000	-18.4216175582341	-123.20673993541	-0.181692417512521	-18.7140931487359	-0.184784552481173	-18.8439953537256	-18.0422968784191	-100.301294589528	
847600000	-18.4921391554819	-122.697409548093	-0.186482795713458	-18.7788620935904	-0.186766492204901	-18.7567095336619	-17.9661322094334	-99.8152236487913	
849300000	-18.3453398490179	-123.491586078826	-0.178901494790475	-18.9357791231449	-0.18261767102708	-18.8791474030689	-18.0548201140293	-99.2904569168894	
851000000	-18.3165827632862	-123.036380937341	-0.152644877253606	-18.8571015500568	-0.190001447008508	-18.8667889763424	-18.0617802145219	-99.9991131995661	
852700000	-18.2887996411386	-122.067324845637	-0.158184831172887	-18.9208972355381	-0.192787042718765	-19.0043086733475	-18.1433354071199	-99.5580885220615	
854400000	-18.2358745883153	-123.280092537841	-0.175255880899339	-18.9399818826034	-0.186231072588281	-18.9515277561883	-17.9934334414041	-99.7296924588462	
856100000	-18.3165125810575	-123.481865943002	-0.168383003173838	-18.9351034415184	-0.195800480874682	-19.0769146549375	-18.0270453457585	-98.9622964057985	
857800000	-18.1309168697307	-122.560948036386	-0.195054513890094	-19.0372312789998	-0.187959625388591	-18.9831409293433	-18.0743211533882	-99.1637807460189	
859500000	-18.2403530945839	-122.748391618972	-0.170023819584977	-19.0025095605158	-0.188713859048417	-19.1172408210642	-18.0228888599792	-99.7254543640425	
861200000	-18.2263436758246	-123.563339079212	-0.174542633748171	-19.1225985574931	-0.17632072702892	-19.0945116708978	-18.0231687818042	-100.176179848998	
862900000	-18.1094164305933	-123.365257069145	-0.171725854035756	-19.1383294076688	-0.192344274317386	-19.2054055695649	-17.9428869457814	-98.8892114221043	
864600000	-18.1462828606337	-123.442372241745	-0.170078276316696	-19.1718585847109	-0.178932063435666	-19.2034755167734	-17.8745443745259	-100.070107081371	
866300000	-18.0558953731481	-123.703666294839	-0.168275968180837	-19.1722905127528	-0.196761497531921	-19.2446294642119	-17.939867451709	-99.7267616831738	
868000000	-18.0607295718562	-123.307472581982	-0.186248500406065	-19.2781380312775	-0.195518866609208	-19.2677833852634	-18.0012386884819	-99.5583640187512	
869700000	-18.1322178269259	-123.126452118121	-0.183324967310408	-19.328012788719	-0.19539805276721	-19.2741844817916	-17.8276670562423	-99.9359889962404	
871400000	-18.052512694778	-124.313310020979	-0.189137573629889	-19.3948574366358	-0.198370635808071	-19.3217542939153	-17.9600429420478	-100.444309830234	
873100000	-18.0710268769036	-123.409713373048	-0.175475723570202	-19.3376012883302	-0.198255194930067	-19.368674211631	-17.8956780948046	-99.2863644897467	
874800000	-18.1228702362773	-123.966725929348	-0.191899981395546	-19.3707452912901	-0.200438839361329	-19.4684410963946	-17.9557514640256	-100.470173603676	
876500000	-18.0793491452953	-124.27342804347	-0.17556296673291	-19.5147113713986	-0.195439248325843	-19.4499331859272	-17.9582812596971	-99.0366597552164	
878200000	-18.0166341176534	-124.553573596799	-0.180712541121542	-19.5242439120745	-0.193975009159834	-19.4360693992497	-17.8423270400152	-100.630195201719	
879900000	-18.0958903373536	-124.777235967614	-0.19004170667308	-19.5266019441412	-0.206300782528517	-19.5666378138997	-17.8185220482097	-100.788264221604	
881600000	-18.0342526702655	-123.423261201366	-0.179509564775628	-19.613971939592	-0.203123243109673	-19.6759990060907	-17.7560712656302	-99.4990372960825	
883300000	-18.0024416776162	-124.48431875705	-0.195563612159591	-19.6894783793815	-0.20533983676802	-19.4851177756689	-17.814996968329	-100.371678197953	
885000000	-17.9850998903677	-124.230732372706	-0.181072609811123	-19.5747054545266	-0.197436033342082	-19.6111807403405	-17.7670999920452	-100.058923421346	
886700000	-17.943831753127	-124.302470281718	-0.185090284517999	-19.7237445553346	-0.19304960829351	-19.6507380250477	-17.7498396447429	-99.8689003729969	
888400000	-17.9736339657154	-125.048932304673	-0.194664708539001	-19.7163019828298	-0.189625277019167	-19.6681716427293	-17.8952377860205	-98.9465380645865	
890100000	-17.9736017438503	-125.457230983979	-0.192554218804522	-19.6307126010038	-0.207333189706304	-19.6924553838382	-17.8648382232338	-100.539618288516	
891800000	-17.9868895902952	-125.365154573837	-0.197816529332479	-19.7921767451521	-0.193213745991815	-19.7184386396863	-17.8009514509156	-100.204431755299	
893500000	-17.9027049335225	-124.964410395111	-0.183153617417338	-19.7479760894166	-0.194423149096217	-19.7672150467495	-17.7664968803321	-99.9932463601796	
895200000	-17.9460422542728	-125.365131190332	-0.1771545630127	-19.9873590758438	-0.191290626947782	-19.7685259810858	-17.7765191720661	-99.501793206857	
896900000	-17.9147516857983	-125.120054823255	-0.193950997537558	-19.8556999074521	-0.190948259778373	-19.886179000881	-17.7826796739303	-100.946736835605	
898600000	-17.9027644251988	-125.529870310544	-0.182934382652117	-19.8332220193811	-0.204284910384299	-19.8912263747909	-17.6611952231962	-100.344741084212	
900300000	-17.8553258105168	-125.176069144971	-0.186291514183324	-20.0140679624567	-0.197796415419644	-19.9450356066906	-17.6011150770413	-99.6726404484397	
902000000	-17.8823685217438	-125.582892949868	-0.193480132409798	-20.0857216981072	-0.196860002417165	-20.0011963517921	-17.7128305988131	-100.495164352502	
903700000	-17.8436325992109	-125.513906420286	-0.194618007178939	-20.012191131154	-0.202429361180033	-19.9648124164807	-17.6213934890914	-101.482509434669	
905400000	-17.796524520801	-126.171293227953	-0.181422056575432	-20.0212516060471	-0.200103644068964	-20.0984442660175	-17.6730604155842	-100.346639844938	
907100000	-17.8244118297832	-125.385527541485	-0.178565917514264	-20.0087670639104	-0.205627234088564	-20.1104742427995	-17.6154400284533	-100.465081928652	
908800000	-17.6986817722048	-125.993742756458	-0.193625165713553	-20.2032787367455	-0.188132834579021	-20.2312767166992	-17.6405263836354	-101.919098906449	
910500000	-17.8069848023845	-126.105450794613	-0.183384724929256	-20.1807831930269	-0.190546306509122	-20.1194125924835	-17.5050062177925	-100.441115769712	
912200000	-17.8625013222169	-127.029504837991	-0.186360573335464	-20.1683968691609	-0.214831049416016	-20.2394996251074	-17.6359423569935	-100.581405817115	
913900000	-17.6572642752376	-126.433770532382	-0.180781960568531	-20.2087629797327	-0.191642634811681	-20.2186530397785	-17.5785414623342	-100.742460546996	
915600000	-17.6986696341557	-126.317497787868	-0.202973181900759	-20.2918510989713	-0.212451962901993	-20.3255803699051	-17.5654654037867	-100.770164179043	
917300000	-17.6885604401056	-126.332460316573	-0.194271486968484	-20.280546611709	-0.210636825994726	-20.3671941935673	-17.5408486734232	-101.392234204381	
919000000	-17.7586988839671	-126.520656566303	-0.191440195809924	-20.3424128156342	-0.198169208874695	-20.2419109789043	-17.3920501301162	-100.806279077922	
920700000	-17.7151293004425	-126.572770710219	-0.202814427352771	-20.3003036112895	-0.200343115177229	-20.4386995073763	-17.701798683387	-101.394495225753	
922400000	-17.7742534024434	-126.759565762476	-0.188226135992177	-20.4316502967069	-0.199484471711384	-20.4943166714434	-17.4873070576136	-100.80503643188	
924100000	-17.7042864018058	-127.411465097833	-0.201169644930718	-20.3509889573646	-0.217729136898247	-20.4269133293188	-17.5049918847985	-100.71331653921	
925800000	-17.7324291365824	-126.769872381431	-0.18037565383165	-20.4260754757915	-0.211804639500693	-20.5008779834161	-17.4086070957625	-100.647645109852	
927500000	-17.6217216851146	-126.722571543405	-0.189141009456371	-20.5490263536617	-0.207870610508829	-20.4588539100771	-17.4811342442331	-100.816047137896	
929200000	-17.5550433730147	-127.581126480569	-0.188269514123646	-20.492785066976	-0.208563226288345	-20.5886897736008	-17.4502267597709	-100.942918322273	
930900000	-17.6854989435838	-127.872939244061	-0.187135757980581	-20.5529213702906	-0.203030874887925	-20.5474023637511	-17.505269408103	-100.712129896782	
932600000	-17.6017456187701	-127.308961955341	-0.208672646853727	-20.59811074434	-0.207983973546966	-20.5780242135745	-17.5503419620236	-100.325761809907	
934300000	-17.5441749629417	-127.349771294891	-0.201583449772436	-20.7150974416986	-0.21480835024636	-20.6997795868916	-17.3102926449342	-101.402672209277	
936000000	-17.7602790855437	-127.063496629966	-0.189306526645361	-20.7456226457329	-0.202636009219079	-20.6412225730012	-17.4415366706517	-101.445772383047	
937700000	-17.6867564095527	-127.667027061779	-0.196796810439069	-20.7576878039467	-0.22401667506018	-20.8281568386282	-17.3744550320768	-101.36824473816	
939400000	-17.4704269427446	-126.930990729984	-0.190600902418183	-20.7053433640349	-0.206678418853449	-20.7773086989302	-17.3674050741929	-101.022968118445	
941100000	-17.6632848786389	-126.940360216684	-0.207002874613612	-20.8258692245641	-0.204178443046467	-20.7524194693599	-17.3451035127775	-101.736636667981	
942800000	-17.528536808836	-127.257330139657	-0.195773527693879	-20.9139216761108	-0.20467596762178	-20.8278649088651	-17.4003706150678	-101.628766550476	
944500000	-17.5158712860772	-127.678597915703	-0.187428695028156	-20.8957196861528	-0.201485076350447	-20.9192555212257	-17.2376657715202	-101.305712086099	
946200000	-17.4795081662062	-128.352455987922	-0.204161488221322	-20.9040161885027	-0.208972919113199	-20.8819118896034	-17.348723683775	-101.415522678583	
947900000	-17.4811164823741	-127.834993624179	-0.203941703956469	-20.9802660318487	-0.215699998386296	-20.8887380360571	-17.3016913028846	-102.271106167159	
949600000	-17.4136208812722	-128.437794099637	-0.198399136906419	-20.9771620080862	-0.210582413600982	-20.9384219739561	-17.2027980392037	-100.904471099769	
951300000	-17.457311941252	-128.0524485787	-0.191691064031415	-21.0617323974443	-0.212440837210627	-21.0407338746387	-17.3197353813321	-100.49469233286	
953000000	-17.4796190157267	-127.87104150099	-0.203805773220314	-21.1039878833666	-0.22139349522356	-21.1401273914385	-17.2559670767147	-101.244308337551	
954700000	-17.4244660594339	-127.565804351256	-0.191930571416023	-21.0349036408064	-0.212375528855017	-21.0877063590918	-17.2604500406699	-101.577772804329	
956400000	-17.5626705344349	-128.585293231558	-0.204518265611483	-21.1512182457033	-0.217506638518656	-21.2057744955845	-17.2922243910467	-101.574972851349	
958100000	-17.5856163666959	-128.651096628656	-0.202525027469716	-21.2000455338661	-0.217934789104301	-21.1044728363593	-17.1681427755171	-101.562159591007	
959800000	-17.4252034034487	-127.82884647151	-0.198648102666686	-21.2713761457656	-0.217511003485376	-21.1949448658642	-17.0902844192919	-101.003443544208	
961500000	-17.3842898523779	-127.96219504809	-0.209667535719423	-21.3163573897283	-0.219163707913185	-21.1771694323716	-17.2530656557977	-101.143063665787	
963200000	-17.3994634329144	-128.088686346044	-0.198987746788771	-21.1681871487377	-0.211794558855388	-21.2665327636217	-17.2481911411808	-100.96849133407	
964900000	-17.4648250140758	-128.505590462829	-0.187827414321175	-21.3351692318701	-0.209898673921284	-21.2625359008616	-17.0989679290099	-101.016312313287	
966600000	-17.3745515895134	-128.078978829754	-0.203928033879649	-21.3372112715804	-0.202141416037189	-21.3821625254122	-17.187365801948	-101.386239138376	
968300000	-17.396309948759	-128.370317405234	-0.185759112685222	-21.3306080828052	-0.191430444094159	-21.4045028352276	-16.9665342704802	-100.710064935374	
970000000	-17.3821169968023	-128.197880512129	-0.189446535998377	-21.4839012300362	-0.220691729550362	-21.3895267074249	-17.0914349865722	-100.851671112009	
971700000	-17.3782609961753	-127.899581442237	-0.206389991615261	-21.5064423222174	-0.218712542886341	-21.5168633866698	-16.9742997236059	-101.152284962826	
973400000	-17.2860286401734	-128.346063367347	-0.193459672301863	-21.5646940331999	-0.21476008507614	-21.4745005126302	-17.0322955999393	-101.4100852035	
975100000	-17.2760332344238	-128.348631992529	-0.211130583268821	-21.5708899014482	-0.209517823164231	-21.5538619752264	-17.0273256742569	-101.439533271523	
976800000	-17.2789409250221	-128.400431453489	-0.211216079164456	-21.4730262051177	-0.204018836178968	-21.6354626701968	-16.8614980785152	-101.166445643626	
978500000	-17.2632657282113	-128.047961305294	-0.202720751501419	-21.5807927564435	-0.212969166338139	-21.5823925426423	-16.9846434306021	-101.282847861375	
980200000	-17.2440275195378	-128.400727030479	-0.21470787558077	-21.5817542406996	-0.214481502646701	-21.6662138815621	-17.0146064859083	-101.347943319067	
981900000	-17.3585052529207	-129.075159174522	-0.208420476466129	-21.6425312263578	-0.22624817970431	-21.7555154470446	-16.9359654073068	-101.181063547275	
983600000	-17.2769598972618	-128.272418694159	-0.220900796414261	-21.7127254046872	-0.216939918785833	-21.6707657215989	-16.9755563153626	-101.723673114061	
985300000	-17.3019914803082	-127.874601232392	-0.214138954749681	-21.7811981289427	-0.229827748273954	-21.7434565697675	-17.0005592795764	-101.179187029928	
987000000	-17.1634487068965	-127.946686743188	-0.204921506511496	-21.7900361605376	-0.216306097223598	-21.7176008055364	-16.9870939425012	-101.484808808323	
988700000	-17.1417700010482	-128.928189387513	-0.228211303479443	-21.8074465634498	-0.232874292623825	-21.8199365223154	-16.9152345321564	-101.374471443983	
990400000	-17.0660913509199	-128.575105204733	-0.206371747825674	-21.7453874348409	-0.230728381755028	-21.9056365485918	-16.8597239916111	-101.688026092553	
992100000	-17.1638783606047	-128.849571947919	-0.201177925056135	-21.9465720695823	-0.208829299863676	-21.9594609971632	-16.8054572460989	-101.224520082877	
993800000	-17.1048685077963	-128.19860757519	-0.206826092131869	-21.8893762544945	-0.223698353455598	-21.9692056015286	-16.875703298408	-101.009740068004	
995500000	-17.1364128117757	-128.572208120823	-0.215401262495627	-21.9493586353522	-0.212712409714397	-21.951587265584	-16.8848175809632	-100.480849083104	
997200000	-17.0353601079572	-128.747793985803	-0.204776586159724	-22.0926073515777	-0.230461361886257	-21.997981790803	-16.8290702663951	-101.042775325302	
998900000	-17.1900295339518	-128.307656251101	-0.202111813633406	-22.0401534439393	-0.224358579274129	-22.1036931482845	-16.8229429106089	-100.974554023293	
1000600000	-17.0290389449702	-129.021942433932	-0.21221792108096	-22.0525095962123	-0.224702058142814	-22.0968827672362	-16.8301147511774	-101.657161970548	
1002300000	-17.0566087497165	-128.260754254303	-0.213822857792742	-22.1974536125678	-0.226343932151496	-22.0149826800089	-16.874193270012	-101.801139076652	
1004000000	-17.0615665254067	-127.923143549192	-0.208152010992317	-22.1158668684668	-0.224663244990629	-22.2076257239999	-16.6577487932085	-101.121775131358	
1005700000	-17.033257905492	-128.594599190338	-0.214573376682187	-22.275574745444	-0.215709068188458	-22.1417212783245	-16.7867875956279	-101.359465772867	
1007400000	-17.0557603683468	-127.426448410212	-0.216531910287143	-22.2414351985615	-0.211112922909575	-22.1609480927763	-16.7499642359952	-101.606423520152	
1009100000	-17.0500990908201	-128.459138554385	-0.220068641858979	-22.3830368209868	-0.233110208832672	-22.3382841507014	-16.8084233298181	-100.227033838626	
1010800000	-17.000893761649	-128.804676979999	-0.213203317431099	-22.4116004153447	-0.226000112682439	-22.2564782028965	-16.7372334026347	-101.785773977323	
