!Keysight Technologies N9950B: A.12.38
!Date: Saturday, 13 May 2023 13:28:19
!Timezone: (UTC-06:00) Central Time (US & Canada)
!Model: N9950B
!Serial: MY61131330
!GPS Latitude: 
!GPS Longitude: 
!GPS TimeStamp: 0001-01-01 00:00:00Z
!GPS Seconds Since Last Read: 0
!CHECKSUM:0365447519
!Correction: S11(ON U)S21(ON U)S12(ON U)S22(ON U)
!S2P File: Measurements:S11,S21,S12,S22:
# Hz S DB R 50
800000000	-19.6442427882488	-115.596907919142	-0.0942526618248918	-16.175127697847	-0.091643750634208	-16.1734471449672	-19.1756571608258	-97.6507072269742	
801700000	-19.6559911515801	-115.052714208652	-0.0927826377365508	-16.2200012651811	-0.107604777499259	-16.237047604082	-19.2006065357043	-96.9946380313739	
803400000	-19.5748883923181	-114.611376512242	-0.0797467356500663	-16.1782516702518	-0.0970620597435025	-16.1795547287219	-19.2692072770724	-97.501649125794	
805100000	-19.5844610784343	-114.836260707523	-0.0989700055525495	-16.2815600847215	-0.117007034020186	-16.2405488159853	-19.1903586688154	-97.8606678321194	
806800000	-19.5755994691955	-114.866317370661	-0.0912906207074672	-16.3851993449397	-0.111748864782132	-16.3342041463583	-19.1485684302535	-97.1240991693625	
808500000	-19.6070477548823	-115.9052374924	-0.0942942237297512	-16.4087576078995	-0.118604774235645	-16.3390276964157	-19.2255837319391	-97.6516492831386	
810200000	-19.4877793813678	-115.438819378863	-0.099583801363994	-16.3325525461425	-0.0907796968637047	-16.4053548661275	-19.0321169507795	-97.4938451180769	
811900000	-19.5237327777011	-115.571504601197	-0.0907237662377517	-16.4938869658176	-0.104169205616967	-16.4503596718028	-19.068939822091	-97.2929245192742	
813600000	-19.451438648028	-115.922782000957	-0.0799768829501659	-16.5678735801692	-0.11256015449209	-16.4769653707176	-19.0139048254659	-97.0318419939419	
815300000	-19.6466128442768	-115.816656883798	-0.114017461477887	-16.5109613279874	-0.0984977508394671	-16.4974280543355	-19.1858312846335	-96.9305679924555	
817000000	-19.3883750081543	-115.288745959637	-0.0956481523532584	-16.5195794446788	-0.112708323124559	-16.4660564786919	-19.1771202369988	-96.1549895769527	
818700000	-19.3737825892936	-114.978448579168	-0.105183384752599	-16.589622702612	-0.0958187306588598	-16.6117345973921	-18.9914757014975	-96.8818172989296	
820400000	-19.3355255417126	-115.734918082865	-0.0911125900092699	-16.6380235007234	-0.123142279035999	-16.6407370246268	-18.9871148244812	-96.8548645552924	
822100000	-19.3622545641455	-114.337014623229	-0.100915829414161	-16.5895398269437	-0.103394927154287	-16.6588383801122	-19.1237878620969	-96.7087982824184	
823800000	-19.2697352475028	-115.033127774855	-0.103128416674785	-16.7392209155625	-0.110562319319415	-16.6725220358562	-18.719742876786	-97.6122659708128	
825500000	-19.3874356827477	-115.687870848977	-0.104274555367804	-16.5980215732209	-0.106652732951882	-16.621808646748	-18.9475328956452	-97.1535039627081	
827200000	-19.2728503854752	-115.428863080189	-0.103219067291302	-16.7651222618546	-0.108650344431259	-16.825346895372	-18.8999304194069	-97.0956610492423	
828900000	-19.246207276698	-115.240352511949	-0.0935289178044527	-16.7459418331526	-0.107000598877687	-16.7712879684262	-18.8504229400525	-96.5178481101086	
830600000	-19.2797589567605	-116.485220305208	-0.0940652368518362	-16.8486429415939	-0.0957162987316988	-16.781314068087	-18.7800892067366	-96.3618050146018	
832300000	-19.188262203592	-115.304338930718	-0.101348398273629	-16.9056306596457	-0.0943957711044745	-16.954987379564	-18.9100804239097	-96.8205948995145	
834000000	-19.2113839418093	-116.841119290162	-0.0937845353845491	-16.891063213937	-0.111646533622506	-16.8555466345465	-18.9748798072792	-96.7472204312579	
835700000	-19.2775494604223	-115.783945662952	-0.103060050963279	-16.906418830595	-0.103910376119038	-16.9681433739858	-18.8179714373929	-96.3051840294181	
837400000	-19.1246883257036	-115.83661793185	-0.120972255220348	-16.8322970193675	-0.118604206857983	-16.9567608808094	-18.8186879279735	-95.1340360109725	
839100000	-19.1266043155255	-115.877049017406	-0.0948935037866589	-16.9655487802635	-0.120058151560595	-16.9665192433737	-18.835443809849	-97.4407535809686	
840800000	-19.0941320832771	-116.340005155284	-0.103892804512042	-17.1190407475825	-0.110262074864913	-17.0268402863581	-18.865390930622	-97.8337904390132	
842500000	-19.226201804345	-116.233609508406	-0.111527038595438	-16.9364098287375	-0.116215086129887	-17.0347258066348	-18.9245064876978	-96.9925851076454	
844200000	-19.0657048089147	-115.727999640378	-0.112523063789069	-17.0357346487781	-0.110967564319072	-17.07232212227	-18.7789208991849	-96.2147906981631	
845900000	-19.1046018414041	-116.590529771371	-0.100454022483406	-17.0777217160099	-0.119012292150531	-17.1929734143559	-18.7160902600443	-97.3797199021728	
847600000	-19.1425683452727	-115.862220315505	-0.107877559232399	-17.1631466834533	-0.111281462246899	-17.1682922680743	-18.6089479471092	-97.1837655314717	
849300000	-19.0351073854558	-116.584332871437	-0.108160627935756	-17.1524561744545	-0.109215739539295	-17.183438427505	-18.6999118370036	-96.3586452235248	
851000000	-19.0331731067798	-116.320914013026	-0.0971525230392718	-17.2395093853833	-0.107944254584072	-17.2439316016352	-18.7016853034236	-96.9690026331384	
852700000	-18.931791829391	-115.558778993064	-0.102225885719533	-17.2322332908518	-0.111202211121326	-17.2680663573197	-18.7796793833625	-96.5430170204784	
854400000	-18.9356745772579	-116.538248264493	-0.107669666069385	-17.3295511086752	-0.114818338804189	-17.2799590596742	-18.6565971195797	-96.9373248371057	
856100000	-18.9845825760945	-116.798228136103	-0.103365457070595	-17.2590325890442	-0.120861135580528	-17.4086932002301	-18.6670075086421	-95.9379898801206	
857800000	-18.7905081992517	-115.733415648288	-0.113562246477089	-17.3650363647748	-0.121815867972775	-17.3601793649086	-18.7213515031831	-96.4089658839427	
859500000	-18.929212367791	-116.0743928722	-0.111246999422422	-17.383258065363	-0.108172338536711	-17.4142078052008	-18.6569213228867	-96.8723825774565	
861200000	-18.9514385960548	-116.824645876892	-0.103836364012326	-17.3585314103541	-0.109571216073364	-17.3850035928738	-18.6792479552901	-97.4433160047331	
862900000	-18.7740231840728	-116.745955889834	-0.104515676386171	-17.4697217620119	-0.117491039413014	-17.4789374609137	-18.6266765151151	-96.0917951847621	
864600000	-18.8138888842513	-116.632517507216	-0.0954229047737326	-17.4700069809419	-0.105136250037125	-17.530621138129	-18.5068354017013	-96.9886821976255	
866300000	-18.722236770033	-117.201968493368	-0.104192690629964	-17.5517579529021	-0.116039255590568	-17.5755533259085	-18.591874836045	-96.7744495600672	
868000000	-18.7527128073992	-116.683852274267	-0.11539297243623	-17.5342351428046	-0.119182120452912	-17.5284425831548	-18.6363445602939	-96.5541070102558	
869700000	-18.804647775481	-116.292817191678	-0.113145834781975	-17.6295162151055	-0.114674243325838	-17.5796392330838	-18.4350565387292	-96.9976847888947	
871400000	-18.7218656255083	-117.541302102648	-0.108609438604385	-17.630904771211	-0.120970856650404	-17.6068122858247	-18.6007079294851	-97.5276370029348	
873100000	-18.7443509107415	-116.576417471599	-0.0974757546997577	-17.617584278444	-0.120274046952333	-17.630117935891	-18.5581436353374	-96.300144642796	
874800000	-18.7875996388159	-117.482673894586	-0.130000847081522	-17.6685538162784	-0.114242825042857	-17.7635385714546	-18.5978727191841	-97.5475413329515	
876500000	-18.7465144755428	-117.28595957766	-0.103666331209928	-17.7513305699777	-0.115574814351917	-17.7581310360193	-18.5904743265622	-96.0827208495838	
878200000	-18.7261743024107	-117.95029874274	-0.125565633611278	-17.7173579955299	-0.113480922941348	-17.7083211805638	-18.4914424866507	-97.8545674717315	
879900000	-18.8190262786997	-117.957574780699	-0.114207515389083	-17.7507278305528	-0.116516968956821	-17.7987630279351	-18.4577862319258	-97.7802245609912	
881600000	-18.6651619555703	-116.687908153617	-0.110211008498409	-17.8444791731575	-0.12318794180594	-17.8804318338676	-18.3737500333747	-96.4723658519355	
883300000	-18.7000385992597	-117.9737701848	-0.121749118962313	-17.972482910357	-0.120298418022178	-17.8014912083683	-18.4503889091243	-97.2482451952822	
885000000	-18.666500206935	-117.540055812505	-0.128439761234508	-17.8670938499835	-0.120136083879321	-17.9637867788008	-18.4004327533595	-97.27017248212	
886700000	-18.6078915387145	-117.556581625376	-0.104055526073988	-17.9140011079869	-0.125245474877405	-17.946333287011	-18.4363979461648	-97.0044711078573	
888400000	-18.6666471015248	-118.296268794696	-0.108618833165882	-17.9267280334092	-0.11365227577023	-17.9972146012067	-18.5456925794851	-96.0592710521364	
890100000	-18.6654855860104	-118.87416753861	-0.110153128963434	-18.0222647636442	-0.115902160423277	-17.9741281672649	-18.5096923769303	-97.8633553443566	
891800000	-18.683380778939	-118.668065876241	-0.102778909354745	-18.0588485671011	-0.119316785334102	-17.9198086259786	-18.4529973624805	-97.2877805783426	
893500000	-18.5504555982448	-118.251475201785	-0.102093976925078	-17.9678226197797	-0.11646776993059	-18.0537740977195	-18.4096356391932	-97.1296882746158	
895200000	-18.6309810390652	-118.62153353241	-0.104806156228212	-18.1761601849525	-0.126091828639483	-18.0477659747657	-18.4510830412949	-96.7579552438889	
896900000	-18.6078812402752	-118.260557939327	-0.117352672807262	-18.0276557697612	-0.118185496491724	-18.0493110535912	-18.469505615549	-97.9836906769496	
898600000	-18.6067088731242	-118.852708654636	-0.113791055571541	-18.0325222212811	-0.129600023238856	-18.2084022167635	-18.3047116745203	-97.518053416824	
900300000	-18.5310740783522	-118.479988922241	-0.112901552443527	-18.1713661387455	-0.115522001552521	-18.1587392487105	-18.2602693355075	-96.627944943903	
902000000	-18.574410352369	-118.751725549964	-0.103679820347227	-18.2911122434523	-0.133675142406055	-18.2596812963556	-18.3921000466374	-97.5931831713402	
903700000	-18.5342287959514	-118.710447922856	-0.120552567335009	-18.2264446477441	-0.114570116826593	-18.2622547343532	-18.2450853286975	-98.7237870596543	
905400000	-18.4732035994681	-119.578036540823	-0.10840456069283	-18.2737769005596	-0.130533441450161	-18.3271493269911	-18.3526176747438	-97.5632089758933	
907100000	-18.511282462428	-118.691348646689	-0.109586023106643	-18.2655578484351	-0.121595795888245	-18.3752237129077	-18.2559510800505	-97.4583618497382	
908800000	-18.3947793470971	-119.257069297033	-0.129213442910138	-18.4195786635168	-0.121697212777897	-18.455149395626	-18.3034387639417	-98.9055886360801	
910500000	-18.4916864458767	-119.366011324061	-0.0951546868424733	-18.3994736399591	-0.106785779812024	-18.3505696594598	-18.1773024571757	-97.4524976621971	
912200000	-18.5616186340584	-120.032907595877	-0.110892747815246	-18.4165213384523	-0.1218373050787	-18.4115181900033	-18.2856471868391	-97.6387402770624	
913900000	-18.3300414104232	-119.839175078581	-0.105374133479918	-18.4099631172151	-0.114663562178151	-18.5295216273505	-18.2479256859304	-97.9843392334317	
915600000	-18.3328668804223	-119.812718945207	-0.115013483116665	-18.518090659002	-0.12490648830413	-18.5199069008396	-18.2277319113816	-97.9855162891423	
917300000	-18.3496189112766	-119.594716830731	-0.102037815478425	-18.4602749762075	-0.130940687281539	-18.544549280003	-18.2153566372382	-98.5283176395983	
919000000	-18.4353533715156	-119.783315781182	-0.119552242301008	-18.5664061840555	-0.123181546684668	-18.5857742389296	-18.0560346473612	-98.068839134411	
920700000	-18.4047280152687	-119.838712237297	-0.119705248203418	-18.5192352366637	-0.119930468321291	-18.6342837732634	-18.3608291528472	-98.4058299080624	
922400000	-18.4683496702541	-120.110151330352	-0.10508340872715	-18.5986937630043	-0.120230539738397	-18.6914084779439	-18.1088666876396	-97.8883105305493	
924100000	-18.3856946570494	-120.740431956496	-0.115312722985515	-18.6311138606643	-0.13661413192305	-18.6791440713349	-18.1612176547444	-97.6141217345632	
925800000	-18.4481688536179	-119.951738121561	-0.0960789660032777	-18.6336103729216	-0.126532353565347	-18.7645293015789	-18.0261525226806	-98.0320518949615	
927500000	-18.2865349834018	-119.998350632438	-0.111515569525214	-18.6714826303585	-0.12396963321353	-18.7031323953574	-18.1467982104661	-98.1315243338696	
929200000	-18.2633220899583	-121.123701326822	-0.120661549301725	-18.7638738583742	-0.122651711929749	-18.7960143222094	-18.0744985861498	-98.0002900262517	
930900000	-18.3729344279389	-121.113043033536	-0.10542086833513	-18.7273957034667	-0.125170981510321	-18.763196376891	-18.1871299736042	-97.8478694312102	
932600000	-18.2708337738248	-120.405434143504	-0.133340132159266	-18.739226748389	-0.117669737335796	-18.8193030049122	-18.1734502250117	-97.688042512756	
934300000	-18.2275551979754	-120.646148263881	-0.116746370421049	-18.8378528070228	-0.143179212540179	-18.840908320253	-17.9378560359049	-98.4279710356739	
936000000	-18.4676482165889	-120.124329036435	-0.123916997502052	-18.9965300771552	-0.122273071890105	-18.8241372101491	-18.0594487902109	-98.6568982899206	
937700000	-18.4071715579637	-121.064390977104	-0.116613176912456	-18.9591090322721	-0.136362708747923	-19.0207435472742	-18.0124480830893	-98.5196037717372	
939400000	-18.1658385309329	-120.185791892907	-0.111479020062272	-18.8694475002689	-0.12068791652773	-18.9674756080077	-17.9857458809002	-98.1633747543389	
941100000	-18.3213270655613	-120.107116055373	-0.124426856232561	-18.9413754653921	-0.112042941338408	-18.9893046009749	-18.0152847824279	-98.9572818722133	
942800000	-18.2265385077479	-120.556125077349	-0.111870235317319	-19.0124316471729	-0.127953619588545	-19.0506733745514	-18.0506848500385	-98.7159873646968	
944500000	-18.2022278999122	-120.888946940239	-0.115029345439453	-18.9445359990172	-0.121694214088387	-19.071122920432	-17.8559762814552	-98.2811263329496	
946200000	-18.1504073315089	-121.85418062129	-0.122387745608296	-19.1591464873759	-0.136916727336466	-19.0861300011039	-18.0396404320929	-98.8246711711522	
947900000	-18.161338124576	-121.074318377039	-0.126240738360428	-19.1637319147174	-0.119750299887241	-19.0899056270226	-17.9326206642164	-99.3458110329125	
949600000	-18.1065472845272	-121.732858940652	-0.119470256892561	-19.1305347932006	-0.132490155480898	-19.1461143293417	-17.8667167595377	-97.9272864177154	
951300000	-18.1371251189048	-121.290336864924	-0.107165283849032	-19.1694765500401	-0.123787504931541	-19.2179813697723	-18.0037394685448	-97.700999195438	
953000000	-18.1711928303709	-121.140884847176	-0.125244213675637	-19.1729916200949	-0.140250867689864	-19.2532202156133	-17.8748734251616	-98.1650881950812	
954700000	-18.0834475184453	-120.863099990731	-0.107506286996127	-19.2004991132194	-0.112197484965047	-19.2713250554694	-17.8636377422701	-98.742458505561	
956400000	-18.2724008638906	-121.769550962575	-0.117231745229193	-19.254585057424	-0.124359124331941	-19.3068363269794	-17.9157674344823	-98.5962653333633	
958100000	-18.2502266662576	-121.791250101371	-0.114301078104434	-19.2339524320557	-0.125768866664554	-19.2960803719486	-17.7618716551888	-98.7962764509461	
959800000	-18.0749105873575	-121.006958149034	-0.12188803881504	-19.3797815790987	-0.120534711134806	-19.3311518259768	-17.679921534997	-98.1565819400405	
961500000	-18.0708907279453	-121.112860437963	-0.130925387691721	-19.4636475855084	-0.138695480040629	-19.3395362630301	-17.8925082697952	-98.2132342142022	
963200000	-18.0862061920758	-121.452785806321	-0.124473242796866	-19.3278248058351	-0.135065487657944	-19.4592611620966	-17.8850937363052	-98.1796554360295	
964900000	-18.1483047924732	-121.694037990661	-0.114443436354919	-19.4633680172385	-0.132548434070851	-19.421970852776	-17.7345895032474	-97.8667349923142	
966600000	-18.0393221688239	-121.329201623983	-0.121237025062813	-19.4065858281101	-0.11196941752318	-19.5919379940737	-17.8103320225854	-98.7242721578836	
968300000	-18.0740075590508	-121.621898222004	-0.10323957850287	-19.5307421316461	-0.113527866198937	-19.5332617371417	-17.6076513121732	-97.58658717394	
970000000	-18.0768843126107	-121.492761685148	-0.115362528729833	-19.6396924555942	-0.130606180017488	-19.5275337681591	-17.7235496380894	-98.3052598357256	
971700000	-18.0834666460561	-120.95059930427	-0.128241261400786	-19.5634549026162	-0.125523775537079	-19.6564218407442	-17.6032023542532	-98.4675920792452	
973400000	-17.9632826599258	-121.784251924181	-0.116659231711354	-19.7128312590258	-0.144269571104389	-19.4882122588263	-17.7026433257559	-98.2643266540249	
975100000	-17.9338929234527	-121.539661805789	-0.131992397110233	-19.7118636374101	-0.130912813582352	-19.6736575927464	-17.6673125962894	-98.5659484212755	
976800000	-17.9391596642461	-121.65307820093	-0.131325506617157	-19.6197249130956	-0.118552055344688	-19.7291755737122	-17.5093915854839	-98.4779700301541	
978500000	-17.9392489917218	-121.28029255773	-0.121654044558441	-19.7302942579598	-0.123482368272775	-19.7195800352631	-17.6171451540431	-98.169022294515	
980200000	-17.9338418577843	-121.486480523009	-0.134796677057381	-19.7394170139809	-0.118695613055126	-19.7486262987354	-17.6384111053261	-98.5362034954408	
981900000	-18.0375203139722	-122.120157374182	-0.13159397185439	-19.7319467604163	-0.137248977219596	-19.7884497086277	-17.5449232196292	-98.2003028888413	
983600000	-17.9233084854118	-121.487932042346	-0.129123643808723	-19.8490769624181	-0.12442845059624	-19.7891017758521	-17.609506361062	-99.0933761207908	
985300000	-17.988017941983	-120.852698869473	-0.131674697635598	-19.842270775389	-0.134587795418902	-19.8640743340322	-17.6312290966477	-98.3064688388048	
987000000	-17.8548672480375	-121.066063041449	-0.116840691577181	-19.9136457573952	-0.136342383873362	-19.971496188804	-17.6028975384926	-98.733600681132	
988700000	-17.7944670202017	-122.092851057187	-0.134429226075495	-19.8897198630906	-0.142030431788516	-19.9722042010422	-17.5437458629666	-98.7078998555778	
990400000	-17.7442662857769	-121.820534832714	-0.126330698404134	-19.8978391176534	-0.139592312023799	-20.0159982227986	-17.4426813145929	-98.8429799233323	
992100000	-17.8526014147548	-121.992287115919	-0.116796376924326	-20.0518624737509	-0.119989500427054	-20.0000272433881	-17.4365656219694	-98.3520855142105	
993800000	-17.7558097098518	-121.346079238346	-0.11431455237629	-19.9993257128479	-0.13545497269216	-20.025377273122	-17.4906880502004	-98.066413146521	
995500000	-17.7747255620882	-121.389927189081	-0.128471648048579	-20.003017105454	-0.135385036018769	-20.07327915445	-17.5304501608076	-97.8318847013423	
997200000	-17.6917016825991	-121.978984056767	-0.13109921659949	-20.2086371450146	-0.135888308574021	-20.1134374180352	-17.409913907308	-98.335766225021	
998900000	-17.8440554558011	-121.297891329932	-0.123281867933908	-20.074867928668	-0.127190352161876	-20.0980573452422	-17.4335712564924	-98.1494730085977	
1000600000	-17.7030204010133	-122.099130301666	-0.137586830469886	-20.1654898128987	-0.136151186233823	-20.1258729688956	-17.4494051051538	-98.6962631258937	
1002300000	-17.7024958623749	-121.271432180488	-0.12575958723455	-20.2764681999235	-0.130118052791258	-20.1615240676831	-17.4886380629158	-99.0184568615707	
1004000000	-17.7037153530789	-121.000662716246	-0.123799521810575	-20.268475704972	-0.145845455955229	-20.2408054167603	-17.2829278711125	-98.4156196270644	
1005700000	-17.6688374254352	-121.619603644584	-0.128653194563602	-20.2612680928066	-0.13628361102037	-20.2608065337875	-17.4510873238531	-98.7104414559967	
1007400000	-17.689768799767	-120.23621543659	-0.134233535799201	-20.3506956978143	-0.122442667840725	-20.2020471879023	-17.3702392849366	-98.6675763540336	
1009100000	-17.7057926647825	-121.434340999796	-0.129294373619854	-20.4012273522912	-0.156329858354763	-20.3559413962498	-17.431971968238	-97.2621971076175	
1010800000	-17.6485112585106	-121.52677847271	-0.122761495604602	-20.4509823589912	-0.139839398952393	-20.2668533474955	-17.3681536195788	-98.7036655618309	
