!Keysight Technologies N9950B: A.12.38
!Date: Saturday, 13 May 2023 12:14:30
!Timezone: (UTC-06:00) Central Time (US & Canada)
!Model: N9950B
!Serial: MY61131330
!GPS Latitude: 
!GPS Longitude: 
!GPS TimeStamp: 0001-01-01 00:00:00Z
!GPS Seconds Since Last Read: 0
!CHECKSUM:0740838922
!Correction: S11(ON U)S21(ON U)S12(ON U)S22(ON U)
!S2P File: Measurements:S11,S21,S12,S22:
# Hz S DB R 50
800000000	-19.2422747790756	-116.93743646368	-0.209104355188675	-16.4160834704792	-0.222144723571427	-16.3837258437932	-18.848967841385	-109.009338496465	
801700000	-19.2918472200953	-116.586564101776	-0.20077278059138	-16.4541674607815	-0.217984674939052	-16.3601562444221	-18.8895828622444	-108.336929210158	
803400000	-19.1824075589308	-116.31370201036	-0.20474803009231	-16.4829138167681	-0.210207785452237	-16.5223621353481	-18.9282923102217	-109.388499615344	
805100000	-19.2168443320519	-116.375724817514	-0.226117534838673	-16.5024177679852	-0.231843061427875	-16.5501657783522	-18.9257337593201	-109.686039242427	
806800000	-19.2210515711951	-116.395469334246	-0.210309423755322	-16.5314046508663	-0.23558698017386	-16.5812862042099	-18.860626800992	-108.848829443364	
808500000	-19.2270539765788	-117.212999346449	-0.206388982055074	-16.5909132708348	-0.227568258572441	-16.5739374483061	-18.9489374189613	-109.400965317469	
810200000	-19.1487877203906	-117.082178613726	-0.208097162152149	-16.5843875057968	-0.209581276130659	-16.5721257745417	-18.7692352442261	-109.045837294742	
811900000	-19.1655803422161	-116.909281331724	-0.216837145786484	-16.692376461039	-0.234849319441462	-16.6546150933646	-18.8700514429956	-109.01906681905	
813600000	-19.1174215331267	-117.224220107388	-0.209678115137343	-16.7299607945085	-0.233703747603442	-16.6775691555656	-18.7937235871694	-108.900616363732	
815300000	-19.2615744364103	-117.610477582205	-0.212797583698232	-16.7479486345143	-0.220230387475453	-16.6992255102748	-18.9408495408267	-108.920774580242	
817000000	-19.0764651239933	-116.535177485704	-0.213174231451519	-16.7519974270211	-0.237053058274363	-16.6995003908236	-18.9699679187792	-108.296063912156	
818700000	-19.0239211361627	-116.265496207235	-0.21181097603531	-16.8468394857885	-0.218626204463914	-16.7908727876366	-18.7979400196865	-108.847711101043	
820400000	-19.0030233934865	-117.159948550261	-0.217996816776131	-16.940597286353	-0.233769129831851	-16.8376674227878	-18.7858252634679	-109.139400582206	
822100000	-19.0622257817583	-115.951802394188	-0.218649510409226	-16.8968032009279	-0.222412449629407	-16.9107609396296	-18.9073295118195	-109.065498569011	
823800000	-18.9440157682992	-116.619849963057	-0.208582839952697	-17.056187432455	-0.227689314962823	-16.9325161934528	-18.4903322991448	-109.439416397945	
825500000	-19.0744962818415	-117.192495292958	-0.218691177057909	-16.918983167647	-0.235382007652432	-16.8463373263048	-18.798052175963	-109.266786888461	
827200000	-18.9362343586837	-116.771974400251	-0.210067339824029	-16.9945628434344	-0.229956106287623	-17.0040605889496	-18.7088310115677	-109.442761194768	
828900000	-18.9350852357914	-116.46877703172	-0.204780339905977	-16.9215650792969	-0.227137564612144	-16.9527034919702	-18.6853299864068	-109.199596149746	
830600000	-19.0029802148653	-117.761673715402	-0.219641787558886	-17.1229429204082	-0.226244262886607	-16.9763765549291	-18.6594239309561	-108.794751129155	
832300000	-18.9156588728362	-116.626812556249	-0.21227888017235	-17.2448312972735	-0.227263973448417	-17.2081633533184	-18.7633901488808	-109.518556854034	
834000000	-18.9198014349146	-118.120651553278	-0.225762022672776	-17.0990525772337	-0.224891195217729	-17.0675298047929	-18.8355505101647	-109.461629875591	
835700000	-18.9417399095759	-117.023300999216	-0.198617798680028	-17.0749748355322	-0.229822456538108	-17.1595924694089	-18.6773008250952	-108.990967039715	
837400000	-18.8383721341053	-117.308258637821	-0.229000339420358	-17.1701631016194	-0.241849632155222	-17.1817891251598	-18.7318125298368	-108.092320769034	
839100000	-18.8798633218313	-116.822692144508	-0.218686634596643	-17.1563776923471	-0.225958623852421	-17.188761423599	-18.646536831227	-110.24598985612	
840800000	-18.8381218950068	-117.29161500202	-0.226657848463857	-17.2474164993	-0.23248640954174	-17.2067973812119	-18.6822996051871	-110.690378585215	
842500000	-18.9190486364666	-117.448341453129	-0.226044733396221	-17.2030411496681	-0.23683254998971	-17.2570901764461	-18.7480319437645	-110.157930936596	
844200000	-18.7821763937867	-116.724991904858	-0.228084263892624	-17.3427810333726	-0.242285799711422	-17.2944352039683	-18.6620318057819	-109.337588521354	
845900000	-18.8286141772316	-117.568518170804	-0.220799773553001	-17.2900726044878	-0.237814106649537	-17.3779634180045	-18.5481102082023	-110.374292854053	
847600000	-18.8792296964989	-116.862404284762	-0.230511354824287	-17.3633352930554	-0.230940587245268	-17.3398384859323	-18.4565951095384	-110.231020884181	
849300000	-18.7541463562758	-117.632925303098	-0.223484923675484	-17.4322533368732	-0.244378342181985	-17.4637704190276	-18.6049816788037	-109.878807500795	
851000000	-18.7303600241788	-117.202298074223	-0.209413154667606	-17.415250823636	-0.234240502783751	-17.47006535725	-18.5702012979804	-110.434462408368	
852700000	-18.687507285413	-116.43293125347	-0.211340923662624	-17.5020383273871	-0.228717184968661	-17.490960544029	-18.6541693486963	-110.103546205677	
854400000	-18.670336268158	-117.342558304586	-0.235271542627575	-17.529005890508	-0.232148400042694	-17.5146826890879	-18.4848698055661	-110.122392431605	
856100000	-18.7185602251878	-117.442663437883	-0.224218006216815	-17.4662678105023	-0.241409626666503	-17.5115916421816	-18.5570772631884	-109.28558117613	
857800000	-18.5020538210585	-116.616408427379	-0.2274830898709	-17.6201698716365	-0.230308658568903	-17.5588113647894	-18.5859047209796	-110.204757033451	
859500000	-18.6209122331345	-116.649464461154	-0.221984463833643	-17.554674291908	-0.238793828684021	-17.5958257950795	-18.5228542047516	-110.312135602937	
861200000	-18.626827334198	-117.648917570678	-0.223280478967261	-17.6577472450849	-0.237131454177911	-17.6008868564613	-18.5129612352983	-111.318577741867	
862900000	-18.5334473223779	-117.037285759643	-0.23034565472165	-17.6711835259862	-0.247638156214153	-17.7353368260163	-18.5060498065891	-109.83156847367	
864600000	-18.5527130646064	-117.131027365385	-0.224419294004324	-17.705281004748	-0.219589810784437	-17.6777306342934	-18.3496130891503	-110.449488460618	
866300000	-18.437846028262	-117.376686184457	-0.219523032452568	-17.7214050312829	-0.239471619247229	-17.8216890329813	-18.4401406717056	-110.621304562086	
868000000	-18.4696984350928	-116.95318203724	-0.235197079655763	-17.8167329166963	-0.246621051546579	-17.6688552648763	-18.5000373539832	-110.28806376039	
869700000	-18.5157142258118	-116.694391514399	-0.227140611436038	-17.8030061484285	-0.250055650548429	-17.8292996289103	-18.3021299993482	-110.741600692822	
871400000	-18.4479296235917	-117.686576702768	-0.235675163847107	-17.8139155576452	-0.249658823465631	-17.9066862081461	-18.4157763654093	-111.544810354484	
873100000	-18.4400811862487	-116.779627113971	-0.225304095048998	-17.7752479145395	-0.241500270875411	-17.8965817588743	-18.369812447264	-110.296527245185	
874800000	-18.5102265464983	-117.599740032718	-0.243986927548467	-17.9061710732299	-0.24310316777855	-17.9075850890241	-18.388260790294	-111.734029891091	
876500000	-18.438999360595	-117.529863335834	-0.22230020777718	-18.1024034079368	-0.252922660245095	-17.9003458648243	-18.397605719449	-110.437781949225	
878200000	-18.4016851492587	-118.051498307375	-0.233167243474667	-18.036130832985	-0.246585280344387	-17.9237067240425	-18.2920040877265	-111.761418264586	
879900000	-18.4990089383854	-118.006716894825	-0.241966624203219	-17.9520190155745	-0.24861780273931	-18.0149780822538	-18.251885805576	-111.846482464358	
881600000	-18.3699643779282	-116.610014420461	-0.224404427620173	-18.0784714344593	-0.24504669894127	-18.1235936090297	-18.1722305136158	-110.613093938277	
883300000	-18.3849908908347	-117.641089380113	-0.244814702416163	-18.1257744078772	-0.247879275729262	-18.0504088027172	-18.2193013373866	-111.624557481915	
885000000	-18.3453329563376	-117.537838871764	-0.238069145479927	-18.1497570780715	-0.23865987208927	-18.0411499351856	-18.1778832369001	-111.226634469027	
886700000	-18.2947375996444	-117.331657850098	-0.242065510301157	-18.1398254622019	-0.244592310622557	-18.1478408033527	-18.1637896913334	-111.084180232747	
888400000	-18.3203165506356	-118.03959344643	-0.248881820599753	-18.2000670975434	-0.246997727236714	-18.1787137683013	-18.3179326744372	-110.483745554536	
890100000	-18.3443089478287	-118.477244420851	-0.239550942429697	-18.119166276085	-0.245151025560567	-18.1202881320291	-18.219477009008	-111.95400852087	
891800000	-18.3567407798877	-118.313939347375	-0.240050752023725	-18.2921611340185	-0.255674997811402	-18.2480811534652	-18.1841228358387	-111.584886507265	
893500000	-18.2560444885625	-117.818206783574	-0.243879023855792	-18.1846751402973	-0.246472337210372	-18.3009053146379	-18.1201573863271	-111.399548421276	
895200000	-18.2796815417722	-118.159498039428	-0.223481862561136	-18.3893682875133	-0.256497421729665	-18.2325272821279	-18.1867001348327	-110.813287378279	
896900000	-18.254915197351	-117.913298573283	-0.237656663448935	-18.2807747862899	-0.235878615823627	-18.371208394457	-18.1606830421364	-112.312954747787	
898600000	-18.2560686746834	-118.372936796423	-0.227870020398579	-18.2683663509291	-0.258641962199067	-18.3897426379551	-18.0244493720947	-111.632951033449	
900300000	-18.185824749536	-117.940498228394	-0.231164384437371	-18.4492932184429	-0.23392307620042	-18.4074576769492	-17.9564625348818	-110.775689601335	
902000000	-18.2303539206019	-118.027489127028	-0.236604752084798	-18.4106941524929	-0.251347900414637	-18.4458150321636	-18.0973023298923	-111.768141086012	
903700000	-18.1943682900694	-118.393562740632	-0.242255691034556	-18.5360562741658	-0.251152267916364	-18.4353164883428	-17.9599421555724	-112.482959657996	
905400000	-18.1257328688148	-118.966182358515	-0.240730969930804	-18.4854443267611	-0.254018111037391	-18.5218464840188	-18.0184512772379	-111.704964017237	
907100000	-18.1673750902849	-118.197910178831	-0.246224315631531	-18.5622920226164	-0.247503309082545	-18.5639512377372	-17.9658622164782	-111.578357366144	
908800000	-18.0352635490985	-118.634069510799	-0.248911622975971	-18.5984828097687	-0.252268633499529	-18.6495332837898	-17.9352318413249	-112.830163897532	
910500000	-18.1508123520828	-118.657503898158	-0.238767400825643	-18.5534598753494	-0.236872339083234	-18.5924641425917	-17.837152821725	-111.293685443569	
912200000	-18.2034535839642	-119.487351678986	-0.242804114303043	-18.6337517815106	-0.263627709295276	-18.5497792031086	-17.9618224242681	-111.737323650885	
913900000	-17.9743405996098	-118.931311520543	-0.226259498348706	-18.6735107831628	-0.241110905285336	-18.669786768028	-17.919907085861	-112.041766576659	
915600000	-18.0144504001127	-119.016449747648	-0.242940850314615	-18.7139613453691	-0.252975084465769	-18.6946809296151	-17.8555694517655	-111.770632133889	
917300000	-17.9971339446942	-118.891603492944	-0.252394558869254	-18.8115979053286	-0.263852678875367	-18.7014105134164	-17.8714437794951	-112.476525279419	
919000000	-18.0681944164641	-118.940039059792	-0.252720677085227	-18.8164277445624	-0.254966914194744	-18.7517909162002	-17.7197507954309	-111.738851197463	
920700000	-18.0464001259442	-118.924323125406	-0.248043473569547	-18.7160472958881	-0.256397463053983	-18.8509482896946	-17.9730237405418	-112.415365984217	
922400000	-18.0726860941152	-119.26622501458	-0.232923405356494	-18.8730737706658	-0.257784952360309	-18.8287983104338	-17.7879383223159	-111.663115973065	
924100000	-18.0080875362475	-119.971030342694	-0.239828623756348	-18.859923047518	-0.254059093659671	-18.8324070782018	-17.7852480425025	-111.627403129748	
925800000	-18.0667491540734	-119.061625498631	-0.2438118546402	-18.862717452783	-0.263750665690735	-18.9715614183949	-17.7111510938192	-111.659598950077	
927500000	-17.9343266198992	-119.045662111597	-0.241525655214516	-18.8653279908647	-0.265206947139423	-18.9213286496616	-17.7933814630346	-111.751099260685	
929200000	-17.8751917111533	-120.319827111687	-0.239186316596338	-18.9858166825077	-0.264509112160685	-18.9802591400416	-17.7341071212668	-111.615286023238	
930900000	-18.0222444763069	-120.217175198618	-0.238648253935355	-18.9252686048418	-0.24908783821572	-18.9259607611015	-17.8416721758149	-111.711591618181	
932600000	-17.8986332085979	-119.778485739461	-0.250665436817007	-19.054543361109	-0.255274219325828	-19.0598954106585	-17.8548786447892	-111.393683243744	
934300000	-17.8612737900342	-119.852477389006	-0.258530691361475	-19.1273531420437	-0.27751024017899	-19.0248038361819	-17.592317595683	-111.864517393009	
936000000	-18.0914936941055	-119.331049184643	-0.262839098182454	-19.0339438312121	-0.262230929281221	-19.0331494951829	-17.6924245784525	-112.232661516266	
937700000	-18.0397921401351	-119.889153265465	-0.257416400273271	-19.1763663560101	-0.266520660767685	-19.0996250215117	-17.6518842737816	-111.779072377336	
939400000	-17.7978720307677	-119.395312755843	-0.255627444461774	-19.0330610981876	-0.249056453459222	-19.157643923734	-17.6322955635148	-111.87822968285	
941100000	-17.9533951209435	-119.311007654471	-0.248925556867267	-19.2212181576028	-0.249417103420782	-19.1241086470657	-17.6492867901318	-112.301651723889	
942800000	-17.8527756775099	-119.707711917841	-0.248372994502606	-19.1662707648859	-0.261173525219275	-19.2101814922303	-17.672448578974	-112.295545745284	
944500000	-17.8298699142185	-120.008241373259	-0.235541945100661	-19.2014521428278	-0.250926455554332	-19.2668072345915	-17.522307696301	-111.730654485407	
946200000	-17.8004761038551	-120.909386749533	-0.257140478736142	-19.2889003541979	-0.268416173405511	-19.2716910207329	-17.6606287480825	-112.178614317284	
947900000	-17.7975573826948	-120.278286434835	-0.257709667250023	-19.3419220963372	-0.264410283019763	-19.2893597287406	-17.602890670901	-112.858131875434	
949600000	-17.7495806948201	-120.982985694461	-0.252091509065727	-19.3500062933017	-0.266616611607278	-19.2429863490871	-17.5465424793212	-111.220953797931	
951300000	-17.7945473479768	-120.701288779334	-0.25567152201405	-19.4441726407098	-0.270787951629689	-19.315930805957	-17.6737192869563	-110.880119655142	
953000000	-17.7909318078572	-120.37233837171	-0.25051134305479	-19.3692302948838	-0.276883472833526	-19.4687465871166	-17.5933684044257	-111.256066941627	
954700000	-17.7303416628768	-120.09917594552	-0.239942259021968	-19.3443388425029	-0.245973661083973	-19.4098660083224	-17.5195941876158	-112.015975558767	
956400000	-17.94242082795	-120.982872151184	-0.255523868392941	-19.37873338996	-0.267649286974754	-19.4715710699544	-17.6117146045891	-111.834645889207	
958100000	-17.903050035003	-121.060246076492	-0.249644099806768	-19.4024105024882	-0.266962522468763	-19.407130549031	-17.4972193736077	-112.02849714017	
959800000	-17.739388960413	-120.237739662558	-0.254465911983956	-19.5858650304998	-0.25809559704403	-19.5395300042947	-17.4273559105459	-111.4285609323	
961500000	-17.7521306608469	-120.393127638096	-0.254396023954334	-19.5129886201939	-0.26888785994815	-19.4985597962871	-17.6014101524228	-111.537848043531	
963200000	-17.7506594414683	-120.743226145997	-0.261637216389171	-19.554498389677	-0.266485471582812	-19.6346994446611	-17.6070896961014	-111.449507235677	
964900000	-17.7946805429516	-120.991878969996	-0.248934273928299	-19.6175399375125	-0.269030183734105	-19.5864747299657	-17.4772900880524	-111.139609622986	
966600000	-17.6923942361281	-120.830804909174	-0.246932044370501	-19.6630638454431	-0.266511937076558	-19.7101124359694	-17.5640110098289	-111.798449874923	
968300000	-17.7723849603129	-120.983325071864	-0.239899529034762	-19.6835485271168	-0.253346034207861	-19.7146328921784	-17.368148787821	-110.730749915082	
970000000	-17.7504985907514	-120.833285864495	-0.251149739081202	-19.8351137441992	-0.266203067877271	-19.7262181284095	-17.4659978945569	-111.474473915604	
971700000	-17.7598738887915	-120.490630654669	-0.250942979161031	-19.7909962723585	-0.27577744201801	-19.7403456456397	-17.3685573159485	-111.268866364564	
973400000	-17.6896849751996	-121.056829570664	-0.257774612761094	-19.9000924930799	-0.274433013363339	-19.7565727218244	-17.4376848645928	-111.596467574214	
975100000	-17.6646059935397	-120.931180460849	-0.261726022752208	-19.8642111945838	-0.265807776250723	-19.8286037452479	-17.4379470087635	-111.776311212033	
976800000	-17.6380498168618	-121.120750648871	-0.2550708344605	-19.8587199473077	-0.266224218627393	-19.871676327481	-17.2811933823446	-111.248584495903	
978500000	-17.6430359068331	-120.630773288526	-0.25920108036895	-19.8862442847333	-0.271590097197587	-19.8001198906726	-17.3950136661029	-111.363822991834	
980200000	-17.6391069434093	-120.867624239322	-0.269125060992778	-19.8074254933207	-0.262433137187803	-19.9753456829804	-17.4337946727093	-111.951370210833	
981900000	-17.777558537066	-121.464751313346	-0.273300718762104	-19.8724054528921	-0.266889237389775	-20.0291500758712	-17.3252010664985	-111.455806992675	
983600000	-17.6520385644049	-120.940002696115	-0.267161718112071	-19.9816431271556	-0.269017960493625	-19.9371110658761	-17.3913771048989	-112.425895187903	
985300000	-17.6846420817035	-120.413842281758	-0.256780057615393	-20.0576468607043	-0.2692233351117	-20.0048158383639	-17.4342636187046	-111.636161922974	
987000000	-17.5896138081423	-120.482592374587	-0.267326498360818	-20.116256284301	-0.280465124475997	-20.1251245263829	-17.4155860283902	-112.449438285082	
988700000	-17.5618868369461	-121.504962648584	-0.276245157012918	-20.0511767502878	-0.275008197111232	-20.0681815383232	-17.3346220493527	-111.784329582273	
990400000	-17.4894339613581	-121.233349391331	-0.274042492186357	-20.1173687755477	-0.279403006245123	-20.0928924156562	-17.2740746700763	-112.13613377865	
992100000	-17.6087695238738	-121.275093573737	-0.262129107764176	-20.2064756441704	-0.268646869527453	-20.1073168331204	-17.3217905907457	-111.705650385765	
993800000	-17.5138224613665	-120.648635897761	-0.246985127376494	-20.147594317443	-0.275214778279256	-20.1702936328128	-17.3490736576419	-111.673368653809	
995500000	-17.5602029373671	-120.944180425534	-0.26211900626334	-20.1877809626869	-0.279073365786118	-20.1843847899421	-17.3976392786212	-111.185905400957	
997200000	-17.4281186827488	-121.265349425348	-0.264367472016473	-20.3696673654323	-0.284219455400467	-20.2575852334676	-17.3031933894966	-111.815702995998	
998900000	-17.6179539725209	-120.875228293245	-0.266255050109823	-20.3108635719174	-0.285485935716987	-20.300185227093	-17.3347227906507	-111.635892065834	
1000600000	-17.4404358797131	-121.463752549773	-0.275259805785362	-20.3183989422408	-0.27733290594199	-20.290225048322	-17.3067954538097	-112.400370795901	
1002300000	-17.4644160185001	-120.630813910499	-0.263750849132764	-20.4138633050326	-0.274156816754678	-20.2923593857026	-17.3287750777729	-112.55256023715	
1004000000	-17.4767208413928	-120.357651130905	-0.26347150876918	-20.3712727419881	-0.283599180661926	-20.4021802346976	-17.1763002367171	-111.834981589664	
1005700000	-17.4469783126976	-121.019760637801	-0.265033342251228	-20.4336965791598	-0.279710049305687	-20.4455802665274	-17.3108992913676	-112.449735706029	
1007400000	-17.4687651033876	-119.737868388968	-0.272534202981506	-20.5467103063865	-0.264761132464387	-20.4161989489951	-17.2335144387053	-112.592429770143	
1009100000	-17.4720120402728	-120.557781792872	-0.267564427464559	-20.5294214138348	-0.288367577562407	-20.515523334128	-17.3543073912244	-111.324786474488	
1010800000	-17.4148115765809	-121.061980481363	-0.273596626528712	-20.6675928886292	-0.293692059761055	-20.535865027231	-17.2285495656405	-113.017510970872	
