! TOUCHSTONE file generated by CST MICROWAVE STUDIO
! Date and time: Tue Apr 18 18:35:12 2023
! Project name: Untitled_0.cst
! Header version: 2018
! Port assignment regex: !\s*Touchstone port\s*([0-9]+)\s*=\s*(CST MWS port|CST DS port)\s*([0-9]+|Zmin|Zmax)\s*\(\"(.*)\"\)(\s*mode\s*([0-9]+))?.*
! Touchstone port assignment:
! Touchstone port 1 = CST MWS port 1 ("")
! Touchstone port 2 = CST MWS port 2 ("")
# GHz S MA R 50
2                    0.493162618     -165.800509      0.869939037      104.186394      0.869939189      104.185862       0.49315757      -165.82742
2.0105               0.495587326     -166.967485      0.868538685      103.021664      0.868534505      103.019356      0.495582105     -166.993375
2.021                0.497801787     -168.131132      0.867252279      101.860073      0.867244426      101.856175      0.497796056     -168.155966
2.0315               0.499807243     -169.291749      0.866081105      100.701335      0.866070194      100.696025       0.49980071     -169.315489
2.042                0.501604829     -170.449638       0.86502631      99.5451601      0.865012912      99.5386101      0.501597247     -170.472244
2.0525               0.503195568     -171.605102      0.864088906      98.3912576      0.864073554      98.3836309      0.503186732     -171.626533
2.063                0.504580363     -172.758445      0.863269777       97.239333      0.863252965      97.2307859      0.504570115      -172.77866
2.0735               0.505760001     -173.909973       0.86256968      96.0890902      0.862551866      96.0797715      0.505748221      -173.92893
2.084                 0.50673514     -175.059995      0.861989254       94.940231       0.86197086      94.9302824       0.50672175     -175.077652
2.0945               0.507506311     -176.208819      0.861529017      93.7924556      0.861510433      93.7820119      0.507491271     -176.225134
2.105                0.508073917     -177.356755       0.86118937      92.6454628      0.861170957      92.6346518      0.508057219     -177.371687
2.1155               0.508438224     -178.504114      0.860970604      91.4989502      0.860952689      91.4878928      0.508419895     -178.517622
2.126                0.508599368     -179.651206      0.860872895      90.3526143      0.860855779      90.3414247      0.508579461     -179.663251
2.1365               0.508557345      179.201656      0.860896308      89.2061507      0.860880266      89.1949365      0.508535941      179.191113
2.147                0.508312017       178.05416      0.861040798      88.0592543      0.861026079      88.0481167      0.508289221      178.045158
2.1575               0.507863109      176.905994      0.861306211      86.9116196       0.86129304      86.9006536      0.507839045      176.898569
2.168                0.507210208      175.756845      0.861692279      85.7629408      0.861680858      85.7522351      0.507185016      175.751033
2.1785               0.506352765      174.606401      0.862198623      84.6129118      0.862189133      84.6025491      0.506326602      174.602238
2.189                0.505290095       173.45435      0.862824751      83.4612268      0.862817353      83.4512839       0.50526313      173.451869
2.1995               0.504021381       172.30038      0.863570055      82.3075801      0.863564889      82.2981281      0.503993791      172.299615
2.21                 0.502545672       171.14418      0.864433805      81.1516663      0.864430997      81.1427707      0.502517641      171.145165
2.2205               0.500861887       169.98544      0.865415153      79.9931811      0.865414809      79.9849018      0.500833606      169.988207
2.231                0.498968819      168.823851      0.866513124      78.8318206      0.866515335      78.8242124      0.498940481      168.828431
2.2415               0.496865139      167.659105      0.867726612      77.6672825      0.867731454      77.6603948      0.496836939      167.665531
2.252                0.494549398      166.490895      0.869054377      76.4992654      0.869061913      76.4931428      0.494521531        166.4992
2.2625               0.492020033      165.318917       0.87049504        75.32747      0.870505318       75.322152      0.491992692      165.329133
2.273                0.489275371      164.142868      0.872047074      74.1515988      0.872060132      74.1471203      0.489248747      164.155029
2.2835                0.48631364      162.962449      0.873708803      72.9713564      0.873724666      72.9677479       0.48628792      162.976588
2.294                0.483132969      161.777362      0.875478391      71.7864505      0.875497074      71.7837377      0.483108336      161.793515
2.3045               0.479731401      160.587313      0.877353838      70.5965913      0.877375346       70.594796      0.479708032      160.605515
2.315                0.476106899       159.39201      0.879332971      69.4014928      0.879357301      69.4006325      0.476084965        159.4123
2.3255               0.472257356      158.191168      0.881413438      68.2008727      0.881440577      68.2009608      0.472237023      158.213584
2.336                0.468180609      156.984503        0.8835927      66.9944531      0.883622628      66.9954993      0.468162033      157.009088
2.3465               0.463874442      155.771738      0.885868023      65.7819607      0.885900713      65.7839712      0.463857774      155.798536
2.357                0.459334214      154.552742      0.888236889      64.5630901      0.888262176      64.5660673        0.4593196        154.5818
2.3675               0.454560024      153.327129      0.890695687      63.3376138      0.890713276      63.3415569      0.454547599      153.358496
2.378                0.449549661      152.094635      0.893241037      62.1052779       0.89325089      62.1101828      0.449539553      152.128366
2.3885               0.444300869      150.855008      0.895869338      60.8658346      0.895871447      60.8716941      0.444293195      150.891159
2.399                0.438810133      149.608102      0.898571316      59.6190208      0.898571316      59.6258249      0.438805005      149.646735
2.4095               0.433076107      148.353631        0.9013463      58.3646191        0.9013463      58.3723548      0.433073626      148.394813
2.42                  0.42709716      147.091334      0.904192033      57.1024166      0.904192033      57.1110684      0.427097421      147.135138
2.4305               0.420871262      145.820995      0.907103961       55.832202      0.907103961      55.8417518      0.420874348      145.867497
2.441                0.414396487      144.542408      0.910077272      54.5537753      0.910077272      54.5642027      0.414402472      144.591693
2.4515               0.407671038      143.255378      0.913106891      53.2669482      0.913106891      53.2782305       0.40767999       143.30754
2.462                0.400693274      141.959725      0.916187472      51.9715454      0.916187472      51.9836577       0.40070525      142.014863
2.4725               0.393461734       140.65528      0.919313402       50.667405      0.919313402      50.6803208      0.393476781      140.713504
2.483                0.385975161       139.34189      0.922478794      49.3543803      0.922478794      49.3680709       0.38599332       139.40332
2.4935               0.378232538      138.019416      0.925677491        48.03234      0.925677491      48.0467751      0.378253836      138.084184
2.504                0.370233106      136.687735      0.928903066      46.7011695      0.928903066      46.7163173      0.370257565      136.755987
2.5145               0.361976404      135.346742      0.932148828      45.3607719      0.932148828      45.3765991      0.362004035      135.418637
2.525                0.353462294      133.996349      0.935407827      44.0110692      0.935407827      44.0275411      0.353493097      134.072064
2.5355               0.344690991      132.636487       0.93867286      42.6520029       0.93867286      42.6690837      0.344724956      132.716218
2.546                0.335663098      131.267108      0.941936484      41.2835353      0.941936484       41.301188      0.335700206      131.351073
2.5565               0.326379633      129.888181      0.945191032      39.9056504      0.945191032      39.9238372      0.326419855      129.976623
2.567                0.316842064      128.499698      0.948428619      38.5183549      0.948428619       38.537037      0.316885358      128.592891
2.5775               0.307052334      127.101674      0.951641171      37.1216789      0.951641171      37.1408168      0.307098649      127.199923
2.588                0.297012896      125.694143      0.954820439      35.7156771      0.954820439      35.7352306      0.297062168      125.797794
2.5985               0.286726737      124.277163      0.957958028      34.3004293      0.957958028      34.3203577      0.286778893      124.386609
2.609                0.276197407      122.850813      0.961045419      32.8760411      0.961045419      32.8963034       0.27625236      122.966501
2.6195               0.265429042      121.415194      0.964074004       31.442645      0.964074004      31.4631996      0.265486693      121.537639
2.63                 0.254426387      119.970431      0.967035115      30.0004001      0.967035115      30.0212054      0.254486626      120.100223
2.6405               0.243194813      118.516664      0.969920062      28.5494933      0.969920062      28.5705075      0.243257517      118.654493
2.651                0.231740339      117.054057      0.972720169      27.0901393      0.972720169      27.1113204      0.231805371      117.200726
2.6615               0.220069636      115.582784      0.975426817      25.6225805      0.975426817      25.6438867      0.220136849      115.739245
2.672                0.208190044      114.103036      0.978031485      24.1470873      0.978031485      24.1684769      0.208259275       114.27042
2.6825                0.19610957      112.615006      0.980525795      22.6639579      0.980525795      22.6853894      0.196180645      112.794676
2.693                 0.18383689      111.118888      0.982901558      21.1735179      0.982901558      21.1949501      0.183909621      111.312504
2.7035               0.171381342       109.61486      0.985150823      19.6761199      0.985150823      19.6975119       0.17145553      109.824473
2.714                0.158752919      108.103069       0.98726592      18.1721427       0.98726592       18.193454       0.15882835      108.331252
2.7245               0.145962248      106.583603      0.989239515      16.6619905      0.989239515      16.6831813      0.146038698      106.833642
2.735                 0.13302057      105.056446      0.991064651      15.1460917      0.991064651      15.1671226      0.133097803      105.332633
2.7455               0.119939715      103.521406      0.992734797       13.624898      0.992734797      13.6457304      0.120017485       103.82949
2.756                0.106732069      101.977985      0.994243897      12.0988827      0.994243897      12.1194785      0.106810119      102.325913
2.7665              0.0934105324      100.425142      0.995586405      10.5685391      0.995586405      10.5888611     0.0934885987      100.824342
2.777               0.0799884839      98.8608041      0.996757333      9.03437888      0.996757333      9.05439076     0.0800662979      99.3285592
2.7875              0.0664797316      97.2807958      0.997752281      7.49693015      0.997752281      7.51659632     0.0665570236      97.8450543
2.798               0.0528984684      95.6760864      0.998567479      5.95673527      0.998567479      5.97602113     0.0529749768      96.3864942
2.8085              0.0392592369      94.0242918      0.999199807      4.41434877      0.999199807      4.43322068     0.0393347303      94.9824613
2.819               0.0255769598      92.2538335      0.999646825        2.870335      0.999646825      2.88876034     0.0256513141      93.7246472
2.8295              0.0118675959      89.9594708      0.999906792      1.32526573      0.999906792      1.34321294     0.0119412986      93.1236705
2.84               0.00188287556     -81.3536948      0.999978678    -0.220282288      0.999978678    -0.202843667    0.00182847897     -101.797625
2.8505              0.0155860279     -90.6731474      0.999862172     -1.76572985      0.999862172     -1.74882915     0.0155206503     -93.0916752
2.861               0.0292906882      -92.716307      0.999557688     -3.31049785      0.999557688     -3.29416323     0.0292272202     -93.9993754
2.8715              0.0429642015     -94.4407964      0.999066361     -4.85400979      0.999066361     -4.83826822       0.04290344     -95.3131093
2.882               0.0565910767     -96.0763295      0.998390036     -6.39569432      0.998390036     -6.38057154     0.0565334406     -96.7365858
2.8925              0.0701564786     -97.6732729      0.997531256     -7.93498771      0.997531256     -7.92050821      0.070102293     -98.2040587
2.903               0.0836459211      -99.248801      0.996493242     -9.47133624      0.996493242     -9.45752322     0.0835954682     -99.6923199
2.9135              0.0970452686     -100.810163      0.995279869     -11.0041985      0.995279869     -10.9910739     0.0969987999     -101.190881
2.924                0.110340685     -102.361003      0.993894101     -12.5330451      0.993895531     -12.5206295      0.110298427     -102.694374
2.9345               0.123518349     -103.903849      0.992333827     -14.0573512      0.992344845     -14.0456639      0.123480512      -104.20026
2.945                 0.13656589     -105.438297      0.990613269      -15.576638      0.990634054     -15.5656969      0.136532641     -105.705069
2.9555               0.149471012     -106.964799       0.98873861     -17.0904343      0.988769324      -17.080256      0.149442488     -107.207286
2.966                0.162221981     -108.483522      0.986716506     -18.5982909      0.986757285     -18.5888907      0.162198288      -108.70576
2.9765               0.174807662     -109.994468      0.984554033      -20.099782      0.984604996     -20.0911737      0.174788873     -110.199578
2.987                0.187217538     -111.497544      0.982258647     -21.5945065      0.982319888     -21.5867027      0.187203693     -111.687987
2.9975               0.199441739     -112.992599      0.979838131     -23.0820892      0.979909725     -23.0751009      0.199432841     -113.170351
3.008                0.211471053     -114.479454       0.97730055     -24.5621813       0.97738255     -24.5560183      0.211467068     -114.646126
3.0185               0.223296937     -115.957914        0.9746542     -26.0344616      0.974746639     -26.0291324      0.223297794     -116.114835
3.029                0.234911521     -117.427786      0.971907562     -27.4986367      0.972010452     -27.4941483      0.234917113     -117.576067
3.0395               0.246306697     -118.889265      0.969068957     -28.9544167      0.969175693     -28.9507748      0.246316886     -119.029842
3.05                 0.257476332     -120.341917      0.966147308      -30.401576      0.966254786      -30.398785      0.257490941     -120.475583
3.0605               0.268414981     -121.785395       0.96315153     -31.8399178      0.963259766     -31.8379806      0.268433798     -121.912831
3.071                0.279117436     -123.219568      0.960090395     -33.2692622      0.960199401     -33.2681806      0.279140215     -123.341358
3.0815               0.289579116     -124.644321      0.956972643     -34.6894575      0.957082432      -34.689232      0.289605583     -124.760971
3.092                0.299796051     -126.059559      0.953806948     -36.1003794       0.95391753     -36.1010091      0.299825906      -126.17151
3.1025                0.30976486     -127.465212      0.950601884     -37.5019307      0.950713267     -37.5034135      0.309797778     -127.572845
3.113                0.319482722     -128.861228      0.947365894     -38.8940406      0.947478085     -38.8963731       0.31951836     -128.964878
3.1235               0.328947351     -130.247579      0.944107264     -40.2766639      0.944220266     -40.2798415       0.32898535     -130.347539
3.134                0.338156967     -131.624259      0.940834097       -41.64978      0.940947914      -41.653797      0.338196955     -131.720785
3.1445               0.347110267     -132.991283      0.937554295     -43.0133927      0.937668924      -43.018242      0.347151864       -133.0846
3.155                 0.35580639     -134.348686      0.934275536     -44.3675283      0.934390975     -44.3732018      0.355849212     -134.438992
3.1655                0.36424489     -135.696526      0.931005261     -45.7122354      0.931121504      -45.718724      0.364288554     -135.783992
3.176                0.372425701     -137.034877      0.927750661     -47.0475835        0.9278677     -47.0548768      0.372469827     -137.119657
3.1865               0.380349109     -138.363834      0.924518667      -48.373662      0.924636491     -48.3817487      0.380393324     -138.446062
3.197                0.388015716     -139.683511      0.921315942     -49.6905793      0.921434537     -49.6994469      0.388059658     -139.763302
3.2075               0.395426412     -140.994036      0.918148874     -50.9984615      0.918268222     -51.0080967      0.395469733     -141.071494
3.218                0.402582344     -142.295557      0.915023574     -52.2974515      0.915143655     -52.3078399      0.402624715      -142.37077
3.2285               0.409484889     -143.588233      0.911945874     -53.5877081      0.912066666     -53.5988344      0.409525996      -143.66128
3.239                0.416135621     -144.872241      0.908921327     -54.8694046      0.909042805     -54.8812526      0.416175175     -144.943189
3.2495               0.422536287      -146.14777      0.905955211     -56.1427282      0.906077344     -56.1552808      0.422574021     -146.216679
3.26                 0.428688782     -147.415021      0.903052528     -57.4078787      0.903175285     -57.4211181      0.428724451     -147.481944
3.2705                0.43459512     -148.674207      0.900218011     -58.6650678      0.900341356     -58.6789754      0.434628508     -148.739188
3.281                0.440257417     -149.925553       0.89745613     -59.9145183      0.897580024     -59.9290746       0.44028833     -149.988632
3.2915               0.445677861     -151.169293      0.894771094     -61.1564627      0.894895496     -61.1716477      0.445706133     -151.230505
3.302                0.450858697     -152.405669      0.892166864     -62.3911431       0.89229173      -62.406936      0.450884188     -152.465044
3.3125               0.455802207     -153.634935      0.889647157       -63.61881      0.889772438     -63.6351893      0.455824799     -153.692499
3.323                0.460510687      -154.85735      0.887215452     -64.8397216      0.887341097     -64.8566654      0.460530289     -154.913126
3.3335               0.464986436      -156.07318      0.884875003     -66.0541431      0.885000957     -66.0716288       0.46500298      -156.12719
3.344                0.469231737       -157.2827      0.882628843     -67.2623463      0.882755048     -67.2803509      0.469245177     -157.334961
3.3545               0.473248843     -158.486187      0.880479794     -68.4646088      0.880606191     -68.4831088      0.473259153     -158.536717
3.365                0.477039962     -159.683928      0.878430479     -69.6612134      0.878557003     -69.6801848      0.477047139     -159.732741
3.3755               0.480607249     -160.876212      0.876483324     -70.8524476      0.876609908     -70.8718661      0.480611306     -160.923321
