!Keysight Technologies N9950B: A.12.38
!Date: Tuesday, 02 May 2023 21:27:43
!Timezone: (UTC-06:00) Central Time (US & Canada)
!Model: N9950B
!Serial: MY61131330
!GPS Latitude: 
!GPS Longitude: 
!GPS TimeStamp: 0001-01-01 00:00:00Z
!GPS Seconds Since Last Read: 0
!CHECKSUM:2117032658
!Correction: S11(ON U)S21(ON U)S12(ON U)S22(ON U)
!S2P File: Measurements:S11,S21,S12,S22:
# Hz S DB R 50
800000000	-8.48572827126622	-165.633416634181	-0.739785708865996	-75.0186707944314	-0.728951196101274	-75.0446981514739	-8.46004456340748	-164.068838551388	
801700000	-8.47746911403996	-165.663633000199	-0.726283426027357	-75.2116097372507	-0.737343637436095	-75.2492345008774	-8.48414354176455	-164.189784390072	
803400000	-8.44687922876614	-165.758408144717	-0.72905084359056	-75.3685066417329	-0.741055807538039	-75.3319033758927	-8.45342232051764	-164.500947155368	
805100000	-8.4508563707881	-166.404923013398	-0.734947592846686	-75.4668301001812	-0.749695299263119	-75.445706625674	-8.4638673326296	-164.80036196299	
806800000	-8.43853787775991	-166.657227938691	-0.729531441280299	-75.5803578627341	-0.741663976906446	-75.6134863799562	-8.43567198690165	-164.793117185675	
808500000	-8.41963927184187	-166.812397382945	-0.749964616957861	-75.7091775658301	-0.751810528036836	-75.7781234875672	-8.41562824435594	-164.969518336179	
810200000	-8.39114011056762	-166.894116981084	-0.750197427943618	-75.9095970324787	-0.753209163729334	-75.9546491927392	-8.41912180653508	-165.149725170869	
811900000	-8.3600943740695	-167.248134573264	-0.735559291794645	-75.9752754863252	-0.764543000426348	-76.0478464214978	-8.4047413314453	-165.385750525262	
813600000	-8.42230782905237	-167.38467257338	-0.754870720941765	-76.1941589414312	-0.756984553321306	-76.1259806932805	-8.41797857228758	-165.537582906317	
815300000	-8.39366937165815	-167.262540211867	-0.747285995473011	-76.3109966722549	-0.739012712218248	-76.3151359421343	-8.39685986410252	-165.363499220765	
817000000	-8.35694568858097	-167.735042244686	-0.738103826169622	-76.5418276293001	-0.761790296131003	-76.5113902555758	-8.37324392642843	-165.601678404145	
818700000	-8.33443881787879	-167.891496121012	-0.761089138239608	-76.7265626019693	-0.778401940631013	-76.6716045621571	-8.37074973464811	-165.634797812448	
820400000	-8.31825038251235	-167.74239764914	-0.754821968642713	-76.7431285073481	-0.769486160759282	-76.7899791196763	-8.33512098534552	-165.652287313314	
822100000	-8.33023886082178	-168.276225010008	-0.765913631040375	-76.8970618783029	-0.773981001216547	-76.9895332636522	-8.32636899408996	-166.269103687633	
823800000	-8.29186758366881	-168.129410365593	-0.771238606076454	-77.0929975426553	-0.778160313079437	-77.0752003418472	-8.32811029520273	-166.237156207223	
825500000	-8.293051786386	-168.442918321442	-0.746844378204959	-77.2270689977987	-0.763212148305781	-77.1204625673594	-8.30339698396484	-166.553566768729	
827200000	-8.25864673353313	-168.718505024125	-0.755522763256373	-77.3983280915018	-0.779621017806209	-77.3490370247582	-8.30518763588773	-166.140258702891	
828900000	-8.25672863180657	-168.56366363406	-0.752006276041882	-77.4442892782287	-0.775952516481469	-77.5271676182676	-8.29465442844663	-166.558921290605	
830600000	-8.28193848196484	-168.744201540395	-0.756509537117278	-77.648691996354	-0.759988615162416	-77.6192745569357	-8.32109328236561	-166.475919441491	
832300000	-8.22211080199449	-168.936634088991	-0.755952356682172	-77.7181099052143	-0.774466335403185	-77.7279305778121	-8.2335940092706	-166.265406488298	
834000000	-8.25519099350377	-169.226494077119	-0.763419331481743	-77.8937176561501	-0.775994968580213	-77.912919368325	-8.24820794372932	-166.806747148566	
835700000	-8.2519938438641	-168.980610536704	-0.751741946403546	-78.0703921980639	-0.76349736549917	-77.9825025630588	-8.27801139617422	-166.900815896501	
837400000	-8.25612661728423	-169.312447748049	-0.763954287731195	-78.1557832934902	-0.787642540185015	-78.1811468922252	-8.26780976864527	-167.107190229622	
839100000	-8.25416440223287	-169.633228700658	-0.771094882187061	-78.4112261289925	-0.794355641437098	-78.2735779782528	-8.24919472990627	-167.285368460799	
840800000	-8.2433642553606	-169.84089493464	-0.76622323498329	-78.4704882432406	-0.783624856344961	-78.3933777726953	-8.26114547183611	-167.568464211716	
842500000	-8.25833194381848	-169.915012762455	-0.756037097198279	-78.6688973090908	-0.78064783121367	-78.5072147451239	-8.20830506525947	-167.626059788984	
844200000	-8.23728790863283	-169.952639051824	-0.7565065063832	-78.7306438285175	-0.780342385275056	-78.6212158442526	-8.21938087214236	-167.561006814347	
845900000	-8.19839479497247	-170.13501767588	-0.773388564559943	-78.9055430591549	-0.791929290771998	-78.8574865777515	-8.22603861592266	-167.80429804845	
847600000	-8.21046372575568	-170.183658390526	-0.777482211796089	-78.9995108807443	-0.776868443250023	-78.9901213216147	-8.21485813131273	-168.044634194671	
849300000	-8.17869027005789	-170.320571972572	-0.77451521842879	-79.1704309236454	-0.789704999553539	-79.1456454064214	-8.21794177511314	-167.97399177022	
851000000	-8.20585922772949	-170.463913343418	-0.761496191960621	-79.2354432200308	-0.802845570451229	-79.3675716510007	-8.1834526395944	-168.151714203632	
852700000	-8.22230916858308	-170.558190897246	-0.763758958445904	-79.3869258303559	-0.782057101555491	-79.433556715818	-8.19090038268404	-168.271327574014	
854400000	-8.22030981602873	-170.815320933702	-0.774294935871914	-79.5692027043585	-0.786477886806361	-79.6583411843817	-8.1719246302955	-168.646752269949	
856100000	-8.20297910311639	-170.80798018644	-0.783092725027854	-79.6821139595859	-0.800669041775569	-79.7321839342902	-8.16875836918094	-168.598539435898	
857800000	-8.20130174027894	-171.1558327432	-0.774691184742812	-79.7844280898872	-0.78609918001935	-79.8405680932898	-8.19011747012402	-168.760769906487	
859500000	-8.20453262498003	-171.197420849794	-0.789923771009048	-79.993114024172	-0.798341355456734	-79.8998355329962	-8.20791889497706	-168.858553957323	
861200000	-8.16938562137443	-171.157894060862	-0.779323349981416	-80.1900624558873	-0.797988737502382	-80.1918716070607	-8.17208132542782	-168.932656794306	
862900000	-8.20118491986641	-171.351286854341	-0.765026029123864	-80.116216626681	-0.77787456338555	-80.2638354414014	-8.17453922635925	-168.952329856917	
864600000	-8.21845643924575	-171.473271682767	-0.769751276911513	-80.450552537949	-0.791225172159546	-80.453998970734	-8.20788372620363	-169.343137636019	
866300000	-8.23204870579574	-171.440707061067	-0.759635533158274	-80.40529569153	-0.787860797142727	-80.5721492242804	-8.1723456511457	-169.356848046392	
868000000	-8.18251318996784	-171.557724768634	-0.774614730115635	-80.6473510961275	-0.792355497396237	-80.672194269795	-8.20070678251362	-169.427729602821	
869700000	-8.239632341528	-171.861186966286	-0.779803857075221	-80.8662805127466	-0.789750490196797	-80.7522946051387	-8.21271446182787	-169.75229973911	
871400000	-8.21652188003863	-171.901883668338	-0.782538843383376	-80.9129199758963	-0.795091545481146	-81.0328677182745	-8.15605394175133	-170.062734683515	
873100000	-8.20190199702363	-171.984941878267	-0.770233421764995	-81.2027338791717	-0.792404628394433	-81.0169674413229	-8.16777056686516	-169.866123169995	
874800000	-8.22298554752476	-172.053797549119	-0.775136207702002	-81.2243131547702	-0.776490643907406	-81.2931054089935	-8.19589048789917	-170.202314017517	
876500000	-8.2390798496633	-171.967869492805	-0.769976601659726	-81.4146256162192	-0.788183165479228	-81.3546721358775	-8.21246049059461	-170.248733580545	
878200000	-8.25242531250871	-172.186218742915	-0.751108503462155	-81.6452327473648	-0.781868185320884	-81.6489749062656	-8.17892762476678	-170.334549520009	
879900000	-8.24089842771245	-172.469526514439	-0.766143989847929	-81.6808370755254	-0.766835704131807	-81.6585529865714	-8.20067184530909	-170.780259226888	
881600000	-8.24043646663436	-172.642579090521	-0.755841505134712	-81.8711278477964	-0.779663522021521	-81.8453226273099	-8.22268039642939	-170.537982988694	
883300000	-8.23969693193349	-172.550000955149	-0.76837446466125	-81.9606230417458	-0.793460026836516	-81.9597969760271	-8.24589885017812	-171.130038062843	
885000000	-8.2628403904557	-172.804930551979	-0.779850396400502	-82.1671552956286	-0.790942915676563	-82.1162389967478	-8.19753409424949	-170.945986281141	
886700000	-8.24892431325602	-173.190757319006	-0.776730154465037	-82.3676752291941	-0.79275740094691	-82.2093950275269	-8.19552121941433	-171.268166022585	
888400000	-8.2424561577764	-173.121186510011	-0.773640137704904	-82.5602552756527	-0.783433281345438	-82.4663878401959	-8.21144888702259	-171.511042041137	
890100000	-8.24308960512869	-173.078974950206	-0.774257521576614	-82.5125674828926	-0.776651227602421	-82.4807606889222	-8.21796468552251	-171.853026773477	
891800000	-8.27466968104164	-173.332206607967	-0.754675176046769	-82.6597419351578	-0.792098107466038	-82.7971790853131	-8.25389361916349	-171.626684499813	
893500000	-8.23842425169344	-173.104716740647	-0.748004696240097	-82.901623277165	-0.782050893803566	-82.8705477767355	-8.2472589272947	-171.827880922591	
895200000	-8.26837437947817	-173.315352479922	-0.75133058210356	-83.0717744187813	-0.787614730921349	-83.019541372513	-8.22229817241694	-171.992481399313	
896900000	-8.25103018977005	-173.486803651266	-0.763004563817992	-83.2296956009271	-0.780527810344346	-83.1718776932121	-8.27309146057165	-172.329652971406	
898600000	-8.24472588239678	-173.577909769682	-0.778796438118678	-83.2915927993632	-0.792435050224443	-83.4355768490154	-8.18974679519536	-172.52252075171	
900300000	-8.25516144909431	-173.963373171617	-0.770313445006973	-83.4511556808472	-0.784472491165212	-83.5195604165682	-8.25666036384907	-172.289635001643	
902000000	-8.27759772199484	-173.971468620466	-0.751493760551215	-83.4881021091663	-0.770674104598716	-83.6316812715287	-8.29028911861982	-172.603966525425	
903700000	-8.27756916267493	-174.349932714596	-0.766257565644593	-83.7424702978	-0.7879714911864	-83.7843378393234	-8.27743109975266	-172.617743386779	
905400000	-8.25529978572446	-174.715503417946	-0.776732695869981	-84.0326185017108	-0.788514979617317	-84.0509261312524	-8.2584337474913	-173.358503739016	
907100000	-8.26484660527482	-174.439171628372	-0.765943256407298	-84.0683880473818	-0.778835713964914	-84.1383781643527	-8.23701205932009	-173.089089526719	
908800000	-8.2825170007163	-174.627388235216	-0.756099494022262	-84.1667530955103	-0.774357867146156	-84.2449669145335	-8.26203571619382	-173.115974932339	
910500000	-8.29682998179064	-174.955766175958	-0.773596586377682	-84.4275929294221	-0.776964121713981	-84.3390800704898	-8.24007403938199	-173.444474485065	
912200000	-8.27353372811594	-175.230958428311	-0.773675948888224	-84.5810854520441	-0.7855310922111	-84.5802210513495	-8.24404894738509	-173.692491006456	
913900000	-8.22287204334024	-175.235723277707	-0.76005345406877	-84.6268642055642	-0.779783077353797	-84.6790126648977	-8.27586431785426	-173.712772632418	
915600000	-8.25417945227253	-175.422517182026	-0.775879770909631	-84.8725376229235	-0.787201993920119	-84.8233651676096	-8.19823760578059	-173.61042069191	
917300000	-8.23142757511854	-175.494014897623	-0.774669682833177	-84.9138143591806	-0.782139059743954	-84.9130620857727	-8.24295825590102	-173.797556822761	
919000000	-8.22798792767044	-175.702143171413	-0.777066581066794	-85.108181871484	-0.782468359588595	-85.1092668531071	-8.23619327602081	-173.935711570064	
920700000	-8.21851156958006	-175.949572505728	-0.771301185218339	-85.3123308850425	-0.793924915297245	-85.2843082796598	-8.22117245377496	-174.090378286951	
922400000	-8.23716241054156	-176.127645478653	-0.780230538867253	-85.4279570906272	-0.789092846570663	-85.3693693205528	-8.22605931131992	-174.499163447818	
924100000	-8.24835662990061	-176.105546577998	-0.769824216689119	-85.6168856250431	-0.781458804107347	-85.606394350417	-8.24517429804896	-174.729838861024	
925800000	-8.20222452838525	-176.284967572982	-0.764719499943287	-85.7594115796348	-0.785319828528444	-85.6375981901211	-8.22492355214554	-174.7483253252	
927500000	-8.20197160220102	-176.607789323158	-0.775762332193565	-85.8554034044256	-0.796710766685791	-85.8194870355701	-8.21909396786508	-174.783195826758	
929200000	-8.24186422079155	-176.801291067975	-0.774864263207746	-86.0957927099805	-0.800126477401093	-85.9698975650682	-8.2332747084789	-174.820299242344	
930900000	-8.20819536408312	-176.956026072196	-0.778549784811165	-86.1254926582327	-0.797352307314507	-86.1157839140331	-8.1948361722228	-175.125091419554	
932600000	-8.20364636445722	-177.155500487106	-0.772431070515656	-86.287144701958	-0.799258664181944	-86.29961606991	-8.20480702153252	-175.322425783487	
934300000	-8.16457776945765	-177.574645005056	-0.791536176641272	-86.5605335099356	-0.787851943656738	-86.4291386834658	-8.22468259207715	-175.276786485458	
936000000	-8.18621067302443	-177.586552286951	-0.788043286869673	-86.7437020719159	-0.802104064248676	-86.4865340033162	-8.18663222409982	-175.472108006486	
937700000	-8.18011059592039	-177.811125397568	-0.786899662310313	-86.7178816069012	-0.806058923565988	-86.7785785522819	-8.17958709967301	-175.602326266007	
939400000	-8.20029754534612	-178.040666929942	-0.794770189496011	-86.8554711299509	-0.824460269810721	-86.8806548653825	-8.21713502802295	-175.704031405065	
941100000	-8.16785230040443	-177.941326763817	-0.776311970804278	-87.1331510591127	-0.808132010387128	-86.9646819148895	-8.15682175830343	-175.739899202433	
942800000	-8.17867195333321	-178.170073836664	-0.794947807877934	-87.2819758708862	-0.81491489267187	-87.0594849728214	-8.1651032786938	-175.973107132725	
944500000	-8.15540417106704	-178.667564290677	-0.786784135944046	-87.3407485655461	-0.809991641441063	-87.2870597899825	-8.18060705202474	-176.324701207188	
946200000	-8.12107319178361	-178.752670525995	-0.784770889047573	-87.4675733951108	-0.820687874230858	-87.5425427990395	-8.12485272657545	-176.170728833179	
947900000	-8.13565420554808	-178.792748905127	-0.793080565673381	-87.6327169007593	-0.80192599726855	-87.5750401979913	-8.11999564206292	-176.381423894883	
949600000	-8.10427717985275	-178.789178298132	-0.807642312088516	-87.8052749771795	-0.815956806825464	-87.7444904254121	-8.12320957162781	-176.835107869077	
951300000	-8.13054213120899	-179.111124617109	-0.796806149282154	-87.8951141656389	-0.81372707285292	-87.864495133623	-8.13856926724424	-176.684064438153	
953000000	-8.08411422500562	-179.624679379198	-0.81854143311493	-88.0048734792791	-0.81753752559777	-88.0144072572099	-8.08454375497159	-176.782276075944	
954700000	-8.14227202099324	-179.459575256846	-0.804368290421612	-88.2043441886677	-0.811230778512374	-88.2248783292348	-8.10897486561322	-176.864336241201	
956400000	-8.07996954191038	-179.639027465151	-0.809575672781328	-88.2708095193563	-0.821435214821147	-88.3650777412386	-8.07595335698887	-176.928437614462	
958100000	-8.12508835247081	-179.871904992305	-0.788016302522119	-88.4741494706878	-0.830353236285355	-88.4443507666635	-8.08239130109895	-177.080495047855	
959800000	-8.06450524861968	-179.815341280506	-0.800378648255592	-88.6044832180017	-0.80777370605731	-88.559610824623	-8.04890580284889	-177.281316425319	
961500000	-8.05230288541538	179.88508205087	-0.799099446490444	-88.6512667937476	-0.813902112151639	-88.7547473776743	-8.07157466153312	-177.335749930461	
963200000	-8.06102762299622	179.807558795199	-0.80558502904495	-88.8624643279323	-0.823795481048973	-88.871490335123	-8.06137788383079	-177.557639988409	
964900000	-8.07593702784791	179.521995552712	-0.818274591998767	-89.0008857026672	-0.818668489849071	-89.0463308523944	-8.05354340107126	-177.709550823077	
966600000	-8.0237478700561	179.382196793172	-0.806689867258405	-89.2475107197293	-0.821555649794546	-89.0966081506639	-8.06206386575834	-177.779256199917	
968300000	-8.04437442724899	179.21306157744	-0.818832237773523	-89.263070621299	-0.82954928556239	-89.1685234037422	-8.04867534454592	-177.903821205809	
970000000	-8.03535474210306	179.1683326173	-0.820408375581997	-89.2616777734308	-0.816237498720932	-89.4180621079484	-8.02036640590607	-178.016424387313	
971700000	-8.05863530707168	178.927956429039	-0.806268035731226	-89.5279158179107	-0.81354628827065	-89.5106243648332	-8.02108368643645	-177.892985328997	
973400000	-8.02829111951153	178.924683858088	-0.808583514700092	-89.6751584492648	-0.816890432701302	-89.7233392420423	-8.07288400558712	-178.352803480993	
975100000	-8.05047469907645	178.770446912342	-0.815062001240193	-89.7521345523625	-0.82072459288099	-89.8134183896349	-8.03796929607996	-178.42284025664	
976800000	-8.03930281869883	178.633349762337	-0.81558984613933	-89.9685212560815	-0.827298353712213	-89.9474543269389	-8.05477813326087	-178.793263916736	
978500000	-8.0371106817868	178.451336063609	-0.814824737040525	-90.0299990926727	-0.817948359593143	-90.1264586449651	-8.0483232591804	-178.746466124126	
980200000	-8.0150706573162	178.424360360274	-0.810022937872267	-90.218863710038	-0.830063444292213	-90.1607717871211	-8.03242572306275	-178.803851508724	
981900000	-8.00329647520689	178.10238242236	-0.813135037466278	-90.4343803281721	-0.816408918431569	-90.3228365703848	-8.01815166445953	-179.052360155319	
983600000	-8.00527503233525	178.130246833271	-0.802781307797512	-90.5213074721901	-0.811440761007619	-90.5030578258729	-8.02077995367919	-179.163273316897	
985300000	-8.05689932161368	178.082290777473	-0.811534923848459	-90.7452705710945	-0.835652627102818	-90.5795816656189	-8.05328537318103	-179.304356391429	
987000000	-8.06574495650508	177.930075353063	-0.805718161186261	-90.6944259545232	-0.819347702511616	-90.7383612349468	-8.04986962356356	-179.232959402069	
988700000	-8.03224223145948	177.80180398013	-0.793434769262528	-90.9046451526415	-0.817638400258619	-90.9602213924339	-8.03539672129223	-179.484059133518	
990400000	-8.06817237507732	177.840118230133	-0.802416165078754	-91.136800080619	-0.820479690517845	-91.0412436282836	-8.07063645994606	-179.453400700952	
992100000	-8.04380739040553	177.400419301283	-0.807368093521548	-91.3870581052276	-0.831953568312557	-91.2141242421942	-8.01037993391346	-179.625232507757	
993800000	-8.05656853213432	177.609945745431	-0.795698930824571	-91.3363132084498	-0.821035456216398	-91.4279154109558	-8.04516434130062	-179.98420238204	
995500000	-8.06665880393852	177.547036588057	-0.795809851886917	-91.5038636723711	-0.814619545757583	-91.5183471518063	-8.03411008927982	-179.906702214667	
997200000	-8.07482096583406	177.247111511681	-0.802054738599877	-91.6477039311314	-0.820003720101546	-91.6455831358863	-8.06662446313177	179.749116000281	
998900000	-8.07278000851894	177.185709299309	-0.801292071572006	-91.8065381885858	-0.821706125623257	-91.7371501111475	-8.10350190283445	179.793797502493	
1000600000	-8.10263922974002	177.136729520701	-0.795770030514178	-91.8712787300004	-0.813902023491161	-91.9107349803074	-8.06411894006954	179.372747407695	
1002300000	-8.08403983702967	176.74009640837	-0.803854306167184	-92.1442487913406	-0.814395234093652	-92.1342623629768	-8.11250749684317	179.139014141802	
1004000000	-8.15805686851479	176.945190346639	-0.791807380317142	-92.2607803021393	-0.806360482243449	-92.3156650496284	-8.11031668709698	179.549418237846	
1005700000	-8.16245328200691	176.882432261755	-0.789997420787332	-92.3420052889165	-0.820685584478312	-92.3934200675999	-8.08685664834575	179.005681707552	
1007400000	-8.1843816404933	176.737134149822	-0.785284430993829	-92.4988456748734	-0.811723152965833	-92.4257875052572	-8.10743951221068	179.032346607295	
1009100000	-8.13503158790413	176.616227498881	-0.780728849248104	-92.581514648684	-0.790277455662511	-92.7550359943265	-8.0979774256535	178.705408070765	
1010800000	-8.10424164023938	176.47180341746	-0.798505913802024	-92.7570596330009	-0.801207804251018	-92.7746944189628	-8.14237357084487	178.335880179429	
