!Keysight Technologies N9950B: A.12.38
!Date: Tuesday, 02 May 2023 21:26:36
!Timezone: (UTC-06:00) Central Time (US & Canada)
!Model: N9950B
!Serial: MY61131330
!GPS Latitude: 
!GPS Longitude: 
!GPS TimeStamp: 0001-01-01 00:00:00Z
!GPS Seconds Since Last Read: 0
!CHECKSUM:2026530617
!Correction: S11(ON U)S21(ON U)S12(ON U)S22(ON U)
!S2P File: Measurements:S11,S21,S12,S22:
# Hz S DB R 50
800000000	-50.0222710734667	-3.68500949470701	-0.0186747452893814	-48.0454462719221	-0.00637410461402584	-48.1171063917021	-49.3588555301438	-37.8873222150454	
801700000	-47.7477146161929	-10.2507301213151	-0.0122236423641772	-48.1662908463344	-0.0277851637726667	-48.2059860775971	-48.3514794441815	-11.3981379020806	
803400000	-46.5880555985176	-15.8138903899963	-0.00616760946439156	-48.2192213571488	-0.0178339275893109	-48.2647439725362	-53.2393415015911	-15.954507543581	
805100000	-52.1630623098262	-16.6032716032579	-0.015223614843433	-48.3632062014214	-0.0149071537407702	-48.3784998349905	-52.4366513680974	22.8192550879349	
806800000	-51.4493763954587	6.30595977078209	-0.0139806518024516	-48.4987004408056	-0.0286847698577782	-48.5562166550072	-50.8376520108674	12.2453363738431	
808500000	-53.8835297596127	0.171949709342642	-0.0206169694273993	-48.5393113480598	-0.0281228426670664	-48.575693471735	-53.4803705050493	-4.05788846232829	
810200000	-52.4747317365965	-17.7560427379021	-0.0103434111836873	-48.7163203255538	-0.0197598645556603	-48.764383942836	-51.8461083908199	14.0774484617791	
811900000	-61.4121281351451	30.349102157516	-0.00151897756439641	-48.723442648399	-0.0109936520610375	-48.8037702572652	-53.483093015952	22.5594650569346	
813600000	-49.6011573185559	26.620695458184	-0.0301628923165534	-48.9290489917009	-0.0293970331243079	-48.8774580284739	-53.4506170212175	35.0317722501727	
815300000	-49.3578191950899	3.3664794866233	-0.0129743313811549	-49.0130029323953	-0.00654244366036794	-48.9275464060732	-48.8647873185576	-3.43168640243293	
817000000	-53.4102860268438	16.1045000064357	-0.00523401169063833	-49.13810962086	-0.00540147367648317	-49.178358805338	-52.3103359257997	0.492221863623712	
818700000	-55.4829951882307	-21.3999062748392	-0.0145660180616348	-49.297913574621	-0.0313101051013521	-49.233352462649	-50.1589738182956	-8.50875611891317	
820400000	-51.9089438237758	-26.1497297472753	-0.0174794651769832	-49.2943243387768	-0.0197029781685088	-49.2955863276242	-49.8095565025803	-26.9720754017587	
822100000	-55.5655332894797	18.4283467781597	-0.0175121895074399	-49.3477111500408	-0.0157524992528972	-49.4964355911974	-57.8177038224798	-3.63262748452681	
823800000	-50.1624808343453	-33.4100969494348	-0.0248635897689307	-49.5174293448584	-0.0285053061280937	-49.5233317964905	-57.565023699162	24.9448538688536	
825500000	-51.2285481640112	4.73474038222636	-0.00970319200350002	-49.7449043976687	-0.0104265110083844	-49.5510852265535	-55.5213744680479	34.2425317723124	
827200000	-57.0584803381283	-13.2449125130188	-0.015809719596609	-49.7401026887113	-0.0212467483963799	-49.701086949742	-49.6569351504436	-22.8199784432339	
828900000	-50.9452102304944	-28.6106585616455	-0.0110912174908105	-49.7559488075932	-0.023825123451556	-49.8934063380442	-54.551992249222	7.58446548480693	
830600000	-50.0447435876726	-12.7589582851843	-0.0247949807098135	-49.9836843840711	-0.0192557298406889	-49.9706392554332	-47.3794086576199	5.27133434511683	
832300000	-56.1522348223981	-60.2960408264355	-0.0110498451014681	-50.0041755410298	-0.0238135190081715	-49.9750787874507	-47.7049952254475	-33.1882799717118	
834000000	-52.9821839044199	23.4344967800011	-0.015120852003844	-50.0808113002599	-0.0200716717812444	-50.0217186077244	-51.2335941214781	-29.0022149532495	
835700000	-47.5339688863781	-9.23870729571067	-0.010142265768238	-50.1962925710286	-0.0164815594755159	-50.1456816256674	-49.2882786807163	3.70794527764106	
837400000	-48.8746884170712	-1.11132391262703	-0.0218782892798905	-50.3708638938452	-0.031394090236757	-50.2633731275609	-52.2474836845933	-3.50973047731905	
839100000	-52.1036118918787	-2.8739018159328	-0.00993645087290757	-50.4568843848192	-0.0270094038149901	-50.3997477427989	-52.1594239793228	-14.123547279236	
840800000	-53.0322214078337	14.6844521568352	0.00604506799896649	-50.5875477436113	-0.0307694307131152	-50.5481975859112	-51.4686076174257	33.3433135624079	
842500000	-48.2162112086285	23.2036252340335	-0.0187132909868085	-50.7213444544133	-0.0260571316687117	-50.6558860978014	-57.8052379184595	25.8466629137351	
844200000	-49.5934273463091	8.58910820699499	0.00197613553544147	-50.749814170937	-0.0194866680553932	-50.6728386756251	-50.1834847727955	-0.853373053764347	
845900000	-55.1117589134241	-29.7056979904235	-0.0204907427788028	-50.9047696550152	-0.0330598064979631	-50.8387777451077	-50.5488616342905	9.05330072258147	
847600000	-49.2995598503785	-0.165513711051166	-0.00894162414654735	-50.9135436031665	-0.0262133140570984	-50.9683795112826	-55.2363920331838	22.397435404501	
849300000	-51.0569065080797	-31.6759662394813	-0.00186229169309158	-51.0686391205392	-0.0346788582559397	-51.0536579474522	-51.1008846360396	9.5231289731345	
851000000	-52.9229573425621	2.01724669712493	-0.000985098093288681	-51.2185227727339	-0.0204801446178094	-51.1904287895889	-51.6360897031063	-24.1149437396574	
852700000	-48.4045883259957	1.90361028019762	-0.0103981069443999	-51.2261701045461	-0.011330239911824	-51.2926375301957	-51.9202732565419	-8.45716138064408	
854400000	-49.6002415516656	10.1732563891969	-0.0156423047882151	-51.3170262296792	-0.0116547553493824	-51.496794519764	-56.6821696117109	27.3500302027781	
856100000	-52.6314714466221	-13.9003549794573	-0.0155793976359735	-51.5125956381515	-0.0207472734495979	-51.5094291144418	-54.9838101036136	-44.9382637862171	
857800000	-54.1505442425479	45.6929735993879	-0.0307141291533178	-51.5553710934941	-0.0116392783280489	-51.5586759180259	-51.9611592718996	-14.3380832225247	
859500000	-57.3677985031831	5.82580246731376	-0.0170785457746722	-51.6036040692505	-0.0314269846256419	-51.6141743134751	-51.7806628908177	-5.11543055401441	
861200000	-53.7183542299879	-14.9023685590313	-0.0170484667635916	-51.7571379492155	-0.0183139586716342	-51.7233465753979	-52.1118821914374	-46.4978101109439	
862900000	-55.1082997819078	22.4856565381529	-0.0195428859120019	-51.8562967693063	-0.0209766767609757	-51.9140419180634	-49.782655195995	-11.6605001881415	
864600000	-50.7154662616166	11.8226276416292	-0.0209633430672935	-52.0063874491341	-0.0138126624757577	-51.9558596807778	-49.7041742929145	8.22364865243407	
866300000	-49.8560636504337	12.4281725606601	-0.0145152066806184	-51.9828543715457	-0.0171117994407037	-51.9788752909944	-52.5413853901246	-22.0727868974688	
868000000	-51.9033041141193	-20.4233118257603	-0.0175569760421829	-52.2682433259284	-0.0257461186590107	-52.1513080169238	-51.571530567776	-5.36442678734534	
869700000	-49.3379730315516	23.8913940552912	-0.020650039029083	-52.1944814206542	-0.0159220800079671	-52.274955577082	-50.8022929942206	7.83743075357661	
871400000	-55.4871349914508	9.35032483080541	-0.0210075383541368	-52.3331481103096	-0.0360243263952309	-52.3969405070666	-58.5103615169067	-75.2739381720909	
873100000	-55.928596611463	-22.5561106695908	-0.0272624037747592	-52.4847760941269	-0.0147468356749736	-52.4462256435477	-49.7506016776682	-38.5398043613719	
874800000	-51.8811991678352	-4.52048595004166	-0.0113574452103069	-52.6127274193469	-0.0325667111383105	-52.5525065406835	-53.7338212152471	-0.275768062351953	
876500000	-48.5603744704337	-11.9651452577622	-0.0247050596233691	-52.691628265153	-0.0118213510964045	-52.6378537123098	-50.360873975749	-1.65854431309844	
878200000	-49.3482332247052	1.42621902657426	-0.0264553379266569	-52.8981631137736	-0.0277426828031064	-52.8203942534775	-49.3864890862166	-34.5192102672081	
879900000	-50.8356182537498	10.9864216787891	-0.0124923882017706	-52.9359569382861	-0.0161053413717387	-52.9475472772784	-54.9691919413733	14.6353356846548	
881600000	-51.4192745147991	16.6969558005902	-0.0146388481760096	-52.9905177352463	-0.0182287889531263	-52.9745013990748	-47.6611215549168	-9.94281604159576	
883300000	-49.3260328729295	-22.9216558375523	-0.0156623137780426	-53.0686565458215	-0.0325526297703167	-53.1209738016871	-49.9322491267203	35.8101297501104	
885000000	-50.8992772000192	15.47252606563	-0.0201350326960675	-53.2002052623397	-0.0199998743094348	-53.092719445317	-50.7316100906417	-46.5529659116511	
886700000	-55.1309914791974	39.5098006679683	-0.0201778372900647	-53.3444699889785	-0.028777317390357	-53.1960914327732	-53.6095339665401	-29.3776953586023	
888400000	-51.5473124054158	-18.0406537849783	-0.0264194072844351	-53.5077283178944	-0.0204568606071393	-53.4727014554988	-57.0675610419003	-32.2163887899045	
890100000	-52.4835718401586	0.246537036274395	-0.0208605706933646	-53.4613599219301	-0.00709025336366368	-53.4496798349353	-58.8841962009856	18.8721786369305	
891800000	-50.2267677098629	1.67448183697842	-0.0209985281050162	-53.6077034110458	-0.0190557725109679	-53.6020279765143	-49.8730169697209	-8.17840445661633	
893500000	-48.6062074490267	-35.953536155701	-0.00650025879326586	-53.7901333272735	-0.0258236606596214	-53.6996948597804	-50.2627449952691	5.80783942881083	
895200000	-47.8950120818537	-9.5195411916142	0.00106936654961819	-53.8682265916201	-0.0252387333115406	-53.8366590740822	-52.1487643725826	-30.0554470308821	
896900000	-47.3389194069718	-13.6587253877588	-0.0114445069629283	-53.8548513439342	-0.0170360943311697	-53.9336834693553	-51.4365974343229	29.222584310935	
898600000	-48.5350439520209	-23.010421202641	-0.0196191044449588	-54.0048943866189	-0.0268756985396979	-54.1162441387858	-55.0187295702216	-93.6052434850008	
900300000	-53.3325002157462	-27.1990143555865	-0.015966709584199	-54.0900718891386	-0.0130259041815058	-54.085519778866	-47.9658644186154	-15.3688428485782	
902000000	-49.3437176171978	-4.8273158827018	-0.0108150943045182	-54.0982683141319	-0.026748205933418	-54.2077453350714	-46.2351862260732	9.5383310190379	
903700000	-52.5003478710771	22.6161592654434	-0.00877457209729338	-54.3307652423963	-0.0261471265624203	-54.2959874311263	-48.1060143058656	-11.3235919415367	
905400000	-56.279619443148	19.083387416497	-0.0171965226814994	-54.4803582957433	-0.0300261445933155	-54.5133605098892	-55.6385498419854	8.21404893963617	
907100000	-47.9934707137043	-28.8778674535186	-0.0146835944904483	-54.4559773793907	-0.0179379114834198	-54.5583216112361	-51.650166804911	-7.73945229542525	
908800000	-47.685215700102	-1.01165137557933	-0.0196496358703337	-54.6332062813405	-0.0130627978703945	-54.5869629715161	-48.2856299724657	-13.2853856923205	
910500000	-47.3914153481606	15.0603002444082	-0.0277826853442269	-54.7784671083421	-0.0195050642128193	-54.7325280352221	-51.7643438568047	-20.3952843293399	
912200000	-50.7650837417593	6.58952039306558	-0.019336361233716	-54.8626680554368	-0.0212151235481936	-54.8687989245954	-52.6789154279339	-16.4643827182307	
913900000	-52.7366585291834	-34.7971822725926	-0.013214958477166	-54.9453146346805	-0.0167479240430674	-54.8753243887904	-49.0384493276444	13.7992850128078	
915600000	-50.173086346738	-7.57569798998926	-0.0208304864505224	-55.1388953189091	-0.0211490104801824	-54.9371332235576	-49.3906728875891	-49.5160245071327	
917300000	-52.5610873074543	-22.8603040269973	-0.0196524209210673	-55.100532684635	-0.025446206974686	-55.1118591508524	-49.6952181318475	-10.6307293283511	
919000000	-52.1619748753058	-28.9365077807158	-0.0191441021512646	-55.1733125404505	-0.0189945365946698	-55.1946994660665	-49.3573314135395	-14.5743604039693	
920700000	-52.4299201233833	-7.37186087963063	-0.0183984668669357	-55.3314193751229	-0.0216188295254528	-55.3033208675641	-48.7877872787374	-32.7672101928536	
922400000	-51.2351350949928	-7.8130338661807	-0.0182379295052686	-55.4273127491148	-0.017395544161026	-55.3920847871715	-58.5630669735023	-7.79152599078319	
924100000	-46.5235147834252	-8.88327964274355	-0.0240250469785483	-55.5703889460161	-0.0199396754296074	-55.5489739302771	-52.2284249455449	3.42726974003131	
925800000	-51.3119862131599	-27.296189886775	-0.00560142956409781	-55.6365016200846	-0.0214123259314946	-55.5654336359154	-49.9842729653884	-9.37380042365603	
927500000	-50.7635705924286	-15.0727191330172	-0.00460154003640845	-55.7986105991633	-0.0209762511814062	-55.6908162945447	-51.5340021798979	-19.3151038938617	
929200000	-50.2662179158666	3.37524846722843	-0.0268926127222351	-55.9311065759667	-0.0122227371703391	-55.8308007594848	-48.2657683320689	-9.98448357880349	
930900000	-49.6420431216301	-4.89180678283356	-0.0184313778549381	-55.9322305228814	-0.0246361664127498	-55.8570934124872	-54.613258735913	-27.891910680861	
932600000	-50.2503142635106	1.81659845843883	-0.0114886806115298	-56.0567389031355	-0.0202602241932212	-56.0748908157165	-52.604749449719	-5.78047527427188	
934300000	-54.2900127615901	-25.794596491344	-0.0252173067278257	-56.2103522584442	-0.0135930214772847	-56.1648280985724	-49.3022889115688	7.47366538757284	
936000000	-50.3571422605751	-14.350291271771	-0.0234429230793281	-56.3935808308688	-0.0326100041847709	-56.1857094394503	-51.3866299055072	-15.4250404138964	
937700000	-49.5724135065915	4.0514391473968	-0.0165835265387612	-56.2922438527938	-0.0342176890719478	-56.3856792422228	-50.3148960084773	-15.7680311960198	
939400000	-50.6281672645199	12.8912800556679	-0.0163413212580504	-56.5165225948202	-0.0388060648259357	-56.4195869381717	-49.6721970257634	2.07482039249542	
941100000	-48.1995760190262	-15.1047143591403	-0.0183349290573819	-56.606862526651	-0.0288599028752235	-56.460100465069	-49.7835726268217	-29.2207040245997	
942800000	-46.9983740915132	-7.16998403308357	-0.0176015935665906	-56.7070643922171	-0.029034623212318	-56.6098720863852	-53.8268740431024	-17.2595446272988	
944500000	-50.2236372662625	23.8181119599669	-0.0239431533396399	-56.7792755409194	-0.0258332667716431	-56.6789955896608	-52.4541035636215	15.5335826050892	
946200000	-54.8371805104392	-2.99162625163467	-5.06268414256171E-05	-56.7822409793131	-0.0191520683631416	-56.8818494492615	-50.3896743915174	-36.1519216355163	
947900000	-48.6961611265165	-5.09129447099625	-0.0055414426925825	-56.8848074412956	-0.0170639767758467	-57.0028938697737	-54.288005418312	-15.8736788484682	
949600000	-47.3940762280195	-28.2329478676883	-0.00673820876745615	-57.0034793977508	-0.0338030256881795	-57.1066993376144	-61.0198297935766	46.2010991903228	
951300000	-48.9074733318309	-2.63011768597999	-0.0231265656894171	-57.1628589546301	-0.0169374596344562	-57.1743942261419	-51.7399383079877	8.53700900859397	
953000000	-60.6620214968909	44.2630778842959	-0.0257958388298945	-57.2491187953363	-0.0168613260717499	-57.1926940927967	-55.0834470572438	-45.1343824868944	
954700000	-47.7494539136143	5.79261503320522	-0.0325047583938535	-57.4162067515294	-0.0231930233756806	-57.3485654691329	-50.4259823236026	-12.3591806023845	
956400000	-56.2519363835393	-14.6335021196776	-0.0135165520599902	-57.3734146967481	-0.0251754709558948	-57.5414055647679	-49.2349759469769	-32.6619353234272	
958100000	-48.2615784242713	9.69161084892738	-0.015367315092541	-57.6099884910981	-0.0289616675570761	-57.4830862689141	-49.8023531879921	-23.4030913277558	
959800000	-51.7215001782732	-8.85095179460099	-0.0169333601635459	-57.6812889746591	-0.0247306583245422	-57.5721558953496	-51.0070172915027	-28.5028691175606	
961500000	-56.5500712605703	2.02014909292363	-0.029498176237695	-57.7111100484085	-0.0146427669766689	-57.721830758047	-51.2667926256371	-18.7308694867305	
963200000	-51.1536594965764	-30.2670618076954	-0.0245008437024802	-57.8345742796929	-0.029539825586476	-57.925396079875	-52.5234367745716	-10.9069856946901	
964900000	-50.4686307009197	7.05943285784252	-0.0311985719072297	-58.0183520292595	-0.0127236220040384	-58.052961722524	-54.2153080885582	-2.36261692493682	
966600000	-52.6550357968312	-38.7129558607429	-0.0117048178739177	-58.0930833579549	-0.023889770503432	-58.0055944531066	-53.4568602251663	6.6115855395211	
968300000	-53.4643449504259	-2.20106804479037	-0.0241618574204666	-58.1631506015513	-0.0212032545533597	-58.1299312100266	-57.5457080141282	2.88277860486882	
970000000	-52.5024812752018	-10.8458024873706	-0.0227633396744086	-58.1579552751529	-0.0164547920524992	-58.2217696900773	-58.0582837476737	-20.5813555383118	
971700000	-49.8598531198334	9.29310025685952	-0.0230736428024945	-58.3739035230437	-0.0205409908844947	-58.3559614144944	-51.7039891204002	-43.1530704358309	
973400000	-53.1121992753937	-11.3579323566682	-0.0143203822689943	-58.554412466358	-0.0166372560454604	-58.5561976461389	-51.0311087373664	6.80213560984899	
975100000	-50.9569503177956	2.33461428378096	-0.0166415486894231	-58.5199114038359	-0.0210124353825576	-58.5228100794738	-54.3606551507018	-6.32942014970755	
976800000	-53.2890751876517	-17.1872070012732	-0.0160221730542246	-58.6897718007894	-0.0346781919460029	-58.6797639273446	-53.7405249697211	41.2812635890288	
978500000	-53.0215307306661	19.0954055805974	-0.0199721824210981	-58.8770041458515	-0.00541910478480684	-58.7822326883952	-51.5666756745827	4.1736647916804	
980200000	-54.9395095995036	-42.5865597505565	-0.0390609242599161	-58.8264617701047	-0.0200213691258599	-58.9027546949657	-56.7855273567552	-11.5586054517103	
981900000	-55.4689514200032	-57.1381983071026	-0.0176694614935159	-59.0118126707424	-0.0141273708384357	-59.0157141667398	-58.4441784815351	-2.48809667313371	
983600000	-53.1532725958447	-34.8688287748051	-0.0119654611026765	-59.1053587874887	-0.0247455241241112	-59.0926948241975	-52.9310882837747	17.3021821167727	
985300000	-49.7984090587656	-11.6732763159907	-0.0170102596096791	-59.2694680400963	-0.0360595534374217	-59.1638998994582	-57.976783928527	-14.3370471041638	
987000000	-51.8603355989571	4.22644370280026	-0.0095307430150702	-59.2154631663292	-0.0290301001965148	-59.3252742557005	-51.9307739441256	-4.68656330901124	
988700000	-52.7531486578857	-27.002607834212	-0.0106462463777661	-59.3828713038422	-0.0170991803262281	-59.4491218377325	-53.028579777783	-14.0752947960926	
990400000	-46.9225031728594	-18.9164537492672	-0.0106528047980613	-59.479329884885	-0.0208414120020682	-59.5742404090044	-49.4231294742639	-5.36356468217844	
992100000	-54.5703026263486	-7.57664509889096	-0.0263226294903998	-59.6384515589674	-0.0215384541788097	-59.5889699806109	-51.0216761840005	-61.6182467866587	
993800000	-50.0403402350342	-23.2776214542899	-0.0017346023017579	-59.6491388046827	-0.0271644774878556	-59.7746441957257	-55.1557804479202	-28.2077980812199	
995500000	-50.2266025861894	-25.1398451371294	-0.0143098212813619	-59.7538590577544	-0.0208118752553976	-59.7986342992316	-51.1082673139214	-55.7299946456858	
997200000	-52.6892937246009	-17.6789846845587	-0.0163795742661698	-59.8462661573879	-0.00994374754151252	-59.9573314538159	-54.533946421785	-16.8433038448752	
998900000	-52.667006074932	-32.086668774981	-0.0141941019432622	-59.9569811480528	-0.0265444775216792	-60.0389014140761	-47.9375469887672	5.62810518875916	
1000600000	-51.7481494068416	-13.4618413517954	-0.0168774110565216	-60.0646326767455	-0.0225117325297607	-60.0747389719871	-57.0176438632189	-8.17250734647901	
1002300000	-63.7979515277626	-8.29961771762665	-0.0230727410037505	-60.2364310614007	-0.0214182384879296	-60.3286372232759	-48.8549573007057	9.95701841863161	
1004000000	-46.2928828231882	2.33038547578544	-0.0138479795297091	-60.3218555571762	-0.0266338084422582	-60.4019565204309	-45.0538156533034	-34.6736293952741	
1005700000	-46.1707945248361	-3.437495162178	-0.00747532755435266	-60.4531277451282	-0.0275515671213424	-60.4943812264794	-51.661968674689	-49.5081688551663	
1007400000	-45.2761671804167	4.44667403500814	-0.0192956346697853	-60.5395206199062	-0.0209263141666115	-60.553589673202	-50.639217869133	-39.2566167776898	
1009100000	-49.3561552296887	-3.43618665764448	-0.00471282390166125	-60.6735549261265	-0.00752750168941358	-60.6756847262264	-50.3607248184941	-37.3757014542141	
