!Keysight Technologies N9950B: A.12.38
!Date: Saturday, 13 May 2023 13:26:57
!Timezone: (UTC-06:00) Central Time (US & Canada)
!Model: N9950B
!Serial: MY61131330
!GPS Latitude: 
!GPS Longitude: 
!GPS TimeStamp: 0001-01-01 00:00:00Z
!GPS Seconds Since Last Read: 0
!CHECKSUM:1918061496
!Correction: S11(ON U)S21(ON U)S12(ON U)S22(ON U)
!S2P File: Measurements:S11,S21,S12,S22:
# Hz S DB R 50
800000000	-44.9788930091959	71.588485570938	-0.0423283336397278	-9.93293621458729	-0.0385528033501064	-9.8211467943599	-60.7342009006356	80.3706203213785	
801700000	-44.710486564253	64.3764643849864	-0.0322658346646447	-9.90808676728666	-0.0489030262260174	-9.87903723396892	-55.7478317873975	33.9229447487447	
803400000	-45.4565314888599	52.9749878827883	-0.0318917649517569	-9.9499697971742	-0.0430355310312881	-9.86474625452613	-54.8978494535488	94.7565804831771	
805100000	-45.7684019708999	58.4552792871879	-0.0462665390602841	-9.96179497632862	-0.0652587924614052	-9.86663542607747	-55.6167130309621	105.848021474218	
806800000	-44.6629980232841	56.2520863407834	-0.0350795409709817	-9.9661587427312	-0.0512122972008872	-9.98110560346854	-59.9108219545975	53.1947705066166	
808500000	-44.2065234414068	72.4803469752961	-0.0428422960403154	-9.95992163645733	-0.0538552393067991	-9.96144076869646	-53.8929473193502	90.7644594624294	
810200000	-45.8117061590071	66.7532045877314	-0.0565044152062158	-9.95766578421325	-0.0410672587767592	-10.0312681759045	-68.9481181717852	58.4994322981319	
811900000	-44.2026701719791	59.2473202762866	-0.0383066362234632	-10.0077373975577	-0.0577566622668037	-10.0741286296656	-59.9998296406591	50.1303883722621	
813600000	-45.894117441882	69.6049507947018	-0.0333592390611805	-9.91438014124815	-0.0459146888168224	-10.079494231304	-57.3588316956186	24.0284481937863	
815300000	-42.6028587115956	69.9238856252596	-0.0394899764250549	-10.0267078544239	-0.0497509694490773	-10.0809501644048	-52.0302957613648	52.2510483271697	
817000000	-46.3095598559928	59.1378620163417	-0.0478376943737846	-10.0192593982341	-0.0456207829147896	-10.0931510416609	-49.1546258848289	43.3519973334869	
818700000	-46.0245378524931	46.4194727445921	-0.0415300467166891	-10.1419369961093	-0.0283547562804018	-10.0949839468785	-54.2071964982052	27.743852584513	
820400000	-47.4116784417287	66.4392423532905	-0.0468984263422097	-10.2087363395277	-0.0467825869446857	-10.1878501139674	-54.0902515236799	17.8443810151364	
822100000	-44.4604569302431	38.1439628822456	-0.0445226789477545	-10.0595347334161	-0.038971425550083	-10.1424266501109	-50.5703235307666	56.3008430541529	
823800000	-46.4009079547802	45.2389477224085	-0.0281420346074545	-10.1303771625366	-0.0482377362045131	-10.2273762317152	-54.400077785453	-75.3220482680919	
825500000	-44.3730712206751	60.5286030383778	-0.0508481594648622	-10.0860763501104	-0.0420070443262343	-10.0821772626907	-53.3537820213585	33.8696724112255	
827200000	-46.4090212902092	54.5861340692054	-0.033757835138287	-10.1704223062133	-0.0355040240442373	-10.2697528619501	-54.4601208210791	13.4997698481359	
828900000	-46.1689796541275	51.2286010891976	-0.0368932648886651	-10.0892303104977	-0.0546447110632512	-10.1579858125418	-52.5592770031829	11.9305490692567	
830600000	-44.8937199346412	70.3201743803506	-0.033902500805979	-10.396319596185	-0.0532479895137463	-10.1239212170485	-50.7055384792147	-3.3704041605593	
832300000	-46.5114972197261	40.4086375467789	-0.0340615581775192	-10.3688608492825	-0.043090023446822	-10.3542500020148	-50.7729904296529	31.6188252947287	
834000000	-46.1817416984305	74.408868268209	-0.0282360491065489	-10.2628253096462	-0.045704543444396	-10.302549100568	-48.8904606284015	42.0663603465695	
835700000	-45.4431535739382	57.4614545973953	-0.0272188223637711	-10.2627043513123	-0.0439051172312803	-10.3681998130938	-48.3878038141156	10.0442187741994	
837400000	-47.7087515373531	55.4167587723856	-0.0435193911035471	-10.2819471042909	-0.054621448657193	-10.3614659426113	-44.8487971405076	10.2475433028452	
839100000	-45.9912442817724	51.7183082725956	-0.026710374268733	-10.2030253222154	-0.0501921273908822	-10.390448494506	-54.9617616594597	42.8344843388499	
840800000	-46.4640823836904	59.0500736148218	-0.038063611572626	-10.3069768235665	-0.0455400636467315	-10.413089149173	-54.3622263632049	67.9873811111516	
842500000	-44.1948866430216	65.0659255727038	-0.0465748343283169	-10.3493717925173	-0.0447585002542738	-10.3997059431288	-49.4125947275874	49.4014207747349	
844200000	-46.9816897898982	45.0900561094181	-0.0404024932779416	-10.4011023746682	-0.053038405362169	-10.4171382406744	-48.1738594519106	21.3532295832781	
845900000	-46.103006332446	64.3390432411598	-0.040549612573017	-10.4043676263229	-0.0498207362770761	-10.4562168625299	-54.4925059241993	7.8676718712819	
847600000	-44.0764931024876	54.938857339163	-0.0424983815350847	-10.4114750035555	-0.0398996041398292	-10.4832227803585	-52.8719683970921	-29.1557951694815	
849300000	-46.6798003274476	66.9176507708388	-0.0362443859749885	-10.4257259435171	-0.0449871072043092	-10.5654620627498	-48.5339190173682	13.975157133985	
851000000	-46.522085240657	53.2330075406427	-0.020292514648703	-10.5243077196757	-0.0513163101961947	-10.5692948208371	-51.7112889663873	27.8297755113853	
852700000	-45.8242725212109	33.0608818338593	-0.0287392668090397	-10.5043453090506	-0.0605775559417945	-10.5116000437259	-46.9815191784601	31.9397580922446	
854400000	-48.0572639139693	53.2052337878212	-0.0518077190083504	-10.5725728262122	-0.0461209398448969	-10.5481016982163	-51.3156823401499	1.30898480811213	
856100000	-45.8770564710327	60.2192737278113	-0.0375016830671396	-10.501447927298	-0.049906022615574	-10.5936890120392	-45.8445466083729	13.6548939867557	
857800000	-49.2151151789754	28.8464653527603	-0.0429864588977008	-10.6312207039542	-0.0481588358179461	-10.584951855509	-47.4744666594867	33.8152991884175	
859500000	-46.1115179725785	41.3026221759508	-0.0343231012474623	-10.6248639851093	-0.0508311249971213	-10.6206625115201	-48.9271554204971	23.9272820088741	
861200000	-46.483861639139	60.7972272852398	-0.0296560281262859	-10.5678758153138	-0.0458490250904307	-10.586435168151	-51.3119692699217	46.5426442723115	
862900000	-48.776111997341	44.7729852133402	-0.0356424506515293	-10.7263626345533	-0.045804597346542	-10.7387595413052	-46.1046325164117	16.5360419285582	
864600000	-47.720245541959	52.5607010384796	-0.024339420679294	-10.6621805358012	-0.0417316103499031	-10.5967298514122	-49.5254266133006	7.6148262604817	
866300000	-50.8197846754549	55.9044823612051	-0.0286793171574166	-10.6428265499152	-0.0540519122730294	-10.6600588953491	-49.1540736824415	20.0709449142378	
868000000	-48.9401481588218	42.639763360408	-0.0480697359893507	-10.7266892358029	-0.0510805312227938	-10.659968560651	-47.4569345207981	25.607044934382	
869700000	-46.2752648778569	37.8094411604511	-0.0338769439094032	-10.7060155066112	-0.0417809537203397	-10.6828076151379	-50.2154570439738	-1.18922699162447	
871400000	-48.7945965204677	59.4421352125112	-0.0453194460925877	-10.7718061726319	-0.0458977412239365	-10.7684877852994	-51.7159631090028	46.1085417310145	
873100000	-47.569056066429	41.4843443699766	-0.0386491770180633	-10.7652490849841	-0.0494886490518278	-10.7598231814908	-45.7711327421631	19.7642818507414	
874800000	-46.8049805388446	58.880883482058	-0.0597555363658493	-10.7441340222203	-0.0532559901468201	-10.7913607881079	-49.3100857771599	53.0940583359353	
876500000	-46.5452140275186	61.6068193680549	-0.0295045557871034	-10.8847539234089	-0.0502125367938267	-10.7743373607397	-45.7683722203274	30.879809581491	
878200000	-47.3513543686668	68.1652593726421	-0.0445127054297679	-10.8056599711633	-0.0369194275265985	-10.9103107565822	-52.7310723526892	37.5642471034051	
879900000	-45.1773318518885	68.9284107184975	-0.0365976991486362	-10.8360400466294	-0.0514876990503065	-10.7839861876325	-53.1710372147659	35.5427688873775	
881600000	-46.6596922389642	34.045357920564	-0.0416107525326198	-10.8514913157193	-0.0516463905820036	-10.8927835746339	-45.9747554473068	10.2041332459351	
883300000	-46.8280715735386	62.1467443543345	-0.0401235850322901	-10.9694734502145	-0.0436141984185153	-10.8240789256834	-49.3552037509057	36.5612300402217	
885000000	-47.3342320768512	56.5066451595774	-0.0386200597748282	-10.8715053560452	-0.0485373664182964	-10.8987277447555	-50.2381283842749	22.1982396331124	
886700000	-47.737169251868	50.3945423243341	-0.0437266690703193	-11.0323750858582	-0.0268615313560413	-10.9544811385237	-47.9094330044936	30.3792487473046	
888400000	-47.1320460556977	68.5710299150576	-0.0585664206269171	-10.9225970734004	-0.0498496308440801	-10.9766339069242	-43.8684646828058	32.8073685276471	
890100000	-46.4257134475717	78.4472142006856	-0.0452853103961193	-10.9134188901277	-0.0501640692437524	-10.9419514115654	-48.4926365978642	57.4669783956239	
891800000	-45.5817336049032	74.0201108907886	-0.0434454526862914	-11.0457303527806	-0.0469680557592925	-10.9797605074804	-47.8126464271629	42.8936211000118	
893500000	-47.6143206380838	65.8446919383039	-0.0344988430649444	-10.9524223967473	-0.0489440390053248	-11.0810519448543	-48.5293513872616	33.4150982758814	
895200000	-46.556521224024	69.7242304545413	-0.041835120338933	-11.0963719148716	-0.0468531266370629	-10.9626556059096	-45.6653519533399	33.5900369495538	
896900000	-46.6056065558714	64.4944199636553	-0.0450527888221638	-11.0313894381549	-0.0358466382455444	-11.0916621827162	-47.8765047035377	66.1583421070625	
898600000	-46.0577121703136	76.6021729916191	-0.0192041063535338	-11.0027374617467	-0.0530423729006998	-10.9738986940916	-49.1597024084792	33.3951180850379	
900300000	-47.1340028472317	65.8523486402033	-0.0375217092512141	-11.2280863580087	-0.0500142467640897	-11.090112123986	-47.304689628548	18.2643649651891	
902000000	-46.1194107527264	68.8135589629106	-0.0518526401452951	-11.0937490204989	-0.0540943025322425	-11.1646692882855	-47.8527633794347	55.5604733917652	
903700000	-45.7852407143471	71.8277994978143	-0.0385953987655643	-11.1226971211661	-0.0479360717408921	-11.1291001658324	-54.9367938248472	93.7555708073682	
905400000	-46.1163283139267	84.6561383402881	-0.0399502533505697	-11.0908426354689	-0.0535186006400284	-11.2396958834568	-48.5807161993632	47.5006803715569	
907100000	-46.4483367312488	65.454539784976	-0.0550736068725669	-11.1234178838264	-0.0468382976607106	-11.193892549931	-49.0789400662539	38.4501950148164	
908800000	-48.1810497712583	88.3999821691982	-0.0398904812287429	-11.3070380964933	-0.0429319268600698	-11.2484081547755	-51.9120464507873	76.9479819239635	
910500000	-44.9529810765168	77.0860733662714	-0.0303558121773126	-11.1988418570942	-0.0362326386320615	-11.2654557429235	-50.681120306115	28.9967826663942	
912200000	-44.1012676824935	87.5270321978901	-0.0463939420700114	-11.2534114829786	-0.0449910832270627	-11.2693117426906	-47.8328996476933	47.9492085503134	
913900000	-48.0840164060266	88.1611424636577	-0.0443016207857051	-11.2789117093495	-0.0354633864647316	-11.2978116512776	-48.1300876377202	59.3540500149594	
915600000	-47.7581045709937	89.092934258535	-0.0425754308436361	-11.2754174003792	-0.0557260191589471	-11.2494861851296	-49.3015501933429	52.695044618435	
917300000	-47.0663102830159	82.7055384959002	-0.0404226480412711	-11.2317478926321	-0.0471365329111129	-11.3071612423683	-50.4997442052657	73.8159651261173	
919000000	-45.0934446613969	79.4298843039694	-0.044877059458465	-11.3128324026289	-0.0499689156478797	-11.2732284927054	-54.0493323697073	23.167366094769	
920700000	-45.5235319453348	77.4454467993884	-0.045773398602383	-11.2232847278652	-0.0441567279810935	-11.4636979259219	-45.4988899782854	79.1226080804055	
922400000	-43.4840177005952	83.0689372443642	-0.0432437729488182	-11.4313192326762	-0.0358841540806046	-11.3668026899621	-49.8331561420058	51.9032161189038	
924100000	-43.9360085686721	96.8661832767933	-0.0390105035315863	-11.4096577950648	-0.0598931106872146	-11.3634277566432	-48.0298785833839	43.3867101766772	
925800000	-43.4929662954216	82.6487662703779	-0.0372488807387963	-11.3403930044244	-0.0510947693333676	-11.405330422469	-51.078448782732	42.8378128405785	
927500000	-46.7915677895496	83.151316192138	-0.0373620623187113	-11.4196240842179	-0.0529027225218205	-11.4422422988894	-47.3887144599293	58.5791237382277	
929200000	-45.3501149687774	106.147497512619	-0.0506692365118564	-11.4452664579559	-0.0474093114816876	-11.4629061511968	-51.5152702403985	45.2175239356132	
930900000	-42.2286854450102	92.1115841018413	-0.031670864619106	-11.4346854522103	-0.0452006187460811	-11.4949561828187	-48.1031095280171	60.670024557472	
932600000	-45.6068843332167	88.9021414538677	-0.0563407683353021	-11.4285157549051	-0.038518397059355	-11.4794467904049	-46.1547111950519	58.6464313215886	
934300000	-45.3229768940971	95.446286034942	-0.0479219135709497	-11.4844298437412	-0.0624902838276195	-11.6035144806529	-54.5980139802677	44.1222846526744	
936000000	-42.128043530008	71.3519592951838	-0.0444151011508021	-11.5619770692895	-0.0413148578087167	-11.5015098700379	-50.6294339730014	80.4040424233042	
937700000	-42.5362013016608	83.1100507852143	-0.0409514182976066	-11.5943045500098	-0.0584626392594033	-11.5335227445304	-53.1741293684587	72.7350736933667	
939400000	-47.8435340810097	86.1905165455139	-0.0389308810316438	-11.4838269419266	-0.0433264291080816	-11.6135329217207	-49.5968544946762	62.8039418573754	
941100000	-43.1556031193863	71.9237178341861	-0.0418656615086422	-11.5633096802029	-0.0444055605385217	-11.5818545112839	-49.7884533488166	90.7635493997824	
942800000	-44.3624835948587	81.9866408585163	-0.0438188046679591	-11.6294213859244	-0.0493636665120327	-11.658927667452	-49.0710610443429	83.6341006134599	
944500000	-44.6850183922899	92.8575813543763	-0.043033284041674	-11.679305265845	-0.0476266194154108	-11.6357090603029	-53.9233199157518	39.6542538574382	
946200000	-43.871448731773	99.0337533669225	-0.050473320231881	-11.6717365130286	-0.0471935741712073	-11.5960575490416	-48.8783460318841	85.6454879594977	
947900000	-44.5165070434004	86.1771070892069	-0.0418054805271698	-11.6786712782928	-0.0510800216953373	-11.6678222812842	-50.8665151952262	107.953171243593	
949600000	-44.474041897463	109.75153095604	-0.0461247933877267	-11.7052949120487	-0.0541403314338699	-11.7124978611182	-50.2327205242736	42.0283255437768	
951300000	-44.4452274665997	91.025776809518	-0.0246671856312122	-11.7942397410291	-0.0475215124664885	-11.6747206064009	-46.4943541977058	50.6025018956988	
953000000	-44.0982482266017	83.4409519606077	-0.056358908983768	-11.6599649936468	-0.0498377703381327	-11.7395886686364	-49.7645585067473	62.4101599000083	
954700000	-45.4148486252403	83.3227775468264	-0.0365992623937205	-11.674158557452	-0.0406891568247027	-11.6847540762708	-50.7552457420891	77.2845759428868	
956400000	-41.2099684279907	87.5751339018704	-0.0413178233013927	-11.7947742899057	-0.0407439171695071	-11.767000492668	-49.5387485471841	78.8706538551914	
958100000	-41.1522000145299	89.3761696596476	-0.0323758961975541	-11.7658729694517	-0.0404581498031139	-11.7465190517318	-54.5004576545378	85.3160110585488	
959800000	-45.0113863650454	80.8110596831798	-0.0459230988629733	-11.8296087431697	-0.0524805660891445	-11.7689082279236	-51.9266067924949	25.062060932461	
961500000	-45.1860132960685	77.7498156492244	-0.0471247606251092	-11.8285813210661	-0.0628369608862353	-11.9380690665026	-47.4769845294908	65.3121182437398	
963200000	-43.5283002194546	81.995743519423	-0.0416953240555137	-11.8611942488184	-0.0493707292526802	-11.8629930357515	-47.0817966733203	66.8593562951888	
964900000	-42.2206361476107	85.7233237542487	-0.0354870754041524	-11.8552386981954	-0.0473920738477326	-11.8645990657472	-51.2138027403318	50.346507023559	
966600000	-44.5218910601737	80.9594186174726	-0.0406025253145886	-11.7913226360974	-0.0382823990694092	-11.9326360803111	-47.52435100672	74.2845362519061	
968300000	-42.7162957451662	83.5993336834376	-0.0225890613929513	-11.9045653995405	-0.0354837096295028	-11.9051809762794	-50.2670995910461	23.5584163082205	
970000000	-42.5621066541893	78.4333211781373	-0.0281850935581139	-12.0405029229133	-0.048513939453512	-11.9255343583116	-49.7597950678012	47.9231590054123	
971700000	-43.1951735776465	71.0187426619814	-0.0410170636308878	-11.9352520042977	-0.0507450846819819	-12.0425605744278	-54.4204617487114	34.4095288131197	
973400000	-44.4975898422868	86.6145590889596	-0.0372790274832614	-11.9721392223894	-0.0575828382961005	-11.9604025338992	-51.0271970252863	53.9860008549209	
975100000	-44.9304410007718	79.2583105854434	-0.0474859540349909	-11.9554538250661	-0.0575377928797799	-11.9740026115874	-50.5154902794692	62.1053573709501	
976800000	-44.0808329675631	85.2772594457884	-0.0407072990519361	-11.9320518019262	-0.0459410134038188	-12.0031561573047	-51.4544173814074	12.8664505529117	
978500000	-44.2852423201873	71.895997616403	-0.049016068086462	-12.1018953266214	-0.0589251747645583	-12.048197693268	-50.4445180028629	42.3250929232364	
980200000	-44.4179898329378	74.9186921276974	-0.0618645708952262	-11.934123805849	-0.0452644051864625	-12.086912782875	-50.7046040296409	50.8987522541082	
981900000	-41.4298527748647	81.5916075635701	-0.0574019909795862	-12.0397891775734	-0.0506811853128943	-12.0746955408792	-53.3269924793993	21.9716018480318	
983600000	-42.9411241725478	73.3895371769884	-0.0487411864165146	-12.0693564812757	-0.0358680773920084	-12.0585466370221	-50.9573534054587	85.8947281935716	
985300000	-42.439299084437	60.2569364440682	-0.0469434473235848	-12.1160182100865	-0.0464076785811882	-12.1318529757587	-50.0728595373444	58.670888530823	
987000000	-44.6158467019519	60.2900783473707	-0.048907481921463	-12.1638975611472	-0.0548653188069782	-12.1128150804515	-51.4017967268633	77.4040853485349	
988700000	-44.6388789379246	83.5837368348786	-0.0678076048856561	-12.119679300505	-0.0483815687713455	-12.1740464431389	-54.1657121250557	45.0317570878262	
990400000	-45.9816353056859	81.0820736367393	-0.0370333272776742	-12.159088864	-0.0516087332697238	-12.2143203919957	-56.8644743398169	53.1107475468624	
992100000	-43.4013920055886	76.402801868581	-0.0468942104129318	-12.199143861353	-0.0409950817281714	-12.229588463009	-52.6307242479838	39.70063425269	
993800000	-45.0048891387849	64.8079079359373	-0.0359254129788856	-12.195980456547	-0.0435092638362893	-12.2494536394751	-50.1095099071184	32.7754163898547	
995500000	-43.9395033708321	71.8068399194094	-0.0419506466191778	-12.306684701784	-0.0535854276482148	-12.2846090076356	-47.4004216374917	35.1829599012252	
997200000	-46.4525905429211	73.2796213348723	-0.0540069614084678	-12.3758262706528	-0.0545738191164825	-12.256001194856	-51.1357699325638	29.8752330193961	
998900000	-42.917139972719	58.5365727424321	-0.0449072333623069	-12.2740025775857	-0.0551911378226913	-12.318513929113	-49.8710745064912	36.4219264685701	
1000600000	-45.0316711601117	80.4664006669689	-0.0485207143548486	-12.2596585009787	-0.0487826216391698	-12.2458307725651	-52.5368295076465	48.8158892189439	
1002300000	-44.7886842871852	54.4803203541671	-0.0342761398198194	-12.4245559791338	-0.058106734682122	-12.2661407071489	-50.383693903429	74.1688245782584	
1004000000	-44.2440253767489	47.0196926024977	-0.0299142483156257	-12.3473031992965	-0.0566302934790998	-12.4598279573543	-53.8233241506888	8.61086995039513	
1005700000	-44.9597607606501	63.9233497847338	-0.0377137173681658	-12.4154649153426	-0.0440922758530449	-12.3864966892779	-50.130452007217	43.8082820626293	
1007400000	-42.9233275694877	38.8270378996211	-0.0481749431723536	-12.4182280850767	-0.0349054514361564	-12.342009977495	-52.8105564927335	53.9334782515369	
1009100000	-43.7085239787786	54.5210952969604	-0.0500041900194228	-12.500274664572	-0.069080298597621	-12.3539689674822	-44.2705863424578	32.1317769195037	
1010800000	-43.8678338433005	61.5224991021113	-0.0546112002439403	-12.594174090767	-0.0564088491924913	-12.3868335895005	-52.5781255797231	48.3851245499335	
