!Keysight Technologies N9950B: A.12.38
!Date: Saturday, 13 May 2023 13:23:51
!Timezone: (UTC-06:00) Central Time (US & Canada)
!Model: N9950B
!Serial: MY61131330
!GPS Latitude: 
!GPS Longitude: 
!GPS TimeStamp: 0001-01-01 00:00:00Z
!GPS Seconds Since Last Read: 0
!CHECKSUM:1663554856
!Correction: S11(ON U)S21(ON U)S12(ON U)S22(ON U)
!S2P File: Measurements:S11,S21,S12,S22:
# Hz S DB R 50
800000000	-17.1922857556703	-124.504681364007	-0.263243628134183	-18.2400967887594	-0.274301095083371	-18.2215632608757	-16.8293060210564	-104.458206998016	
801700000	-17.2138801107989	-124.131783096915	-0.256581052466018	-18.2331786326045	-0.264745870899266	-18.2311940063849	-16.8158196872709	-104.011588810185	
803400000	-17.1770685180663	-124.090817902989	-0.260932914592397	-18.3351345130453	-0.275932615848186	-18.2076559879095	-16.8861306669655	-104.302633974037	
805100000	-17.1556013742509	-124.166696475006	-0.270549442771828	-18.3831223151663	-0.282529655392673	-18.2628262747184	-16.8836097415623	-104.562002771183	
806800000	-17.1800046055186	-124.175814854	-0.265794607615076	-18.294597181322	-0.281958759706809	-18.4105941727106	-16.7991923859676	-104.178817637336	
808500000	-17.1343535607713	-124.969776061946	-0.252727321497417	-18.3988203739053	-0.283854669189928	-18.3989356981409	-16.8651024606953	-104.699983122391	
810200000	-17.1042546407399	-124.65965779817	-0.268786220904832	-18.4108484661242	-0.273905952109838	-18.4178625077814	-16.7371359222826	-104.322465963579	
811900000	-17.104824590969	-124.652232115477	-0.262792641011356	-18.5215716183865	-0.283389429486077	-18.4691527287128	-16.7652683288601	-104.034622553364	
813600000	-17.0459505322188	-125.002311036179	-0.261890261331563	-18.5778938759891	-0.287185565117386	-18.6363305247158	-16.7050907961513	-104.13640415746	
815300000	-17.1927964398392	-125.219710588862	-0.27255542434404	-18.6041101601453	-0.278943720801824	-18.5432306979176	-16.8292122295591	-103.98685870113	
817000000	-16.9920275134928	-124.626054035814	-0.269935857408971	-18.6031039919302	-0.282812117194902	-18.6248777150238	-16.836293705906	-103.628632359771	
818700000	-16.9940520266355	-124.287963653605	-0.268048913464538	-18.6394108229388	-0.276981515930211	-18.6583394559415	-16.698256682295	-103.999691571754	
820400000	-16.9402310778258	-124.843457032648	-0.279549622920356	-18.7241409862402	-0.297911328752197	-18.7001731576976	-16.6769796480792	-103.935089332729	
822100000	-16.985712748593	-123.775930073969	-0.27380389459007	-18.6294740396775	-0.269054651334758	-18.7229073799723	-16.7698444143175	-104.172207924106	
823800000	-16.8838424971808	-124.413055873658	-0.272464502254485	-18.8083579708001	-0.277790026792841	-18.758533884366	-16.4551955045055	-104.412766199577	
825500000	-16.9716136899858	-124.898777673257	-0.274718962155097	-18.6532404171686	-0.284612684235487	-18.710324412527	-16.6719448404004	-104.003212604042	
827200000	-16.8881310458615	-124.707293149341	-0.276624203198899	-18.7926804491313	-0.282678499322658	-18.8421186065661	-16.5878953111949	-104.002649832899	
828900000	-16.8887376715832	-124.472149700404	-0.265537842599953	-18.7536975571379	-0.288204752230763	-18.8227576232078	-16.5792191058126	-103.895022314528	
830600000	-16.9070815305537	-125.586618706381	-0.287177094592035	-18.9720244612319	-0.277020503304306	-18.7813311565618	-16.5483715918038	-103.443919691861	
832300000	-16.8375674846185	-124.720040621844	-0.272469352761804	-18.9756433859868	-0.270702285465145	-19.0423461150847	-16.5871034355769	-103.897380158421	
834000000	-16.8347229194556	-125.8002422151	-0.272778531091215	-18.925090180469	-0.293285431670268	-18.9212595863837	-16.6943575673513	-104.026139912234	
835700000	-16.8513128742245	-125.116494737515	-0.269572073574772	-19.0388075199658	-0.285131033457876	-19.0454709550425	-16.529921527816	-103.610816419471	
837400000	-16.7636303040493	-125.227555063937	-0.293058957507795	-19.0526203852034	-0.29685278938063	-19.0478710660279	-16.5652169298953	-102.743363524302	
839100000	-16.7791226556906	-125.181534716108	-0.267786429193071	-19.0367424602684	-0.284903431663499	-19.0379022296058	-16.5124112464145	-104.436784047498	
840800000	-16.7306799895404	-125.654816747312	-0.276845064782628	-19.1892237626628	-0.28157257127732	-19.1314977516006	-16.5595706593009	-104.588252165869	
842500000	-16.7929457968021	-125.714091311788	-0.282530842832698	-19.1293224816488	-0.289771224020251	-19.1168205826547	-16.6018260579681	-104.159352503987	
844200000	-16.7077118815967	-125.158719843489	-0.286858747696886	-19.1980159280273	-0.289706146149004	-19.2505261850569	-16.4996444448253	-103.713193054838	
845900000	-16.733249549516	-125.691826564259	-0.278704301873306	-19.1742873488929	-0.297193654289112	-19.2787767833407	-16.4429678707227	-104.461130259238	
847600000	-16.7685378928942	-125.364219592682	-0.285677794198592	-19.1753084633489	-0.29033320794658	-19.2921154660747	-16.3516873911322	-104.225668557798	
849300000	-16.6567922090942	-125.994904072314	-0.273058160752621	-19.2973286415188	-0.295035048308256	-19.3396762455934	-16.4347991956349	-103.759674471457	
851000000	-16.6354217190299	-125.766366220457	-0.272143023134982	-19.3412136309195	-0.283891525952755	-19.391166736078	-16.4252672041026	-104.31421001914	
852700000	-16.6225889499421	-125.035243207068	-0.282167335731115	-19.3239176886795	-0.298846708057014	-19.3495614437185	-16.5145870525566	-103.656548562026	
854400000	-16.5859714323213	-125.863253201691	-0.297993232587217	-19.3985345898332	-0.298703483708231	-19.3898350457937	-16.3747314898594	-104.156374823875	
856100000	-16.648432924722	-126.008370285179	-0.2884138265785	-19.3901347812902	-0.301115274552427	-19.5562904547347	-16.4097032697858	-103.268124960514	
857800000	-16.486707193415	-125.298048877254	-0.289796771150154	-19.4721338194793	-0.291349453544086	-19.4521057811936	-16.4362551839225	-103.720612666352	
859500000	-16.5593759129344	-125.463991242679	-0.290387508187415	-19.4754255482519	-0.293006589835054	-19.4657848422488	-16.3860767701057	-103.885136415187	
861200000	-16.560836461758	-126.232665645342	-0.284288906501375	-19.612780540627	-0.286393370414787	-19.5601486635456	-16.3818591598073	-104.55649083825	
862900000	-16.4792958618354	-125.94295099913	-0.293887280243213	-19.5921612541856	-0.301808186774629	-19.6292504326816	-16.3232650141258	-103.443572571821	
864600000	-16.4656405128677	-126.028834572734	-0.282651401079147	-19.584315378111	-0.285453621455547	-19.6246243019327	-16.2653289115403	-104.171091028811	
866300000	-16.4008642622407	-126.184630822986	-0.284528317265036	-19.5848449183792	-0.295866461146873	-19.679351363376	-16.32322442233	-103.950300155937	
868000000	-16.414566827717	-125.930211565655	-0.299806864311276	-19.6373543427808	-0.304761809282444	-19.5992265691858	-16.3590911251728	-103.854168709465	
869700000	-16.4682646050466	-125.859094750104	-0.294693905209185	-19.7244041284637	-0.307459013305792	-19.7248714943516	-16.2271802802549	-104.125108151276	
871400000	-16.4195066974587	-126.664807720172	-0.302945842952946	-19.7915560451209	-0.306585659503293	-19.76319026755	-16.3111511256277	-104.66146671045	
873100000	-16.4011060408945	-126.00357162074	-0.297647563698369	-19.7358660013234	-0.306939674328709	-19.7880471673641	-16.2775922557272	-103.614321336936	
874800000	-16.4449533572399	-126.630889551853	-0.305109693376796	-19.7786575462348	-0.290566819250007	-19.8421566633408	-16.2820906009104	-104.631102568896	
876500000	-16.4284248437968	-126.632889049229	-0.284895544350647	-19.8773033738032	-0.30466929876171	-19.8884684897199	-16.325889959882	-103.615486683796	
878200000	-16.3970789125953	-127.096808524628	-0.309379755136498	-19.8985816909837	-0.291854023553753	-19.8434625009738	-16.226868634303	-104.787023834338	
879900000	-16.4292064242678	-127.169293462927	-0.282368505605523	-19.9639270746545	-0.30955101598096	-19.8762509684893	-16.2191581713926	-104.865962427937	
881600000	-16.3711833842985	-126.144269018638	-0.294142685127688	-20.0187019310541	-0.315978439541277	-20.0435207216081	-16.1417946289741	-103.927533341747	
883300000	-16.3443026524611	-127.177155602235	-0.314826439655164	-20.1430801221586	-0.312204645466571	-19.8964255311301	-16.2186919178546	-104.557892033673	
885000000	-16.3516751331014	-126.746255536266	-0.308438990653005	-20.0063719050875	-0.299897724188911	-19.9838716646862	-16.1622213250143	-104.521690827748	
886700000	-16.2935688793809	-126.844489457399	-0.295412126155404	-20.0358301637474	-0.302814871389922	-20.149524860739	-16.1453658396588	-104.084700084161	
888400000	-16.3329104351337	-127.525615003625	-0.314634920847048	-20.1021975591036	-0.304358907712153	-20.1314179366772	-16.2648477495628	-103.645669389465	
890100000	-16.3186138734518	-127.927466658984	-0.306979607501251	-20.1343287761238	-0.308859244998912	-20.1383743922698	-16.2058129025518	-105.103119801326	
891800000	-16.3514867381739	-127.758201837613	-0.316211854732111	-20.2429202214829	-0.313156078226673	-20.1764433046206	-16.1978834443568	-104.532279142716	
893500000	-16.2904542135906	-127.359806841837	-0.307755498493651	-20.1872797614805	-0.313302398367721	-20.2755172046985	-16.1447700822182	-104.466650549895	
895200000	-16.2863416531989	-127.576971047946	-0.301068255906553	-20.2651473407942	-0.306318051640747	-20.2608843257092	-16.1813896768462	-104.050267429243	
896900000	-16.2818185369915	-127.703283353557	-0.306407990961091	-20.2638806625727	-0.302483927356117	-20.290927357092	-16.1816797285716	-105.039443315593	
898600000	-16.2773856840352	-127.871521503944	-0.293283064024436	-20.1897812760057	-0.315442400237967	-20.3722365230668	-16.0622947008235	-104.779860812011	
900300000	-16.228890843516	-127.751434292481	-0.30519022847645	-20.3779180994836	-0.309165838634791	-20.4206520174483	-16.0272063161793	-104.0558564907	
902000000	-16.2211624237435	-127.899718919607	-0.300662004507869	-20.4925428608284	-0.322141497762955	-20.4467909072178	-16.1282261659368	-104.904203255853	
903700000	-16.2135974177027	-128.049471900055	-0.315458656252088	-20.4082041312985	-0.316740829483953	-20.4325772466721	-16.033828588625	-105.583284267472	
905400000	-16.1550028644674	-128.565853484613	-0.293309076537343	-20.5215211113269	-0.311937350840685	-20.4620429151341	-16.0858920877139	-104.694956561252	
907100000	-16.1941387489334	-127.966378269707	-0.300012335936454	-20.5361522243355	-0.326155796988215	-20.5730922225565	-16.0129704382914	-104.683475838349	
908800000	-16.0870777438055	-128.401924411375	-0.319221311936641	-20.6315381006413	-0.310118802520108	-20.5762351300164	-16.0505742344525	-105.8237993861	
910500000	-16.1865150668122	-128.433403188698	-0.304734096654735	-20.5831454385316	-0.301201391838882	-20.5819986424833	-15.9219310226865	-104.721294958082	
912200000	-16.2146214124255	-129.137511868772	-0.307531214367607	-20.5819920557462	-0.320505092688583	-20.5944554673899	-16.0194747371881	-104.787551218424	
913900000	-16.0375589599901	-128.826762147737	-0.288097279928537	-20.6355049149187	-0.302402665140867	-20.5945149386037	-15.9803488091676	-104.924509900413	
915600000	-16.0789558001795	-128.662580319744	-0.315191841946506	-20.6741986853337	-0.322997129097129	-20.7331958403731	-15.9496678997753	-105.139027997884	
917300000	-16.0664438912853	-128.535511746691	-0.313201226859013	-20.6642595008427	-0.319961471867723	-20.8280961300836	-15.9585313488846	-105.642503778821	
919000000	-16.1141312465807	-128.892076212464	-0.30679492567521	-20.7870195899243	-0.311429826872745	-20.7570229726949	-15.824435599053	-105.038663289668	
920700000	-16.1125905989803	-129.01209671198	-0.309959206264746	-20.7408946458458	-0.314183113170841	-20.8848643651804	-16.0647255714826	-105.52207027204	
922400000	-16.1323938500561	-129.316007880387	-0.313234051086621	-20.9262329495802	-0.322549464252863	-20.7995997876002	-15.8682944673502	-105.029554220846	
924100000	-16.0646493672852	-129.680973449729	-0.312568937523611	-20.8625353810996	-0.315454838343056	-20.8277569341222	-15.9017272713712	-105.008413553967	
925800000	-16.1101121966268	-129.203980959959	-0.305051366981779	-20.8809339677034	-0.315153716116296	-20.9525083171057	-15.8197616364035	-105.068265514388	
927500000	-16.01356110637	-129.038854386064	-0.306993793810802	-20.919182701822	-0.314033035279621	-20.8871026306158	-15.9013933085438	-105.065696533576	
929200000	-15.9522498063173	-129.864716011831	-0.314004686326601	-20.8960305473998	-0.320829660376809	-20.9886588558977	-15.8431196636415	-105.151431932981	
930900000	-16.0556948342421	-130.004013304472	-0.309052031657506	-20.9809794779746	-0.309472816081217	-20.9868845829341	-15.9162861531332	-105.216055085993	
932600000	-15.9796977524488	-129.571756096438	-0.334574171207481	-21.0090506007844	-0.311583952550761	-21.0575133853467	-15.917823813305	-104.976994877715	
934300000	-15.9283093070547	-129.750706356628	-0.319245994179966	-21.1336928660918	-0.331225582544591	-21.1305834205569	-15.7340612177289	-105.620553270097	
936000000	-16.1151456440769	-129.460728343837	-0.31983013318771	-21.0993722628313	-0.309591693110005	-21.0592476552166	-15.8206741983124	-105.661679860738	
937700000	-16.0653171609302	-129.997953449948	-0.313432079097141	-21.1997096848801	-0.330324631409137	-21.2586315728348	-15.7842278907302	-105.517812423431	
939400000	-15.8981403466946	-129.518962022157	-0.314481843873461	-21.1557588720602	-0.317503760101836	-21.2784022307679	-15.7493678508604	-105.383611461475	
941100000	-16.0176393334108	-129.28180888817	-0.322940432694662	-21.2472419888108	-0.315943018544967	-21.1763180794885	-15.7801583080058	-105.873987504218	
942800000	-15.9407120482337	-129.657555971781	-0.311292166971881	-21.2816925676305	-0.317246081659966	-21.2974170157156	-15.7884601922873	-105.93858795903	
944500000	-15.9116766976051	-129.939931775555	-0.314451881086038	-21.2450709319804	-0.318694066363829	-21.2656672441753	-15.6492316417432	-105.367868565038	
946200000	-15.876080106959	-130.560563281109	-0.334519853453726	-21.3148788349292	-0.322563839560224	-21.2918903496289	-15.7713410418019	-105.740216647671	
947900000	-15.8783835721721	-129.974872737505	-0.340237687083787	-21.2839896353755	-0.325919586008412	-21.3105136345566	-15.7114481521416	-106.312899314026	
949600000	-15.8119376827917	-130.539299055243	-0.322302869249947	-21.4719642021391	-0.317154153654619	-21.3727964924885	-15.6418469894931	-105.039585611231	
951300000	-15.826752933194	-130.167731735946	-0.31120704685872	-21.4868045649841	-0.32779568385443	-21.4992855257861	-15.7765615650755	-104.949921822433	
953000000	-15.8567412079317	-130.19900257888	-0.325878677011849	-21.3942263661882	-0.327178695652339	-21.5307589025651	-15.6472069016417	-105.308784085159	
954700000	-15.8034661936493	-129.922479368083	-0.313922797718519	-21.4591934178086	-0.31523119994749	-21.53203577191	-15.6517779817696	-105.80580010253	
956400000	-15.9306190789357	-130.770769452653	-0.317760491724313	-21.5659760919733	-0.323437870965357	-21.6021708687886	-15.6603128348986	-105.761997505123	
958100000	-15.912396000984	-130.758825779232	-0.322312381488957	-21.473732513707	-0.328819875312938	-21.552988039042	-15.5954960297646	-105.784695687598	
959800000	-15.8040892930196	-130.160407895988	-0.319357271382873	-21.6892851412236	-0.318368391512499	-21.642451783449	-15.5010160571784	-105.279858382755	
961500000	-15.7975800092321	-130.137592953554	-0.332710417285381	-21.6845081140441	-0.329646872167715	-21.6408828251858	-15.6405532290931	-105.33003224123	
963200000	-15.7931106532826	-130.610132485182	-0.331158561412849	-21.6498742948833	-0.312281666604473	-21.8106665120636	-15.6374223857381	-105.324300723999	
964900000	-15.8088004601245	-130.70400243684	-0.322264396063163	-21.697009220998	-0.32745470722102	-21.7915731593991	-15.5249161033579	-105.468056663694	
966600000	-15.762636066494	-130.620737734866	-0.320534878467609	-21.7931053269191	-0.314345304669043	-21.7365013523458	-15.5882454947451	-105.689072983509	
968300000	-15.7917934489883	-130.687130718333	-0.304369563990231	-21.8238858267924	-0.325127202680855	-21.8481566220188	-15.4507805063601	-104.932517977123	
970000000	-15.7871587045744	-130.532861980534	-0.311515908885564	-21.8519581314684	-0.325217471724772	-21.9006614446816	-15.5142515349795	-105.275404423046	
971700000	-15.7844718705504	-130.317136382939	-0.333796377848004	-21.8556110199944	-0.331951730756529	-21.8713756080686	-15.4082591770697	-105.238477780002	
973400000	-15.6945431260131	-130.853438967488	-0.323263247569177	-21.9686449848859	-0.344298248927256	-21.8885713126489	-15.4720431917245	-105.668805991753	
975100000	-15.6568427260596	-130.613618643015	-0.321111289435426	-21.9701940221694	-0.323830432403545	-21.9298646961365	-15.4551411485736	-105.51258876462	
976800000	-15.6471673862893	-130.686274943924	-0.321690818528032	-21.9537038102147	-0.334824822429908	-22.0784701814374	-15.3513918552549	-105.490051885913	
978500000	-15.6945914653719	-130.377204898695	-0.331386653855523	-21.9148126920195	-0.334514817407915	-22.0278503580552	-15.4320581893488	-105.464747016235	
980200000	-15.6397751479348	-130.85093460618	-0.342197340378795	-22.018748438905	-0.320612379535546	-22.1145158945688	-15.4155738318161	-105.613877070825	
981900000	-15.7422414165337	-131.316377833183	-0.344058343182882	-22.0673564421777	-0.327999715944145	-22.1799094645531	-15.3365722590267	-105.55171318891	
983600000	-15.6764888186356	-130.735401350565	-0.342195769759847	-22.1686212798948	-0.333787681174012	-22.0868214156646	-15.4070377946026	-106.005573424854	
985300000	-15.6815102784271	-130.37270809916	-0.329696472746208	-22.1729927509905	-0.343827151609765	-22.1516744852479	-15.4194952267941	-105.568502662831	
987000000	-15.5822325515196	-130.497829510877	-0.329866811122269	-22.2970786423367	-0.347212545548403	-22.2316575019557	-15.4200349151216	-105.907718906658	
988700000	-15.5628515900401	-131.333133023174	-0.349749140077579	-22.2577358981336	-0.352452940046488	-22.2817253296734	-15.3666326981232	-105.740569640853	
990400000	-15.4886957734459	-130.908566697522	-0.32006712849648	-22.2148178331752	-0.33678462051948	-22.3222923218578	-15.2859618751754	-105.810434354286	
992100000	-15.5802227278314	-131.192119234328	-0.332846056856361	-22.3737129005298	-0.326110525564459	-22.2969797949317	-15.2726095211416	-105.351038682894	
993800000	-15.5113187660695	-130.553537758883	-0.327999926700903	-22.2509957807077	-0.345824275644517	-22.3346113434869	-15.3312061317624	-105.44798001329	
995500000	-15.5339288171484	-131.006955127814	-0.333067366462185	-22.3740426915119	-0.336414999729226	-22.4663390291269	-15.3120599406025	-105.264281669217	
997200000	-15.4434902049106	-131.137537397016	-0.334330282015833	-22.5207262219679	-0.351133856365496	-22.440152011804	-15.2530598707116	-105.460841345136	
998900000	-15.5881965968671	-130.762923925825	-0.337300657039555	-22.4270428566058	-0.343006097043253	-22.4718450944189	-15.2801239071643	-105.379650947671	
1000600000	-15.4253855977062	-131.378149467607	-0.341397273518833	-22.5359302664198	-0.353528152516098	-22.4983981625893	-15.2717876448646	-105.863879158405	
1002300000	-15.467963445716	-130.826530706254	-0.344385527681612	-22.6110636479165	-0.342260782700908	-22.4911215107133	-15.2976037275169	-106.071017512879	
1004000000	-15.4774340412795	-130.538991707048	-0.326342797025618	-22.6174000452256	-0.35946936354841	-22.610402805169	-15.1499425109178	-105.481721958877	
1005700000	-15.3940482192562	-131.007086072552	-0.321231525394606	-22.6622323084895	-0.339621261667604	-22.5963788082937	-15.2282421159865	-105.764246479602	
1007400000	-15.4675505246625	-130.006854870878	-0.348078504284026	-22.705572478776	-0.33862512992917	-22.6113051478084	-15.206323169409	-105.80653265056	
1009100000	-15.4524062788925	-130.859791638298	-0.342645585373409	-22.7440766668124	-0.365382575492017	-22.6987207087305	-15.2685078899992	-104.684492026727	
1010800000	-15.4318582186079	-131.144682158888	-0.335809088938399	-22.8037169573513	-0.349537579004517	-22.6535720434919	-15.1567279775431	-105.951581327939	
