!Keysight Technologies N9950B: A.12.38
!Date: Saturday, 13 May 2023 13:03:52
!Timezone: (UTC-06:00) Central Time (US & Canada)
!Model: N9950B
!Serial: MY61131330
!GPS Latitude: 
!GPS Longitude: 
!GPS TimeStamp: 0001-01-01 00:00:00Z
!GPS Seconds Since Last Read: 0
!CHECKSUM:1087254534
!Correction: S11(ON U)S21(ON U)S12(ON U)S22(ON U)
!S2P File: Measurements:S11,S21,S12,S22:
# Hz S DB R 50
800000000	-18.6412037353893	-116.887814916377	-0.0947758226620811	-16.6296345024231	-0.109380163902403	-16.6554022030847	-18.2174423394085	-96.8316685311134	
801700000	-18.6812760083806	-116.605650957256	-0.100707741114326	-16.7094790374056	-0.0960070677167833	-16.6333835181103	-18.1822826063822	-96.0239262274363	
803400000	-18.5988863703177	-116.270918324558	-0.088070650384025	-16.7633954271905	-0.111328825968958	-16.7543351081834	-18.2799369374678	-96.6057758306541	
805100000	-18.607009208863	-116.40258864341	-0.106026998504801	-16.679745181548	-0.121635279470775	-16.7754484208921	-18.2397471237207	-97.0294067617057	
806800000	-18.6290712554008	-116.516667510788	-0.0979828186993253	-16.7455645564163	-0.115811620123585	-16.8146528021322	-18.1578776744516	-96.375931856706	
808500000	-18.6109870937084	-117.324737857488	-0.0913653542400392	-16.8117906920912	-0.127996766338239	-16.8414177587824	-18.2784475294579	-96.9016672508843	
810200000	-18.5079671860796	-117.07283509003	-0.0989008307642264	-16.8726955874216	-0.101279521578909	-16.86834643509	-18.073532717213	-96.6156851198333	
811900000	-18.5652333344396	-116.871421949337	-0.10863270085978	-16.9075061002181	-0.119517376317994	-16.9696938780029	-18.118120697254	-96.5408783772687	
813600000	-18.500316287795	-117.289786775587	-0.0969794696667719	-16.9790529109296	-0.118752961176719	-16.9834111567846	-18.0777801695099	-96.2347379195748	
815300000	-18.6638970414086	-117.355498594348	-0.10532941760603	-16.9453243681249	-0.113783555058596	-16.9547778570501	-18.2165593298034	-96.220453599486	
817000000	-18.4189783231103	-116.823620351248	-0.0971149585121849	-17.0439516868936	-0.126031253198913	-16.9617675227661	-18.1991140722973	-95.5387514661728	
818700000	-18.3919890931419	-116.55965448236	-0.102148965758216	-17.1155231167483	-0.113913270592076	-17.0559543723573	-18.0228402333788	-96.1723778581605	
820400000	-18.3562188637283	-117.374709015796	-0.100377590626504	-17.1578142966925	-0.12465775444495	-17.0980527667613	-18.0022240052493	-96.2274934532369	
822100000	-18.3964369273526	-116.078103981293	-0.109010423246883	-17.0975929053869	-0.106321888366968	-17.1119728405121	-18.1289774558829	-96.0891201214849	
823800000	-18.2737603798276	-116.736187762317	-0.0983293838269087	-17.2317854762429	-0.121403029710861	-17.13798855771	-17.7821744277135	-96.8732297491939	
825500000	-18.4188264842657	-117.200889071267	-0.110111158874048	-17.0870045075189	-0.122140214992744	-17.1367261364136	-18.0153632779286	-96.4071972577571	
827200000	-18.2830896591324	-117.093247239798	-0.113036661347009	-17.2268062447615	-0.101937266714068	-17.222170692005	-17.8939894095308	-96.4780798834993	
828900000	-18.2740850132064	-116.765026719555	-0.105933657492565	-17.1340431033993	-0.116501086020235	-17.2454193515261	-17.9265333584813	-96.1981734934658	
830600000	-18.3100254395479	-117.831976960133	-0.108177449099342	-17.3887796855534	-0.109642840878891	-17.2244020939901	-17.8294403864275	-95.6483577774841	
832300000	-18.2082016634408	-116.8099985564	-0.0983776612858738	-17.4175272282909	-0.111272579425082	-17.5464724447881	-17.9466188476268	-96.3094506506771	
834000000	-18.2521853301656	-118.062742183862	-0.106371196011263	-17.4021512557917	-0.124517604752367	-17.4231428675292	-18.0005906458438	-96.5016108131573	
835700000	-18.2590351167967	-117.462026817739	-0.0995411745910868	-17.3706539096468	-0.104645813132739	-17.442146109958	-17.8053550814508	-95.4609166706378	
837400000	-18.1639427972742	-117.506893347692	-0.115397328194298	-17.3450999231925	-0.133427710973227	-17.4143692025428	-17.8645794533805	-94.5100640714102	
839100000	-18.1846760670637	-117.503399190454	-0.106016703088955	-17.4603726758057	-0.126056619479722	-17.4778581359805	-17.8548502360546	-96.8381189790094	
840800000	-18.1150101726414	-117.864944600441	-0.114353439838796	-17.5487577070226	-0.113299163363425	-17.5211330877076	-17.8934375239452	-97.0524266124975	
842500000	-18.1839991170074	-117.970905916564	-0.108296962318156	-17.4994637124948	-0.120564176788765	-17.4744574273405	-17.9419109199575	-96.4696545893036	
844200000	-18.0743199325928	-117.22392524192	-0.107725133500077	-17.5195121961766	-0.121293405690126	-17.6172283146443	-17.8230193243619	-95.8554352456414	
845900000	-18.0961704396181	-118.363836215528	-0.105225562675167	-17.6287440728522	-0.110677241448596	-17.6204055864578	-17.7308401967089	-96.8083630903679	
847600000	-18.1795521951657	-117.398502267396	-0.119269470920854	-17.5362868591221	-0.117515337405872	-17.6011162003322	-17.6862977857589	-96.5144170767713	
849300000	-18.0546738560064	-118.405271354594	-0.121660978858365	-17.7069824946904	-0.124988879354541	-17.7012358436791	-17.719904489955	-95.8459931514946	
851000000	-18.0124020108162	-118.044564602115	-0.101483699670864	-17.7693524779547	-0.11600406792134	-17.6797116722019	-17.7312701677777	-96.441175458253	
852700000	-17.9697154717128	-117.149936179523	-0.103935139470327	-17.710860632941	-0.124247637435663	-17.7686307961153	-17.8211044325009	-95.9813262570832	
854400000	-17.9261630034576	-117.972836354623	-0.118272246557624	-17.7305974359456	-0.115378132339064	-17.7884562945489	-17.6616605599986	-96.3473465362495	
856100000	-17.9987419087089	-118.128495969284	-0.10840229115165	-17.681246236877	-0.136163750311617	-17.7858796915308	-17.7289174243803	-95.4157059148938	
857800000	-17.8074285045418	-117.554172345065	-0.121128480322762	-17.9118114224598	-0.113928523473726	-17.8517930146764	-17.71783290565	-95.8390792890242	
859500000	-17.91975018802	-117.61313077943	-0.105597562707077	-17.887213904608	-0.120367586155015	-17.9024742341771	-17.6984753264023	-96.1795451141258	
861200000	-17.9137700438207	-118.570967745798	-0.106988702658187	-17.8809190258309	-0.124596478015061	-17.839750405645	-17.7179861474492	-96.8057964163763	
862900000	-17.8185214478117	-118.333338373762	-0.103131896029388	-17.9990105046919	-0.137884886880554	-18.0228889884164	-17.645321903284	-95.5311055337505	
864600000	-17.8025239096559	-118.351551896205	-0.101146905225139	-17.9974130899209	-0.113521625968544	-17.9777887269272	-17.5522380067185	-96.4386187375452	
866300000	-17.7242593330971	-118.491871269399	-0.117691429837134	-17.9757255158886	-0.127626689669919	-18.115466372037	-17.6022280947178	-96.2771845637213	
868000000	-17.7594183854148	-118.213359341467	-0.124802766523365	-18.0385913950114	-0.126112953497174	-18.0549269184594	-17.6592096184623	-96.0449648816145	
869700000	-17.8149602393863	-118.092232318729	-0.125361822778257	-18.1237883717243	-0.120927195663717	-18.122186056651	-17.4915692108444	-96.4675900938221	
871400000	-17.7511706301712	-119.032524098546	-0.126436862758431	-18.0752880811984	-0.122956188191895	-18.177236236039	-17.6368357208064	-97.0437684379827	
873100000	-17.7169806827967	-118.357867681952	-0.121591434832733	-18.1400827815198	-0.131473824059813	-18.1436045531575	-17.5730245536669	-95.8586610957601	
874800000	-17.7705757519444	-119.013807659259	-0.114808841529457	-18.2013010656448	-0.12859324353397	-18.187026900959	-17.6235832928711	-96.9681296075702	
876500000	-17.7359003708463	-118.810128960238	-0.109414745887035	-18.1947115209821	-0.130217562783787	-18.207653650503	-17.5796406660218	-95.7063166193272	
878200000	-17.7007943604559	-119.425663090086	-0.115784190723709	-18.29292061621	-0.129867269261368	-18.3020874252554	-17.5266625520448	-97.2131485931163	
879900000	-17.7840770767364	-119.456715432844	-0.126668393586914	-18.2372684022175	-0.144759985435286	-18.272640607198	-17.507973246887	-97.0929656289915	
881600000	-17.6603892698172	-118.278085237552	-0.122740876497727	-18.4049391712302	-0.134743957467891	-18.4244940908771	-17.379090829304	-96.1378077215562	
883300000	-17.6692675079518	-119.479079557598	-0.128396164645161	-18.5061173652701	-0.139438167369083	-18.2685384523965	-17.4957369251426	-96.9058560554369	
885000000	-17.6544181392718	-119.034061628039	-0.132812164542652	-18.3437604750853	-0.125231216332606	-18.3541692443606	-17.434600130641	-96.6695011694943	
886700000	-17.5904712522872	-119.1204326247	-0.120252627038712	-18.4201674627501	-0.118792143446099	-18.4415954872213	-17.4207394505899	-96.2174379580689	
888400000	-17.6558166942238	-119.678671098081	-0.13541535498825	-18.4171111656165	-0.128877926597433	-18.5152657487677	-17.5294212099643	-95.7108317203796	
890100000	-17.6508879769002	-120.27505336511	-0.132539612271087	-18.4668589689278	-0.136226984512822	-18.447701835879	-17.4863441252552	-97.3215065634265	
891800000	-17.6367830079183	-119.980965109176	-0.131511795297897	-18.5209383416241	-0.121443726011252	-18.4886393776151	-17.4416019842536	-96.9127522228717	
893500000	-17.530134225275	-119.525248741364	-0.115474022246374	-18.4970979637672	-0.143856284094175	-18.5701690679696	-17.4253271942626	-96.8319461660225	
895200000	-17.5734508238244	-119.903422183029	-0.118081875201198	-18.6680246828485	-0.126407244441199	-18.5573656542245	-17.4332973694485	-96.1703528872102	
896900000	-17.5759297809483	-119.666541895178	-0.132888539835927	-18.6331342863288	-0.130254226189794	-18.7070063304297	-17.4561549791977	-97.4695658236769	
898600000	-17.5518498753051	-120.098559529407	-0.127366572496934	-18.6303173833184	-0.138552810094839	-18.6391431222484	-17.3257705985857	-96.8864325130115	
900300000	-17.5175212127806	-119.810028514883	-0.122646554505972	-18.7670039231472	-0.136283816488558	-18.7437075297187	-17.2636730583481	-96.4241233208727	
902000000	-17.5394771815181	-119.875737692727	-0.119981017738704	-18.721216787952	-0.139573336305367	-18.7939720754471	-17.3608738938652	-97.0736351603945	
903700000	-17.5021289467528	-120.300315899842	-0.132399036507642	-18.7666961528511	-0.13364780903372	-18.7302728591723	-17.2870253703211	-97.9359588263272	
905400000	-17.4540937499943	-120.866061983485	-0.129263277837662	-18.7618998847675	-0.135810289312412	-18.7869278825083	-17.3373238995579	-97.0451743388117	
907100000	-17.4761406255117	-120.06102579341	-0.125340267157738	-18.7900684399475	-0.128896975394923	-18.9252106226941	-17.2532397076303	-97.0078547828597	
908800000	-17.3610852950326	-120.481696250523	-0.135442485052445	-18.9173756246388	-0.118831220852239	-18.9309753615736	-17.2926056530303	-98.2384055733897	
910500000	-17.4683583257657	-120.60027151785	-0.104271387083786	-18.8973988577578	-0.12967124001501	-18.9141245472587	-17.1860160614007	-97.0059886203039	
912200000	-17.4984264743537	-121.410419725182	-0.107672883719452	-18.8843687001293	-0.142298573103033	-18.909579384119	-17.2936677493868	-97.0400644243379	
913900000	-17.27621640508	-120.841857498171	-0.111328050901061	-18.9280460453945	-0.130451671173679	-18.9803541664904	-17.256889837939	-97.3218731623845	
915600000	-17.3413456392243	-120.9518297826	-0.132424641630659	-18.9949661921936	-0.134461789575365	-18.9581047488099	-17.2046053655449	-97.4477066221256	
917300000	-17.3120506899771	-120.867079889949	-0.119788207367328	-19.0787239638281	-0.140665140431796	-19.0250927436126	-17.2281751772398	-98.0071581605121	
919000000	-17.3993346694837	-121.198400308631	-0.129259738234093	-19.161321658129	-0.12845908313534	-18.9985924953747	-17.0761109598749	-97.5758636905755	
920700000	-17.3631940960814	-120.988225642106	-0.114650394682542	-19.1011967440143	-0.13081109374302	-19.1598593301168	-17.2966578891112	-97.9037435833146	
922400000	-17.3800082563469	-121.305976921003	-0.110068981861633	-19.2167024749894	-0.138300088066878	-19.1826214258062	-17.1284975369136	-97.3558517810542	
924100000	-17.353060902532	-121.794982277017	-0.127373586186053	-19.1322959058691	-0.148338978034148	-19.1933349250713	-17.1432314061181	-97.3634708026336	
925800000	-17.3861698957022	-121.172307548497	-0.12347922937487	-19.1292950221005	-0.133268960244388	-19.246047649589	-17.0446680226991	-97.5452386091125	
927500000	-17.25909816885	-121.248138779249	-0.114386577911432	-19.2126572932666	-0.136484947197193	-19.16962327972	-17.1332289633587	-97.406152840362	
929200000	-17.2224805373186	-122.228169574192	-0.133943216908705	-19.2928965505688	-0.145408732796267	-19.3378167078906	-17.0876750299387	-97.5030079194274	
930900000	-17.3294503535996	-122.25872480488	-0.11643260974689	-19.2801117314026	-0.139887315949121	-19.2664873953428	-17.1598471271971	-97.5684953104635	
932600000	-17.2188702381594	-121.63130568603	-0.134917054883839	-19.2557449247995	-0.124599521462985	-19.3939468545536	-17.1832956618643	-97.3947021520529	
934300000	-17.1959522424689	-121.821582652239	-0.131329288398222	-19.4057152577551	-0.150486422902007	-19.3893461542929	-16.9209244199407	-98.0440126122429	
936000000	-17.3858991917028	-121.374455547861	-0.139926804793285	-19.4430578348223	-0.137555794851171	-19.3927923945879	-17.0240024656557	-98.1631690952281	
937700000	-17.3168585364563	-121.893510786716	-0.134516979994398	-19.4693306094929	-0.148783341016036	-19.4736346867734	-16.9760987728504	-98.0373507322498	
939400000	-17.1134742526697	-121.386525215842	-0.128692439494514	-19.3080890713136	-0.149067899264509	-19.503348772137	-16.980258406767	-97.6916896608429	
941100000	-17.2943713520073	-121.261435833285	-0.145749305059674	-19.5176329208612	-0.131936369571878	-19.410749748797	-16.9721385505438	-98.4926355253953	
942800000	-17.1571402234461	-121.627517182446	-0.127492497970064	-19.5473808568983	-0.136559386471535	-19.5878537975111	-17.0316510711828	-98.3906173601724	
944500000	-17.1340319345324	-121.954773113443	-0.121415009754714	-19.5640446525215	-0.130649134598233	-19.654535083129	-16.8524933986006	-97.9964759833279	
946200000	-17.1208692762702	-122.764508949333	-0.137518288830925	-19.6264913156353	-0.140555930388234	-19.6239472350277	-16.9880424297652	-98.3569496582231	
947900000	-17.0827410677019	-122.076990660039	-0.131947206477091	-19.6778742638741	-0.144757608348828	-19.659315983869	-16.9245197513503	-98.9601927761492	
949600000	-17.035633794076	-122.826732231689	-0.125867334895579	-19.6931644648518	-0.148852399258167	-19.7076376542508	-16.8586925894197	-97.6526031037564	
951300000	-17.063826922569	-122.267559572346	-0.123593678931469	-19.7893620229532	-0.149772895679605	-19.8007671431278	-16.9547018452173	-97.1185355279269	
953000000	-17.0789356712523	-122.355743480353	-0.138437086674862	-19.7868900839709	-0.143108605647274	-19.8409521198482	-16.8721213845923	-97.8901465395577	
954700000	-17.0413122774608	-121.713867498361	-0.138350846077364	-19.6132416534433	-0.120284214983965	-19.688189730347	-16.8173137059121	-98.271554938842	
956400000	-17.2189060482997	-122.658615113163	-0.14440020366123	-19.8409502689791	-0.144544650086974	-19.8616354682227	-16.8648296922237	-98.3409185294767	
958100000	-17.1708316134298	-122.676176968152	-0.130638622249424	-19.7710158273002	-0.144268912376887	-19.8798292335842	-16.791339084668	-98.4765675718767	
959800000	-17.0052200583606	-121.964937103482	-0.129752002293399	-19.9302215859894	-0.134066752387531	-19.8888553883556	-16.6796099054738	-97.9852393163051	
961500000	-16.9948155543088	-122.328291980536	-0.132297950356814	-19.9504811592542	-0.161029033648227	-19.9143434071103	-16.86930856678	-97.7975419256988	
963200000	-17.0229308826195	-122.301785775399	-0.13927780342705	-19.9087467652633	-0.141801551228691	-19.9504468908677	-16.8186166455595	-97.8684560017913	
964900000	-17.0775219419866	-122.669826790817	-0.132553950401718	-20.0332768356036	-0.146334643991031	-19.9136559886548	-16.7129407701392	-97.7707127967205	
966600000	-16.9754322032515	-122.338522569393	-0.135281414267033	-19.9963312970058	-0.13847336969407	-20.0323896987823	-16.7993081193568	-98.3110638209827	
968300000	-17.026888790101	-122.446267137112	-0.117519616163174	-20.0887198085154	-0.133264499906044	-20.0767921820439	-16.5782104839733	-97.479168891637	
970000000	-16.9870535060737	-122.44754877685	-0.118406801621786	-20.154694819706	-0.146903888680177	-20.1422766916603	-16.6867436282208	-98.0344272182502	
971700000	-17.0245933996547	-122.04676005345	-0.156722256162371	-20.1554751517856	-0.141103049402612	-20.1690742689741	-16.5755977396239	-98.1546903152668	
973400000	-16.8806426982626	-122.806677213491	-0.126404413682822	-20.2657633136523	-0.158321209064978	-20.1615325647726	-16.6513318271079	-98.2979558555938	
975100000	-16.8943339021474	-122.315373668095	-0.15361535298038	-20.1937922150775	-0.142645439233791	-20.2049042160376	-16.6467500050198	-98.2905465270023	
976800000	-16.864152493649	-122.482628263518	-0.128923565637202	-20.1541890648224	-0.156465987532458	-20.2103000688305	-16.5151412988305	-97.9926647872536	
978500000	-16.9054945381213	-122.092490679105	-0.143361143137509	-20.2258427702788	-0.145407480806845	-20.3265094888869	-16.5853843030573	-98.0734352247757	
980200000	-16.8602587110033	-122.471797763645	-0.154197461769996	-20.1960305995886	-0.136227752023971	-20.2899747526109	-16.583988038032	-98.3215556720511	
981900000	-16.973430287007	-122.908727189592	-0.139277896105672	-20.2777768381074	-0.135341652072493	-20.33233377675	-16.4849825475113	-98.2765505508204	
983600000	-16.8504799220434	-122.417586598901	-0.132554947308165	-20.3323468555425	-0.144173525563535	-20.3095088555787	-16.5761735841191	-98.9554787797564	
985300000	-16.896128172708	-121.840478691155	-0.144864791572452	-20.4411927875526	-0.154447217127739	-20.4134981377117	-16.5834825207449	-98.2389124678759	
987000000	-16.7698609248272	-122.023968466241	-0.131810215972302	-20.5031062764198	-0.153098231466615	-20.5087608268942	-16.5790351840019	-98.5833680742916	
988700000	-16.7636581172895	-123.064876314778	-0.164377906914125	-20.4832068039185	-0.147478916897247	-20.5690020275423	-16.5088649400218	-98.686751324627	
990400000	-16.688297243064	-122.804812206046	-0.135199271254179	-20.5323673879777	-0.149027497394482	-20.5580684753115	-16.4200254137462	-98.6540819811835	
992100000	-16.7917786355528	-122.925330538995	-0.143079278161315	-20.5894117507386	-0.139564366436878	-20.5048460493404	-16.3981304842332	-98.043966623421	
993800000	-16.7024811973673	-122.401194601194	-0.13205300198815	-20.5776336672643	-0.146476414285648	-20.6307517491691	-16.4582305439536	-98.2891728840255	
995500000	-16.7045622980725	-122.64059333212	-0.144871406090611	-20.575450672261	-0.139214511886072	-20.596068433944	-16.4339713212205	-97.6639136367531	
997200000	-16.6282693047435	-122.768438162598	-0.139330221351637	-20.8363847595093	-0.144459543885687	-20.6050000613095	-16.3567807282946	-98.1675969396982	
998900000	-16.7767162463989	-122.223468440302	-0.139707028246779	-20.6803117309438	-0.153111141979551	-20.7976959567418	-16.4109555011703	-98.1877538292224	
1000600000	-16.633660887337	-122.996467209075	-0.153463835023066	-20.7801377581155	-0.161723558533286	-20.6458573915022	-16.3982072109176	-98.7342998050521	
1002300000	-16.6348752055321	-122.073797480626	-0.138947393696713	-20.7664328605098	-0.148445317221313	-20.6375666288092	-16.4413336184424	-98.9189595285856	
1004000000	-16.6451053433795	-121.81828369567	-0.127686588171003	-20.7502519731641	-0.158435993967021	-20.8557877431544	-16.260562360062	-98.5286872495147	
1005700000	-16.6005007390825	-122.604440554606	-0.141827485009719	-20.8643435872715	-0.154380404823416	-20.8495603650441	-16.3798978487669	-98.6410631467217	
1007400000	-16.6228006251678	-121.381020453238	-0.144603250293794	-20.8915096972573	-0.141985903588234	-20.8108379939032	-16.3195617936263	-98.6329087201994	
1009100000	-16.621964154528	-122.218313068518	-0.141145432249932	-20.9875487875187	-0.170116187515885	-20.878167421175	-16.4178668007261	-97.4180947609323	
1010800000	-16.5930475820136	-122.621878646303	-0.14295005639134	-21.044552708284	-0.161459989564083	-21.0074567612003	-16.3077542658881	-99.0531155245817	
