!Keysight Technologies N9950B: A.12.38
!Date: Saturday, 13 May 2023 13:25:22
!Timezone: (UTC-06:00) Central Time (US & Canada)
!Model: N9950B
!Serial: MY61131330
!GPS Latitude: 
!GPS Longitude: 
!GPS TimeStamp: 0001-01-01 00:00:00Z
!GPS Seconds Since Last Read: 0
!CHECKSUM:1592572531
!Correction: S11(ON U)S21(ON U)S12(ON U)S22(ON U)
!S2P File: Measurements:S11,S21,S12,S22:
# Hz S DB R 50
800000000	-17.6031529533563	-121.182518353417	-0.190953701958407	-17.8959936129856	-0.19026363401852	-17.8436484958916	-17.2471139918291	-101.602206179302	
801700000	-17.6495858602458	-120.607580454076	-0.191751738571737	-17.8883853980398	-0.205603370317699	-17.8530990125489	-17.2347218586173	-100.867506973467	
803400000	-17.5883933324169	-120.262163151909	-0.188962875441965	-17.9650052713968	-0.20252943647053	-17.9425231224816	-17.2940255166876	-101.661703461426	
805100000	-17.5519832783249	-120.429595835715	-0.197670130966491	-17.8829300326298	-0.220339703058289	-17.9941579316444	-17.2958617958299	-101.799913007044	
806800000	-17.5717025728225	-120.735402990564	-0.186492210495085	-18.0030867464857	-0.207733853740949	-18.0263116969411	-17.1881570838723	-101.180866592494	
808500000	-17.5648676480973	-121.221654589033	-0.190349184698813	-18.0697656742207	-0.208334892212488	-18.0712201717589	-17.2816856281465	-101.884582286585	
810200000	-17.4880698444186	-121.032265670407	-0.197792282060714	-18.0304213657958	-0.193602375405679	-18.1395608950227	-17.1186277210594	-101.47299053288	
811900000	-17.5343570764994	-120.955996246033	-0.193097911771889	-18.147859381154	-0.20361407513976	-18.1582610167361	-17.1517653246448	-101.216548046312	
813600000	-17.4745323599384	-121.167778714412	-0.184570974314642	-18.115710901579	-0.205981655245583	-18.2635932491229	-17.1106681714358	-101.282952606423	
815300000	-17.5978195437645	-121.710822554687	-0.194415095698897	-18.2762475014225	-0.202921512801092	-18.2242027952121	-17.2552672868267	-101.142351449932	
817000000	-17.3895026052823	-120.927592523527	-0.197220621074831	-18.1762356106796	-0.199736692323558	-18.2770230142434	-17.2142214646145	-100.578450988576	
818700000	-17.413093853038	-120.697510065836	-0.195213887937438	-18.2867604961019	-0.199157734811303	-18.2961820056713	-17.0968248965502	-101.048068135943	
820400000	-17.3311460724599	-121.275643803797	-0.205202720141978	-18.3486096671625	-0.207704739901628	-18.346739589317	-17.0478710638212	-101.037151689253	
822100000	-17.3994927936506	-120.327651209233	-0.200023838299799	-18.315632073977	-0.19368372138597	-18.4140269923875	-17.1752127549284	-101.102598514195	
823800000	-17.2865135466513	-120.882837406413	-0.184188542975396	-18.4786866667954	-0.215265162849824	-18.3286119267943	-16.8659269438882	-101.481328350642	
825500000	-17.4164299643613	-121.419097216904	-0.204654471816797	-18.37909866501	-0.203864542086081	-18.3305090874392	-17.0370094542412	-101.017013426983	
827200000	-17.3013590330422	-121.033360087919	-0.202150298196758	-18.4351511090394	-0.21026392709643	-18.5175577107696	-16.9885501879379	-101.228030764422	
828900000	-17.2786357696058	-121.082363792253	-0.182326322792539	-18.490302886529	-0.207601860352513	-18.4826596282824	-16.9858903881785	-100.779206803728	
830600000	-17.2711782442641	-121.95892704905	-0.197778385314707	-18.515336124123	-0.203758324067559	-18.4794101392806	-16.9310151030252	-100.69159555916	
832300000	-17.2256280876115	-121.105745035579	-0.205705976798492	-18.6393429068522	-0.200372877379154	-18.746884890788	-16.9807348275913	-101.290299836452	
834000000	-17.2444268859904	-122.388342089839	-0.204130923808392	-18.5842489817275	-0.212879084394423	-18.6495338150748	-17.073252425484	-101.056073674085	
835700000	-17.2655246098933	-121.573585790295	-0.195971183778192	-18.6035814542974	-0.208657342811516	-18.6783542782702	-16.9293867201039	-100.58308770453	
837400000	-17.1466589399468	-121.46476949394	-0.213580864064484	-18.6766060516232	-0.228848607661493	-18.7510371104468	-16.9571919471922	-99.735712941343	
839100000	-17.1831325021101	-121.69373599778	-0.197981500145327	-18.6967561532393	-0.217694948567119	-18.7023817326	-16.930486865425	-101.530519623763	
840800000	-17.1443555569558	-121.995934609738	-0.201308915245961	-18.7729495538247	-0.213752898504411	-18.680146996693	-16.9430061073288	-101.693062622292	
842500000	-17.2405487407496	-122.121742707865	-0.21395586811675	-18.7175670330857	-0.211501882249906	-18.7865480224202	-17.0092592041429	-101.246504423926	
844200000	-17.0854275686049	-121.587405348506	-0.209247546203052	-18.8233672181004	-0.220436948413679	-18.9154157720907	-16.9051391080634	-100.799454497666	
845900000	-17.1178937865766	-122.517962296812	-0.207066249449639	-18.8740176515303	-0.210812419568061	-18.9431728766002	-16.8071589678817	-101.543142585705	
847600000	-17.1925676799383	-121.921670250794	-0.223104550569188	-18.8273476969918	-0.207616495037625	-18.8884395481847	-16.7540902038659	-101.268727561927	
849300000	-17.0732064850534	-122.522449003698	-0.212355301976368	-18.8805824647619	-0.220680390831691	-19.0323070426576	-16.804181585978	-100.994119196521	
851000000	-17.0426370142872	-122.334536841292	-0.196156842763491	-18.9936244385398	-0.214361345698788	-18.955486526931	-16.8024711155225	-101.214894558574	
852700000	-17.0083069903787	-121.410021398038	-0.210054221695781	-19.0032358960745	-0.218053397534752	-19.0284912894825	-16.890656176625	-100.890470823517	
854400000	-16.9964796496185	-122.15832970612	-0.221988769450945	-19.0587340266848	-0.218236757696137	-19.0428516932644	-16.7598557159735	-101.151288089001	
856100000	-17.0196621884691	-122.510064231588	-0.20671736378525	-19.049241580864	-0.227298690593388	-19.1088171173368	-16.7877193743193	-100.343352319495	
857800000	-16.8725609139282	-121.906078484093	-0.2126350393733	-19.085194526448	-0.213678768905181	-19.134803246018	-16.825646217012	-100.760694295471	
859500000	-16.9575381978314	-121.85997073096	-0.210856394062652	-19.13872038613	-0.212980555239681	-19.1554238627457	-16.7684736197131	-100.913670256536	
861200000	-16.9649618085392	-122.921668408606	-0.214579783665684	-19.2926815209668	-0.208733041898816	-19.1733181550804	-16.7636523921014	-101.550385328502	
862900000	-16.8615163647399	-122.538139087011	-0.204133996238929	-19.2765249557657	-0.215937680950642	-19.2926980814793	-16.7149575202516	-100.407281346224	
864600000	-16.8649966769011	-122.5694951557	-0.195710934452875	-19.2702979073876	-0.203137759242613	-19.2998178632897	-16.6463730986313	-101.31654365834	
866300000	-16.8085575090306	-122.950676721916	-0.209665989758219	-19.30344623973	-0.218031001235863	-19.3912619533374	-16.6975456713513	-101.181067383363	
868000000	-16.8184769390957	-122.558983647763	-0.220241949469748	-19.2982613473854	-0.222108768791044	-19.3006801944329	-16.7447960754398	-100.84463921451	
869700000	-16.8767013819355	-122.556199762024	-0.23413585357302	-19.4332872545673	-0.207680349976624	-19.3537739799278	-16.5961202920485	-101.163255114132	
871400000	-16.7988165576797	-123.30999442958	-0.232975493799375	-19.4418914202422	-0.21655848364238	-19.3818921465467	-16.7081994904441	-101.709940515676	
873100000	-16.7763930470647	-122.761324570276	-0.208316452427657	-19.4432860509603	-0.214255659450934	-19.5175741152916	-16.6447103628835	-100.481842214451	
874800000	-16.8571152538398	-123.287398755357	-0.23068003441921	-19.468837475557	-0.234227153467361	-19.5268269517337	-16.6897948394931	-101.881633665533	
876500000	-16.8132605104463	-123.31985984304	-0.221169165909039	-19.5214620908725	-0.215179834308872	-19.4653865784289	-16.6885354905083	-100.566032710948	
878200000	-16.7417658481154	-123.551808471084	-0.217922561644592	-19.597485898023	-0.226391818186242	-19.5715419275443	-16.6115075506693	-101.95261624953	
879900000	-16.8341405374658	-123.881374261427	-0.219820843637926	-19.6323492743971	-0.220273497232052	-19.6045301157965	-16.5935037692097	-101.736741116459	
881600000	-16.7400633205035	-122.683375770011	-0.209893611711648	-19.6554964584861	-0.230539459199658	-19.6642571148291	-16.5195124165494	-100.979626803258	
883300000	-16.7469011110859	-123.69364423303	-0.223834086563054	-19.7523262283952	-0.24444529395806	-19.6447468120821	-16.5958850160819	-101.748683568174	
885000000	-16.7212856507158	-123.379492501171	-0.229809539496193	-19.7089788956178	-0.230356021456827	-19.6874362455966	-16.5258293185393	-101.515511013663	
886700000	-16.6796579879017	-123.466755659935	-0.208841269674271	-19.636806291446	-0.212166894054478	-19.7666323209659	-16.5214158822611	-101.116146701817	
888400000	-16.7205274426571	-124.038545700529	-0.232700621725669	-19.8484453152738	-0.2218251355722	-19.7871686948117	-16.6202140537686	-100.534231428322	
890100000	-16.7033820329712	-124.413910877624	-0.219659698315567	-19.7988622988582	-0.230117813162872	-19.7496015691152	-16.6116256896392	-102.039496468939	
891800000	-16.7221920155259	-124.511392531303	-0.21986543161622	-19.95124473073	-0.232322557093787	-19.7765329735947	-16.5626513285706	-101.677202621471	
893500000	-16.6472166119885	-124.011078895165	-0.212458868182297	-19.8554396596289	-0.234532188866251	-19.909213657231	-16.5120707619591	-101.554609614582	
895200000	-16.6598686043466	-124.303793869069	-0.215816733094765	-19.9435447564088	-0.232439421561327	-19.8116995209803	-16.5268881678165	-101.053865643084	
896900000	-16.6622062834635	-124.245351314455	-0.226673919771102	-19.9369028255972	-0.226755900470771	-20.0222569558335	-16.5536809236599	-102.285625144063	
898600000	-16.6291027787279	-124.587234427865	-0.210951855081389	-19.9285431471863	-0.245960140454681	-20.0126937457348	-16.4388196649621	-101.788480340041	
900300000	-16.588178069405	-124.288514250763	-0.21314281922339	-20.0877845802318	-0.221430554486508	-20.0728136276002	-16.3817765667598	-101.142018206077	
902000000	-16.6019033969297	-124.498982130831	-0.218170102269744	-20.0435389185594	-0.234303669574858	-20.1281172778542	-16.4987019845687	-101.814419597169	
903700000	-16.5832222737352	-124.62532883151	-0.222874557567464	-20.0655658384446	-0.233702647795469	-20.0647363789041	-16.405294890012	-102.613016578695	
905400000	-16.5260408559783	-125.163639006411	-0.216993509590722	-20.1099347090204	-0.235992914354566	-20.1150854817643	-16.4481584180952	-101.743434592262	
907100000	-16.5797312565628	-124.439520990827	-0.227583214763662	-20.0450121146869	-0.236976231496689	-20.2347088361643	-16.3866157176938	-101.824698665682	
908800000	-16.4490511145399	-124.988509271018	-0.230255324124387	-20.218890735009	-0.227560857199646	-20.2457413256536	-16.3964720889024	-102.902492881546	
910500000	-16.5703435213044	-125.036041856135	-0.222310732857977	-20.17018408467	-0.215577655884557	-20.2820211641217	-16.2959281732548	-101.762626027246	
912200000	-16.5676604548242	-125.649969844345	-0.216589639059097	-20.215995451941	-0.228845394068174	-20.2572864957253	-16.3756256752258	-101.851515272842	
913900000	-16.4030434446623	-125.530224273935	-0.216157575706641	-20.3593844748236	-0.216862771383918	-20.3343607390137	-16.3634720416131	-102.265229715008	
915600000	-16.4278176707317	-125.283946684176	-0.218183215257122	-20.2888720421535	-0.236326589469112	-20.4147798355486	-16.3168303245818	-102.294554186823	
917300000	-16.4226764330921	-125.294834020644	-0.225670466653692	-20.3004623493074	-0.246990057104892	-20.3828310619379	-16.3356706200957	-102.633373421996	
919000000	-16.4988415949888	-125.323454762769	-0.228617490583848	-20.3680045208405	-0.233543135022255	-20.3914499129646	-16.1945057191864	-102.088371078708	
920700000	-16.4777906206316	-125.367823729059	-0.230723681079488	-20.3102056748401	-0.220353610812035	-20.499675057213	-16.4224135839338	-102.636815657248	
922400000	-16.4722426562449	-125.776399148853	-0.215092888418164	-20.5667499689325	-0.227128638784276	-20.497922537057	-16.226820126852	-102.259027502296	
924100000	-16.4298217852957	-126.377603435683	-0.231345482662687	-20.520987348396	-0.25158532573036	-20.499854160802	-16.2693044797429	-102.119680828114	
925800000	-16.5009546418103	-125.771282797807	-0.218910248220005	-20.5173207060887	-0.228427411963051	-20.4853243991416	-16.1750844365293	-102.179068728121	
927500000	-16.3458554817801	-125.574033678607	-0.235070594008909	-20.5387098342016	-0.238252866490697	-20.5996842203945	-16.2565081650604	-102.279974994265	
929200000	-16.3379030678652	-126.632422043094	-0.236387610281377	-20.6340852790671	-0.2454729574669	-20.6401467820244	-16.1997963793691	-102.301139488492	
930900000	-16.4008027640033	-126.534214610853	-0.209440643018134	-20.5371653798534	-0.229485442662343	-20.7350891014961	-16.2737402109528	-102.118272491674	
932600000	-16.3271598486399	-126.016892849901	-0.236323554630695	-20.5881487470788	-0.238516414730521	-20.7492592968731	-16.2939158120767	-101.904414302526	
934300000	-16.2977509350418	-126.218278412826	-0.237353854616561	-20.7622519177377	-0.243856882805921	-20.7288739422919	-16.0823094937179	-102.834104075502	
936000000	-16.4814778659759	-125.912385847949	-0.233704070494078	-20.8109892533275	-0.238215938464912	-20.7938925735181	-16.1810190738677	-102.875193423245	
937700000	-16.3925174618822	-126.45467069006	-0.218961332805149	-20.8792525488093	-0.251729687609232	-20.8480189265608	-16.1412272046785	-102.565843736774	
939400000	-16.2555480565845	-126.063613777302	-0.246756136475565	-20.7203480387795	-0.240455754319761	-20.876523741514	-16.1110461042174	-102.415939427758	
941100000	-16.388494381542	-125.789075858064	-0.223104679572165	-20.844235864326	-0.229462977921893	-20.8238130659934	-16.1083466733471	-102.89677252313	
942800000	-16.295325038592	-126.244650827871	-0.237383520963241	-20.9167920388124	-0.237848491186344	-20.9940975528747	-16.128798926116	-103.075415414484	
944500000	-16.2449645325762	-126.568038173632	-0.23313848847922	-20.9743349789064	-0.23126413161511	-20.9718930377448	-16.0040203481384	-102.512657725363	
946200000	-16.2227319095486	-127.326059720983	-0.239971820459686	-20.9984829904943	-0.242366031217215	-20.9134813954774	-16.1360929020154	-102.919531879599	
947900000	-16.2213863448031	-126.586285404568	-0.234539655088644	-21.0526256847355	-0.246593885040209	-20.9902052535359	-16.0858134939171	-103.419950780957	
949600000	-16.1712843364583	-127.1897258417	-0.22782235789645	-21.0468081628763	-0.248635601728971	-21.0555516864931	-16.0042814427598	-102.298463499801	
951300000	-16.2008055402844	-126.855823457528	-0.226343052579728	-21.1390991477011	-0.244527577414713	-21.0586841823653	-16.0911545774039	-101.952173772043	
953000000	-16.2283480695175	-126.7378046012	-0.237624728315588	-21.1491230309491	-0.241936440911099	-21.169356758291	-15.983495761585	-102.554525184412	
954700000	-16.170562453511	-126.52714170735	-0.227142699199932	-21.0944651255307	-0.234519724196501	-21.133269715156	-15.9892089322762	-102.707884150284	
956400000	-16.2980039191324	-127.243160186096	-0.230203183443322	-21.1724984385714	-0.24312657682921	-21.2799475267364	-16.0430448137218	-102.845853020281	
958100000	-16.2957388607886	-127.31864950553	-0.239530482735954	-21.1418823506606	-0.228079508051648	-21.1651395578021	-15.9106777103515	-103.03086161084	
959800000	-16.1307465477117	-126.762979512467	-0.226849845805797	-21.3856944545113	-0.236769768057638	-21.2357868309951	-15.8284476911329	-102.271709728747	
961500000	-16.1205949942948	-126.795334284168	-0.233531580366028	-21.3363333599827	-0.252429076700653	-21.2639628279738	-16.0161384352036	-102.49793844881	
963200000	-16.1372827555106	-127.022601285553	-0.240617950799252	-21.3032233753944	-0.242496265328875	-21.3139042940577	-15.9724263389964	-102.360835752682	
964900000	-16.1608912482147	-127.266855416078	-0.229328882879058	-21.4085710848867	-0.240153155609407	-21.3378558279115	-15.9014145626514	-102.296500443551	
966600000	-16.1320574324675	-127.112997784093	-0.24437824630602	-21.4027015794635	-0.236154559054164	-21.4236389287033	-15.9440295542495	-102.75064201451	
968300000	-16.1419141831954	-127.257671920942	-0.209901538997428	-21.4925223862333	-0.23928128398135	-21.5070220273495	-15.7760359806277	-102.232511652985	
970000000	-16.1136949259906	-126.93405386065	-0.223352162382166	-21.5028847307548	-0.229891631348185	-21.4854567940881	-15.8484154439019	-102.538263192947	
971700000	-16.1472722093249	-126.774378084584	-0.246121126758724	-21.5733209229614	-0.24469021214656	-21.5935912599063	-15.7546035640134	-102.659089898781	
973400000	-16.0536287549167	-127.346868755028	-0.24233710420647	-21.6953883710451	-0.253181954989645	-21.5181352579684	-15.7967158271323	-102.774243018043	
975100000	-16.0262077437112	-127.241947942415	-0.242581819979591	-21.5870287523043	-0.257500758131825	-21.6106703194865	-15.8112790649904	-102.701649713751	
976800000	-16.0115191780919	-127.33450365664	-0.245804987706313	-21.5519961546015	-0.247105116023949	-21.6599028753995	-15.6815288059524	-102.465858855369	
978500000	-16.0411687935182	-127.046268044405	-0.243589328889841	-21.6655239511917	-0.261896931732939	-21.6587308745434	-15.7788171671376	-102.474057974452	
980200000	-15.9960750177237	-127.180537784323	-0.244587061601479	-21.6251474985161	-0.23318884940604	-21.7361010773564	-15.7454465750961	-102.822843435056	
981900000	-16.0843478297951	-127.760566729065	-0.238531508330579	-21.7133415826499	-0.253242384175163	-21.7962029926649	-15.7072554219331	-102.615912854901	
983600000	-16.0376605797797	-127.262336490638	-0.255898096218972	-21.798118084483	-0.260064892264204	-21.7501066240224	-15.7650163467701	-103.162214884783	
985300000	-16.0567326870774	-126.784362954019	-0.249807802485346	-21.7904830097752	-0.254027487703482	-21.788036107021	-15.7674615423853	-102.66604976397	
987000000	-15.9319036728465	-127.023874775488	-0.243922241573201	-21.8680190590997	-0.251795267758526	-21.867299621713	-15.7569516212794	-103.01004353052	
988700000	-15.9339556621376	-127.836589593193	-0.272202272645652	-21.9073219036755	-0.268479825945797	-21.9407564753232	-15.680950599175	-102.974261025617	
990400000	-15.8759473869829	-127.63933533641	-0.255204017124553	-21.9199183680721	-0.259268667197446	-21.9358864229863	-15.5992606963631	-103.0039681506	
992100000	-15.9468427854327	-127.707171880138	-0.250258673027762	-21.9970029407037	-0.251612987597886	-21.9628068820731	-15.628865885098	-102.629026873193	
993800000	-15.8561849794107	-127.335978925321	-0.240568115847112	-22.0020730043024	-0.256433842522016	-22.0303310657774	-15.6614932655002	-102.489511108354	
995500000	-15.8809129242259	-127.570385357518	-0.259978315962258	-22.0186258685294	-0.251868345122259	-22.1279939532748	-15.6512896734193	-102.358607599725	
997200000	-15.7817430582292	-127.66085104458	-0.243471687337215	-22.1636436508432	-0.261002747673356	-22.1502087747939	-15.5923724639091	-102.746816743605	
998900000	-15.9278414209298	-127.309640950101	-0.242778577515185	-22.0981151704342	-0.262927477214015	-22.0954636728733	-15.6164121914791	-102.385935807523	
1000600000	-15.7737881756455	-127.933770351945	-0.257317226533048	-22.1806621437275	-0.265183906742992	-22.1001787135703	-15.6144750720081	-102.952171934788	
1002300000	-15.8287561946523	-127.236518374846	-0.255001835302697	-22.2660384209351	-0.260891746196118	-22.0805104368261	-15.6227749999181	-103.20367709571	
1004000000	-15.7971034463546	-126.769522556659	-0.246144294406492	-22.1506241946658	-0.268556988245655	-22.2845358326419	-15.4437018178021	-102.672632582984	
1005700000	-15.7587020856397	-127.447650459599	-0.245285231968934	-22.2075104428522	-0.254060522409735	-22.2204672160579	-15.5829754847514	-102.782373665577	
1007400000	-15.8104171392626	-126.451244991385	-0.259374208019729	-22.3563525545513	-0.252795808817918	-22.3014478565018	-15.5392668113604	-103.040669763016	
1009100000	-15.7910885335476	-127.443390113302	-0.263168927212106	-22.4411213058022	-0.268012734662636	-22.2701887982557	-15.5994670678781	-101.713295984492	
1010800000	-15.7509582935413	-127.581629097552	-0.251331554159252	-22.4157434289191	-0.269035679464323	-22.3640472903216	-15.5106846459586	-103.255594416332	
