!Keysight Technologies N9950B: A.12.38
!Date: Thursday, 01 June 2023 14:26:25
!Timezone: (UTC-06:00) Central Time (US & Canada)
!Model: N9950B
!Serial: MY61131330
!GPS Latitude: 
!GPS Longitude: 
!GPS TimeStamp: 0001-01-01 00:00:00Z
!GPS Seconds Since Last Read: 0
!CHECKSUM:0018168209
!Correction: S11(ON U)S21(ON U)S12(ON U)S22(ON U)
!S2P File: Measurements:S11,S21,S12,S22:
# Hz S DB R 50
800000000	-14.6265190299131	-117.701935175642	-0.224944370121564	-25.2798501590506	-0.232420914950884	-25.361777052412	-14.7407942371191	-117.765473601387	
803200000	-14.6159806063335	-117.611928465422	-0.22094627817318	-25.4952606890356	-0.221916070300887	-25.5028372689434	-14.572290193697	-117.862407515162	
806400000	-14.6156127979177	-117.928948115743	-0.223602737748382	-25.4962642759191	-0.224512095401986	-25.5403656102303	-14.6417297611845	-118.445076741523	
809600000	-14.5134488869105	-118.022331956223	-0.23922276236615	-25.6230251473066	-0.233474246483363	-25.6149244426829	-14.5706528712034	-117.934272157725	
812800000	-14.6177227568791	-118.280821741736	-0.239084312400491	-25.7618176740042	-0.24294488427219	-25.8592631076564	-14.5371208793396	-118.098821134408	
816000000	-14.5879330377617	-118.150171820533	-0.228927464317313	-25.9278641782169	-0.235421465511754	-25.8555004342609	-14.4987827290606	-117.901322134211	
819200000	-14.5438464041565	-118.49314401926	-0.253910632535686	-25.8259498333847	-0.238048412184702	-26.0052828190213	-14.5191526707044	-118.176544777863	
822400000	-14.4131314069662	-118.496054890758	-0.226381449285264	-26.0767569012599	-0.247952478428024	-26.0540060205736	-14.4935008165443	-118.298916531389	
825600000	-14.3984277904697	-118.75012453855	-0.240420632849877	-26.1888488671717	-0.249512248195526	-26.1399431321857	-14.3160449931257	-118.513524954892	
828800000	-14.4170383801971	-118.291936623823	-0.230496229552644	-26.141826355149	-0.238136007919681	-26.3332120513504	-14.4538976002629	-118.218074820427	
832000000	-14.4068537077582	-118.443455478692	-0.23266466608701	-26.4876196149962	-0.251998075756597	-26.4274662428164	-14.4200789374716	-118.873275519876	
835200000	-14.2912567981188	-118.540763936405	-0.235108672612826	-26.5036807992958	-0.249670749210887	-26.5314657799926	-14.2192648879784	-118.836348831698	
838400000	-14.3292381728459	-119.080134361171	-0.245889853457375	-26.6284682986159	-0.25334197841436	-26.5784998230209	-14.2146057967619	-118.745005866003	
841600000	-14.2507522767537	-118.906874676071	-0.235604320977059	-26.6501179881963	-0.260220523576858	-26.7214892817561	-14.277568909824	-118.833132586981	
844800000	-14.2683473500182	-119.124719211261	-0.238277493868267	-26.6648043855027	-0.252135297688301	-26.8173787767025	-14.2907500409804	-118.975013237386	
848000000	-14.2222738397459	-119.288866074649	-0.256401268081027	-26.9133817185376	-0.255596799649461	-26.8615179008774	-14.2846785467214	-118.879277815754	
851200000	-14.2584255701766	-119.43095563644	-0.239310895254431	-27.0000274322006	-0.264700820726681	-26.7955755558268	-14.2083720685911	-119.061753863379	
854400000	-14.1571540227291	-119.392365382879	-0.255909531787087	-27.0930558959996	-0.262016786750283	-27.0921672098727	-14.2167689469676	-119.223525817381	
857600000	-14.1923111946705	-119.211865505787	-0.240158092691699	-27.0808008461707	-0.252068829690932	-27.1610945721395	-14.0964615632442	-118.53643923435	
860800000	-14.19816488945	-119.653845629654	-0.259245218127982	-27.1822838162491	-0.256763129014698	-27.3499105327571	-14.1969311479298	-119.68050905827	
864000000	-14.1628501322357	-119.729280828164	-0.253003237844001	-27.2639280597792	-0.244426460619278	-27.3286153330353	-14.0877061837368	-119.722544427154	
867200000	-14.1019087367782	-119.281907453512	-0.258123584903037	-27.3918386648306	-0.249136201633166	-27.5038969924831	-14.1359610781173	-119.362134948229	
870400000	-14.0224185240348	-119.416284135492	-0.259445924846502	-27.5999807650387	-0.254851453642785	-27.5266572644542	-14.0530816365337	-119.642588985592	
873600000	-13.9492654766566	-120.055849098055	-0.243924195413932	-27.6205442684043	-0.261066927583649	-27.7315211093388	-14.0416056890344	-120.160170029717	
876800000	-13.9658409509033	-120.141554324608	-0.25995279129472	-27.7392505391982	-0.254957155302727	-27.6793342968044	-14.0051045093704	-119.547782629967	
880000000	-13.9876606500821	-119.270584087242	-0.246818841480824	-27.9596770300679	-0.262235880982499	-27.7990612275169	-13.9984025615109	-120.577117078949	
883200000	-13.9646164782783	-119.846507416313	-0.268719376991843	-27.9380163354007	-0.262104992233086	-27.9473831519918	-14.0147591261289	-119.717768896507	
886400000	-13.8437046300342	-120.229482087169	-0.255478955909806	-28.0370687723308	-0.253738671236072	-28.0357640207781	-13.9478582887208	-119.927186146709	
889600000	-13.9503413684074	-120.125717411978	-0.259123308394775	-28.1314357467306	-0.27499896816802	-28.1138241729606	-13.891498097925	-120.054564287691	
892800000	-13.8524761184343	-120.338389093733	-0.273410155563789	-28.1640339301578	-0.269315470471053	-28.1623203174462	-13.8629325780721	-120.217071428677	
896000000	-13.851338125942	-121.135529257761	-0.273417351231153	-28.2538746189318	-0.264607180120506	-28.3498473741385	-13.8524369483902	-120.518594630615	
899200000	-13.8513697161295	-120.398325808276	-0.254950885795313	-28.4961863930759	-0.274166216550923	-28.4111733620766	-13.7129603001096	-120.53903708941	
902400000	-13.7371247257303	-120.639273609602	-0.282514270937983	-28.4742781353976	-0.271198184447637	-28.5324335076476	-13.8275780096594	-121.050610465263	
905600000	-13.765242061933	-121.49698310786	-0.264152081102385	-28.6091961247995	-0.274612186733037	-28.6540138412626	-13.8533407258594	-120.346721982839	
908800000	-13.8104929566619	-121.379719745673	-0.280145903732545	-28.7203597944785	-0.285757894437292	-28.5825992141988	-13.7761920951307	-120.881180934109	
912000000	-13.7309871513993	-121.121380541023	-0.274094847668206	-28.7588283049842	-0.291378746829594	-28.7605207170594	-13.6782965294459	-121.055603190109	
915200000	-13.6807686472784	-121.231280725007	-0.28249923393117	-28.9025483436882	-0.294624351046147	-28.9032699435306	-13.6844971185565	-121.095424066118	
918400000	-13.641575440214	-120.907921970316	-0.275348137490934	-28.9924757133938	-0.279279128865725	-29.0427518410678	-13.6923899726664	-120.963763514489	
921600000	-13.6487938478249	-121.618496684663	-0.279834242192133	-29.0810920018345	-0.280635677948168	-29.1378985689907	-13.6176564332177	-121.029683359785	
924800000	-13.5919021279207	-121.781938927054	-0.286679891123284	-29.1265328649804	-0.279163009260091	-29.1481784124746	-13.5680989560936	-121.953537352972	
928000000	-13.6522222784827	-121.438015981487	-0.271781214090288	-29.2811678051306	-0.301545445303281	-29.2709028410543	-13.6824197227625	-121.380094942584	
931200000	-13.5074441230951	-122.03167437992	-0.306432289067736	-29.2243994291066	-0.287545520194807	-29.3357762793196	-13.5398017577222	-121.076643684943	
934400000	-13.5510873023626	-121.835373344406	-0.28128904117982	-29.539557352586	-0.297383026409332	-29.5257836761276	-13.5144430486118	-121.699149373252	
937600000	-13.5313945481374	-122.282827374197	-0.279085733153299	-29.553065107974	-0.288515479732332	-29.490978439334	-13.5097037430509	-121.817050896404	
940800000	-13.4752355099885	-122.113088845106	-0.283473048462552	-29.6202324286866	-0.289468460717981	-29.6087487050125	-13.4157522992528	-121.603681929167	
944000000	-13.5179954537123	-122.583254745667	-0.279682346647097	-29.6877314556827	-0.279370477784844	-29.6702730750692	-13.506317521775	-121.930842716079	
947200000	-13.4447422426235	-122.51758988629	-0.296792312630906	-29.8089670449248	-0.281375344949394	-29.9260485503989	-13.361099159855	-121.802179364105	
950400000	-13.3372373437209	-122.023717906542	-0.286555322877988	-30.0065113757183	-0.303018322135961	-29.9340398435032	-13.3062331416082	-122.152524364504	
953600000	-13.4171946602889	-122.034046827587	-0.287084907054558	-29.8983494365361	-0.298844880989714	-30.0930843539845	-13.3554579632237	-121.969956167012	
956800000	-13.4354624523357	-123.218035439851	-0.296714091214888	-30.1842795223187	-0.302573681445082	-30.1857505101954	-13.3404097752732	-122.678940635174	
960000000	-13.3437653895114	-122.567479012347	-0.295593184334657	-30.2975298261689	-0.30755398257545	-30.2314270987142	-13.3377740382307	-122.08084407058	
963200000	-13.2906532272097	-123.090406980302	-0.292049918487448	-30.2835074929474	-0.293242708195108	-30.3671631190586	-13.291526475982	-122.095966993118	
966400000	-13.260687217358	-122.90517696549	-0.309847763234733	-30.4116729864415	-0.306284331343485	-30.4851588715671	-13.329150139648	-122.1687367343	
969600000	-13.2763495242578	-123.224426330821	-0.296624065433383	-30.457893025693	-0.303891969619837	-30.5539743689857	-13.2011978187593	-122.477645605574	
972800000	-13.2882762788267	-123.082669046008	-0.297102859911727	-30.6130709968058	-0.304279624611683	-30.6722417888194	-13.3229527459347	-122.342225585558	
976000000	-13.2475770074761	-123.642858579707	-0.312015809208198	-30.8192475533788	-0.313332035874933	-30.759037413916	-13.2857317441474	-123.004336462593	
979200000	-13.1667095873607	-123.928557319363	-0.301770484980193	-30.8016048183276	-0.310521327554612	-30.921801749343	-13.1186080220451	-122.602045681598	
982400000	-13.1095218851455	-123.552772016405	-0.296230240583659	-30.8455480526809	-0.319677193382493	-30.9028625216884	-13.1434161630635	-122.404809170055	
985600000	-13.1082698123289	-123.568304216957	-0.307789320775224	-31.011271469109	-0.31187810750798	-31.0349590969028	-13.0830142868548	-123.26421661924	
988800000	-13.1121859848035	-124.138103436623	-0.313317060771908	-31.1130550148872	-0.316465139817169	-31.1759349760088	-13.1098710586279	-123.359456297975	
992000000	-12.9936514037622	-124.35771026158	-0.307824345142161	-31.1480409255348	-0.31229998976486	-31.3174792385391	-13.029382907317	-123.122505630965	
995200000	-13.0022024893635	-123.508232194583	-0.310085445284004	-31.2338506379434	-0.320841081859628	-31.2283051167216	-13.0935175672059	-122.661941878004	
998400000	-13.0338157864408	-124.355567377459	-0.301274926939442	-31.486660935881	-0.323039541395063	-31.3676557937998	-12.9781492881414	-123.200980907996	
1001600000	-12.9786631776269	-124.085439347661	-0.32892332819821	-31.559906644889	-0.326063222481104	-31.5542484146746	-13.0402955158929	-123.116468898922	
1004800000	-12.9602342106661	-124.311816568113	-0.312164525090427	-31.6904629691777	-0.322121681612569	-31.6382782653376	-12.9394986622553	-123.625159611321	
1008000000	-12.9817038403626	-124.784214546425	-0.306309986713996	-31.7106573201947	-0.325823512679114	-31.6225625605947	-13.0276777147735	-123.516526402767	
1011200000	-13.0070398335605	-124.542890455489	-0.32386127480479	-31.7619787805482	-0.323685904064169	-31.8283503387015	-12.9435474054204	-123.21235754131	
1014400000	-12.940598102003	-124.743039616476	-0.314242950019803	-31.9033942703118	-0.332142947390255	-31.9767809661341	-12.9683570012408	-124.101492067397	
1017600000	-12.9126744997816	-124.978018179063	-0.329191763505984	-32.0075351133872	-0.336407701017509	-31.9476320248595	-12.9140393405236	-123.969357295422	
1020800000	-12.9433685486907	-124.714849975617	-0.327797185689282	-32.0711536289526	-0.33733803163009	-32.0828559377292	-12.8985367869612	-124.149773480715	
1024000000	-12.8715056884059	-124.745774670007	-0.319028026829357	-32.2120847987426	-0.321236251483785	-32.2731671433377	-12.8400147645688	-123.309824337177	
1027200000	-12.8366554634053	-125.148602681813	-0.326925595205757	-32.2692088432516	-0.339355719868118	-32.2194796683725	-12.7932329579444	-124.376803197772	
1030400000	-12.6949168280241	-124.789731634414	-0.322187438382244	-32.4262523590572	-0.340148639580153	-32.4027077621206	-12.804183903974	-123.512024117911	
1033600000	-12.7408492565762	-124.976263295623	-0.32416403461921	-32.5043205941323	-0.332621682693229	-32.464754960984	-12.7131278090739	-124.168647397205	
1036800000	-12.7521785793244	-124.740950922644	-0.327297965272188	-32.5574718027632	-0.338953067425098	-32.5568554574618	-12.7744019797029	-124.088764291626	
1040000000	-12.7388268667969	-125.485417968637	-0.352778497305205	-32.6017068698369	-0.334831925054309	-32.6608734279675	-12.7241613199138	-124.310041990528	
1043200000	-12.7440950182025	-125.3551744358	-0.331434595851996	-32.8200839758838	-0.333700310354078	-32.6873882007829	-12.6637361762786	-124.392244853175	
1046400000	-12.7712304963824	-126.020478353155	-0.325314897350536	-32.7569776192641	-0.344120102447595	-32.8233503217126	-12.7462180406992	-124.183863583009	
1049600000	-12.7104736134007	-125.271290786289	-0.331190364345801	-32.9438288285571	-0.340003034224505	-32.9527572625149	-12.7137869295106	-124.581760060162	
1052800000	-12.6804097711306	-125.8121826136	-0.329440556892067	-32.953288813057	-0.330797120380236	-32.9881435656271	-12.6582318666307	-124.469897120208	
1056000000	-12.6329145093756	-126.024331735432	-0.332081075711595	-33.2328201986266	-0.343334159674315	-33.1027460332133	-12.5591017749735	-124.520233352129	
1059200000	-12.6231271959811	-125.829858971522	-0.333670389143518	-33.33661563536	-0.34192460182279	-33.2456031998091	-12.6280057503496	-124.523037843208	
1062400000	-12.5830889249781	-126.338025414216	-0.35644988712622	-33.3203295221136	-0.351094104064641	-33.3299599089184	-12.5928489231512	-124.91297957455	
1065600000	-12.5055194529303	-126.002651975523	-0.336462317401363	-33.4280549122065	-0.352021765808727	-33.3423192034903	-12.5699576953781	-125.19294699393	
1068800000	-12.5191818108325	-126.665346282483	-0.35234729727095	-33.5125650225061	-0.36028588308487	-33.5276638559277	-12.5097413039016	-125.444205346833	
1072000000	-12.5331802373566	-126.212201131214	-0.334411817148662	-33.7514193165	-0.345111235413022	-33.6746058283802	-12.5618233569021	-124.74308221268	
1075200000	-12.5419659249601	-126.362383946674	-0.34960235446256	-33.6733144698237	-0.360960523581122	-33.7120584696955	-12.4644607714342	-124.993793902913	
1078400000	-12.4311001541666	-126.569414628065	-0.3356981516507	-33.6824263232573	-0.362348311380866	-33.9225095382333	-12.4551848469503	-125.314549162951	
1081600000	-12.4370304386186	-126.632669730798	-0.336023693383091	-33.8802825851818	-0.349955216152848	-33.9531510002804	-12.4418388152468	-125.176557788944	
1084800000	-12.4846805186298	-127.304150197556	-0.362948598171163	-33.9174525087508	-0.342391096157039	-34.0786583700911	-12.4343593351819	-125.455833958034	
1088000000	-12.4028154796759	-126.747107450684	-0.350205023074429	-34.1227464978736	-0.340695162451524	-34.048451671513	-12.4211302146022	-125.241702479034	
1091200000	-12.4579270010568	-126.899408609544	-0.3682807804661	-34.1168486595141	-0.352339740680778	-34.1870118536763	-12.4967242831523	-125.48180152261	
1094400000	-12.4105353390636	-127.13185150257	-0.360416788419033	-34.2989838546868	-0.355462432574981	-34.353116254977	-12.3949183060238	-126.012948521952	
1097600000	-12.3402732922881	-126.842506909997	-0.345264275830935	-34.424694247528	-0.361773388546521	-34.3612359554151	-12.3726022261717	-125.413976895975	
1100800000	-12.2984058022397	-126.940970513321	-0.356204245990012	-34.5205283145758	-0.367608428329383	-34.4784747929014	-12.3078115081979	-126.018338831876	
1104000000	-12.3156639709855	-127.159017219812	-0.349610825296371	-34.6006559354723	-0.363195757097154	-34.5546766399698	-12.3853183371042	-125.80130466944	
1107200000	-12.257518698263	-127.815044698273	-0.364865848242505	-34.7168081614931	-0.361335925778599	-34.6911891558751	-12.294545433055	-126.30454703955	
1110400000	-12.2272210841016	-127.775951020062	-0.356010634688752	-34.6806844800935	-0.360005635568663	-34.7813214817363	-12.1997773258203	-126.359750479152	
1113600000	-12.2296071496211	-127.953404307954	-0.356577774196751	-34.8592107445838	-0.348075110130479	-34.7187640439533	-12.2584833319114	-126.357146365603	
1116800000	-12.2688098467873	-128.175179951316	-0.367755418222693	-34.8976706064729	-0.372165118550902	-34.9249557632493	-12.3405858247058	-126.87541420299	
1120000000	-12.2482645631158	-128.075398741558	-0.380652597807088	-35.0050467965266	-0.377824661371032	-35.0668213015963	-12.2086375880055	-126.402349269272	
1123200000	-12.1977490643096	-127.904072382023	-0.357434903004011	-35.232231618333	-0.374722344636258	-35.1792967766318	-12.2538882647275	-125.978700579835	
1126400000	-12.2076754957212	-128.346886453828	-0.358301530762327	-35.1661898289765	-0.382917062092434	-35.1531188373122	-12.2023667666569	-126.584559985474	
1129600000	-12.1572968803149	-128.15747591437	-0.359196285481132	-35.3539169077647	-0.377474582597722	-35.341076103158	-12.1541366464167	-126.900353076099	
1132800000	-12.1480409099522	-128.006976817551	-0.359493279518245	-35.4035313503256	-0.377007349939016	-35.3311459391015	-12.1350911756837	-126.614379325191	
1136000000	-12.0994621128437	-128.491349908405	-0.376868157200317	-35.5045864215351	-0.381840582159768	-35.4661361960884	-12.1330023442804	-126.606377614421	
1139200000	-12.1231880551164	-128.524910992472	-0.377254190379957	-35.6597954943214	-0.376432375330698	-35.5733018361582	-12.1312671574151	-127.100218074231	
1142400000	-12.1146214580452	-128.331852067953	-0.377201862253884	-35.7480035209494	-0.384280213885897	-35.6402525340006	-12.1487032017266	-127.002118281791	
1145600000	-12.1021813608221	-128.438492777914	-0.382949418275439	-35.8171453746964	-0.376192615226964	-35.9301344523823	-12.0835467922795	-127.169305830232	
1148800000	-12.0078250553277	-128.741896568108	-0.367883743058478	-35.9153655814117	-0.386048312836456	-35.7776682040303	-12.0791876492957	-127.152386644808	
1152000000	-12.0186023155717	-129.143304799532	-0.392942501890132	-36.066948046913	-0.404817289460389	-36.066820646065	-12.0769647701367	-127.836320281349	
1155200000	-11.9535575371999	-129.346432431165	-0.376789752431802	-36.0919533601477	-0.386201297497791	-36.0944761345732	-12.0462131331746	-127.813645207162	
1158400000	-11.9037664580477	-128.978958461569	-0.369063453205648	-36.2936322633411	-0.387169829747995	-36.1817443420923	-12.0005244103642	-127.782220278407	
1161600000	-11.9387356625717	-129.169725606071	-0.400852012839906	-36.283044615446	-0.386842170371458	-36.2941643431674	-11.9906546977234	-127.439527916079	
1164800000	-11.8991581683548	-129.285781938777	-0.387852007779084	-36.3644156902442	-0.396522854406507	-36.4517298957874	-11.9886853249786	-127.810507139773	
1168000000	-11.9105979602714	-129.382604463598	-0.380002448327509	-36.4951975930492	-0.392288422494964	-36.465066175554	-11.8952533709721	-127.241236851989	
1171200000	-11.9141980420343	-128.950524062859	-0.386777355714142	-36.5508826891818	-0.410641862087148	-36.5815630566247	-11.8997075299835	-127.894370997664	
1174400000	-11.8683187495859	-129.813578588466	-0.391148488708253	-36.6361528305736	-0.386524456068254	-36.7727722479811	-11.8401695685577	-128.228938047285	
1177600000	-11.8890103369318	-130.015207411249	-0.394834256919289	-36.8086595722237	-0.397985219252989	-36.714542512642	-11.7607968131942	-128.426363640884	
1180800000	-11.8370624404095	-129.797321600988	-0.413170671617409	-36.8870173088098	-0.413784655292682	-36.8658009807115	-11.8615852214412	-128.213551837423	
1184000000	-11.7719406530094	-129.655033176863	-0.399134372845178	-36.9234819793091	-0.395010313921355	-36.952732913216	-11.823294218118	-128.165901374523	
1187200000	-11.8434635932104	-129.714659781366	-0.386473118933335	-37.0252784656552	-0.394249694881515	-37.0151502810819	-11.7958292007641	-128.544024134696	
1190400000	-11.7307010853443	-130.041012939292	-0.39318199145061	-37.2211623111625	-0.408730586842162	-37.0855141988446	-11.8100279707439	-128.271196362437	
1193600000	-11.7254027208593	-130.011316708837	-0.411070125827081	-37.2765396797656	-0.409880544190707	-37.1944007899329	-11.7593660695571	-128.666664320165	
1196800000	-11.7374874613822	-130.297778250216	-0.411940399010442	-37.4146957030454	-0.422300240522055	-37.2547894237118	-11.7628929195882	-128.754445660527	
