!Keysight Technologies N9950B: A.12.38
!Date: Thursday, 01 June 2023 13:49:02
!Timezone: (UTC-06:00) Central Time (US & Canada)
!Model: N9950B
!Serial: MY61131330
!GPS Latitude: 
!GPS Longitude: 
!GPS TimeStamp: 0001-01-01 00:00:00Z
!GPS Seconds Since Last Read: 0
!CHECKSUM:1632191688
!Correction: S11(ON U)S21(ON U)S12(ON U)S22(ON U)
!S2P File: Measurements:S11,S21,S12,S22:
# Hz S DB R 50
800000000	-14.6013624621528	-129.020183908335	-0.28505593478981	-24.4101942240865	-0.290468175287172	-24.3892978385386	-14.4506986987044	-106.88221057719	
801700000	-14.4688438697137	-129.509988776993	-0.28460599007356	-24.473736043454	-0.291571280242778	-24.5338754250249	-14.3734462667192	-106.811607746473	
803400000	-14.5404384854134	-128.926686515454	-0.286557010822611	-24.6172033236049	-0.302077759077784	-24.5600150804395	-14.4136574103859	-106.390599082717	
805100000	-14.6471852851001	-129.391188940084	-0.291429567962959	-24.5422351513258	-0.309879788072002	-24.4806726956451	-14.4380362991063	-106.285635647481	
806800000	-14.5788669036982	-129.356668584732	-0.304135814620893	-24.739890681935	-0.300425383575898	-24.6676944712096	-14.2722338588423	-106.646048972718	
808500000	-14.5064844064673	-129.684882035923	-0.292192959179607	-24.6810685035277	-0.308588356187952	-24.6638428213217	-14.324473367422	-106.391010812853	
810200000	-14.5161772284871	-129.841600061866	-0.293559803197076	-24.7441931117871	-0.299319362913593	-24.6082631954274	-14.3669389584082	-106.545680068367	
811900000	-14.3759645721091	-129.859097382831	-0.308188180225437	-24.7367323909361	-0.293669916418441	-24.8569564398868	-14.4028302461371	-106.808955369972	
813600000	-14.4984818524509	-129.497789504599	-0.305149855536907	-24.836198477543	-0.288052256280904	-24.866387532752	-14.2576906067523	-107.281780038554	
815300000	-14.4075502153176	-129.807543505643	-0.307130184587999	-24.9375859910181	-0.30418731932057	-24.8818479030589	-14.2977023249486	-106.78165860804	
817000000	-14.474755409237	-129.767807131881	-0.295046620481616	-24.8952616343595	-0.304034520937021	-24.9709892137055	-14.2577444860512	-107.149718964681	
818700000	-14.4069320456342	-129.86110981197	-0.288176920285718	-24.9514504693077	-0.312836953601644	-25.0080391127886	-14.248142308335	-106.944855959893	
820400000	-14.3674073710073	-130.258482958018	-0.281291720471217	-25.0736224509933	-0.306861572868018	-25.0499389815687	-14.2705198221551	-107.272765821317	
822100000	-14.429037280172	-129.932032967719	-0.293328156533135	-25.01511465106	-0.299401173654161	-25.0662668933249	-14.270922192807	-106.865137514906	
823800000	-14.3415598330181	-130.342576416476	-0.295474558108272	-25.0626477845939	-0.308430072922141	-25.080479229489	-14.2297836007566	-106.685264046271	
825500000	-14.369038780136	-130.340047698676	-0.292855551723606	-25.1341195442382	-0.303614702052111	-25.3015466279148	-14.2033037979446	-107.533747526281	
827200000	-14.3620670182131	-130.20048156369	-0.305935787642581	-25.0914975059684	-0.312474905733758	-25.0591621225997	-14.1395631356725	-107.086145680307	
828900000	-14.3346439462919	-129.812475668225	-0.295707351447174	-25.2473734576279	-0.332106957351689	-25.2813763395789	-14.0427201459869	-107.522898041388	
830600000	-14.1912369619925	-130.423579429878	-0.290165884117049	-25.3515845814561	-0.302256082776029	-25.3481699457344	-14.1473452899088	-107.611395956951	
832300000	-14.2636203281261	-130.090392019605	-0.298933589681469	-25.3438258031614	-0.318738312336291	-25.3341726739426	-14.1193822100117	-107.431323225486	
834000000	-14.2014049234239	-130.953843299761	-0.305429371470075	-25.3706861441554	-0.321610724145804	-25.3907227604619	-14.0909490029661	-107.41937153739	
835700000	-14.2296170834396	-130.761400371194	-0.303303789802673	-25.4394081841754	-0.306216507225307	-25.4889904884814	-14.0784724323322	-106.692091026694	
837400000	-14.2201843920655	-130.440331393051	-0.296026930066575	-25.5410639796103	-0.31460370555163	-25.5066608391092	-14.0066700913657	-107.274094787392	
839100000	-14.1281123471463	-130.628673574438	-0.313661676316113	-25.6124055528931	-0.313575775638174	-25.6177934973661	-13.9684399835101	-107.279228727651	
840800000	-14.1956861419655	-130.897821993508	-0.314985399855289	-25.6022899999178	-0.317784929093293	-25.6358173471453	-14.0138719214036	-107.197073850466	
842500000	-14.1717720055289	-131.164654306717	-0.308061436055974	-25.6560609218246	-0.3218401358123	-25.6034447617579	-14.0859944444936	-107.810759163491	
844200000	-14.171869061514	-130.977347263826	-0.308512901775327	-25.7356778503158	-0.314393974435976	-25.7262793565506	-13.9546296549146	-107.707337656159	
845900000	-14.1343907129089	-131.066437633829	-0.311553529750794	-25.8315359842534	-0.314923991328573	-25.7184663002376	-13.9508203558955	-107.951927457969	
847600000	-14.0891682663699	-130.800590137897	-0.31698778665401	-25.8119829533919	-0.31528951755006	-25.8427778436964	-13.9946707501881	-107.578052417553	
849300000	-14.1247814930772	-131.14287327415	-0.305686208017945	-25.8648033509615	-0.313567954023804	-25.9138381084807	-13.9682480337059	-107.762908726237	
851000000	-14.0909321459591	-131.442974068646	-0.309894873446974	-25.8814722927638	-0.326382903086474	-25.9039953063019	-13.9461553652724	-107.881153490739	
852700000	-14.068537922863	-131.252908877501	-0.317120114645173	-25.9495594266081	-0.318316940774843	-26.0353542771268	-13.9725102384463	-107.318103511429	
854400000	-14.0892044799424	-131.453022738395	-0.321128958892299	-26.0721642445508	-0.332213941900384	-26.0573400308786	-13.9314900487533	-107.835372950494	
856100000	-13.9267090842735	-131.601843090887	-0.31877511305855	-26.0663832493291	-0.329034575574144	-26.0686316458162	-13.9014821868215	-107.891508175401	
857800000	-14.0153228447712	-131.614396696347	-0.304167438822181	-26.0782380762891	-0.324193250310063	-26.1342781402521	-13.7782427390728	-108.23619983912	
859500000	-13.9867128533871	-130.771846907683	-0.320181441422171	-26.1166451182172	-0.336901503200155	-26.2424903400393	-13.8635697425185	-107.602095370514	
861200000	-13.9860158979114	-131.122128376122	-0.319872075135581	-26.2798435812458	-0.327271118485132	-26.2092016752691	-13.7628213056459	-107.760573114638	
862900000	-13.9994166976449	-131.431330648137	-0.301388026457394	-26.2340239461308	-0.327716927481797	-26.2761348074786	-13.8791423362418	-107.57261598316	
864600000	-13.8964517927388	-131.388939944812	-0.30998370346257	-26.3224670578482	-0.336188376736612	-26.3446353209158	-13.807348485718	-108.019023184732	
866300000	-13.8382644917852	-131.51733701363	-0.318763510121891	-26.355633460882	-0.327197246824384	-26.4142236127187	-13.798895713183	-107.881815397626	
868000000	-13.8455424512704	-131.263107058817	-0.310945737779097	-26.4368002181862	-0.318482503197111	-26.4125017334066	-13.7386434880043	-108.111955691854	
869700000	-13.9723324806868	-131.660376665679	-0.324064384505171	-26.4895375497596	-0.315380361384204	-26.5121268468462	-13.8052860946437	-107.444099553937	
871400000	-13.9056362511421	-131.790064871529	-0.330173527165397	-26.5402308781436	-0.342647290890401	-26.491243151959	-13.8102256033243	-107.923680446182	
873100000	-13.8587603021	-132.154320190357	-0.322472060601396	-26.621996225867	-0.342006752750408	-26.5554532884088	-13.7273889159366	-108.338796325704	
874800000	-13.8503616055306	-132.134390610269	-0.329959941239369	-26.664842781067	-0.334054250654551	-26.5779986264349	-13.6917234542559	-108.368953905297	
876500000	-13.8064956113293	-132.183473529049	-0.315345170721193	-26.6853354792163	-0.337696990430145	-26.6284614180865	-13.6303788311928	-108.27216532027	
878200000	-13.8107162580342	-132.069160559646	-0.326499311966294	-26.675840991262	-0.328092826584991	-26.7475071050548	-13.6449661545877	-108.350235526212	
879900000	-13.8270815058122	-131.674011827754	-0.340020112097556	-26.8346042722615	-0.330242081129044	-26.7252895129087	-13.6559774229632	-108.101005213954	
881600000	-13.8025386262419	-131.893957919267	-0.327984429615032	-26.7873349607455	-0.336045912007155	-26.7630214092085	-13.6215740230303	-108.534109466434	
883300000	-13.732457695613	-132.186834241133	-0.332047279167977	-26.7953469822781	-0.330065864693874	-26.8025046346228	-13.5794423772543	-108.746184260822	
885000000	-13.7094255912759	-131.772194847773	-0.329383661258646	-26.9555963967739	-0.361087502048251	-26.952181571637	-13.5749089635545	-108.707576601281	
886700000	-13.7327314766212	-131.708630177888	-0.335696416298176	-26.8957266731678	-0.33149281233364	-26.98850371723	-13.5969611144493	-108.371927044268	
888400000	-13.7427022748271	-132.708789156771	-0.337406385579661	-26.9809361470557	-0.34371783591331	-26.9737328611493	-13.5110064922802	-108.696433835038	
890100000	-13.6703472123778	-132.5695005522	-0.328372747564212	-27.0478622799045	-0.343756561216052	-27.017116373701	-13.5622687622673	-108.511168284984	
891800000	-13.6739229652243	-132.351901958325	-0.322395263061763	-26.9703912475192	-0.346930443343548	-27.1590772357487	-13.5950313045349	-108.606955107233	
893500000	-13.6980022867053	-132.29212261542	-0.332068283776807	-27.1706184741924	-0.341599589490926	-27.1331047954719	-13.5047501853181	-108.792598340391	
895200000	-13.6817597699087	-132.071695156547	-0.336441053656455	-27.1365631698565	-0.346438879003897	-27.208677827522	-13.4324276170206	-108.858791229087	
896900000	-13.6465748949588	-132.412235403216	-0.334780793527233	-27.2702569690262	-0.339904501813601	-27.2199662404842	-13.4912445313933	-108.766193658013	
898600000	-13.612224932721	-132.663381022995	-0.347477858888328	-27.2073125699444	-0.337815369623864	-27.3750081407631	-13.5116962883272	-108.861083210811	
900300000	-13.5994459610483	-133.20841712105	-0.341502757970133	-27.3450203606627	-0.345165298186247	-27.3479750066411	-13.4825250691357	-108.945412540893	
902000000	-13.5741182391884	-132.535234457383	-0.341944575924768	-27.4585520415632	-0.353252843240575	-27.3240783744471	-13.4392752734742	-108.602859261967	
903700000	-13.5570618171738	-132.803467440694	-0.352849550848422	-27.2275196763748	-0.355593980527876	-27.388310420103	-13.4536944037782	-108.638779119905	
905400000	-13.5333116217757	-133.047666930181	-0.351402988565742	-27.4378805569071	-0.356868710503144	-27.5239393194568	-13.4318191857587	-108.943304788632	
907100000	-13.5704370722038	-133.208733034953	-0.340121437553677	-27.5136796322502	-0.353337567980501	-27.4927113407024	-13.3603180927396	-109.408475155557	
908800000	-13.4847596590595	-133.351285617979	-0.347732112441942	-27.6188271611581	-0.347735677487822	-27.5700754286002	-13.3912644897389	-109.611501794307	
910500000	-13.508683055742	-133.080190084222	-0.362471075902987	-27.6478027866656	-0.342164098387998	-27.6776706918734	-13.3242986121143	-109.290731646455	
912200000	-13.5137666505899	-133.012707695422	-0.343360838464483	-27.7444946852237	-0.363308303588535	-27.7853773444201	-13.4047003929743	-109.471259295698	
913900000	-13.521305943576	-133.647328517854	-0.342096707089546	-27.7390802749418	-0.361171224461406	-27.7348677799367	-13.4041927187111	-108.703553708967	
915600000	-13.5234380117119	-133.197530259915	-0.351047633286373	-27.7423101264666	-0.345047581203526	-27.7894181516646	-13.3678666313798	-109.401947993455	
917300000	-13.4434336962655	-133.808264668562	-0.345943807124431	-27.7895413531209	-0.345568049399351	-27.793429695652	-13.3790243739577	-109.788365958379	
919000000	-13.4404375982423	-133.201725227792	-0.348350324933322	-27.8694638353029	-0.348848007904574	-27.8852288808781	-13.3475171825889	-109.255900609633	
920700000	-13.4067380874181	-133.556439122043	-0.359550400662742	-27.919871581626	-0.362119453215117	-27.839275972811	-13.3008797697766	-109.434500833111	
922400000	-13.4373734523999	-133.446197457387	-0.359938318638065	-28.0167420204789	-0.350808336853483	-27.9615978880626	-13.2911202844851	-109.529375015883	
924100000	-13.386956858805	-133.163374978198	-0.364563994904741	-28.0027838061398	-0.366251980568322	-28.0354019293111	-13.21078585953	-109.428248528159	
925800000	-13.4550625277596	-133.553332332226	-0.3442372186896	-28.0738801766683	-0.363159716606142	-27.979706903399	-13.3141120290993	-109.407124922922	
927500000	-13.3974541682294	-133.329118922893	-0.353250574511646	-28.0852742666913	-0.355003554840305	-28.040166662297	-13.2312861634088	-109.71750860768	
929200000	-13.4148494571508	-133.586216445514	-0.351518828002025	-28.2344081452002	-0.364831676681846	-28.1559116514091	-13.1360225758376	-109.868770829528	
930900000	-13.3475570985832	-133.900738824939	-0.352042448241843	-28.2887135266448	-0.368977954812177	-28.2541875511631	-13.2350022598399	-109.605800331282	
932600000	-13.3225870478395	-134.189469711193	-0.358285039540185	-28.2111116156161	-0.355183491410579	-28.3407595712568	-13.1382696541106	-109.270366766517	
934300000	-13.3366652295328	-133.828182842728	-0.360868028992593	-28.3180186405716	-0.373629175612627	-28.1839467732719	-13.2664821625029	-109.992392704789	
936000000	-13.3056310160906	-133.630784291242	-0.353011149988415	-28.2658780746444	-0.369517784364965	-28.3378358462735	-13.1115008982655	-109.594268453551	
937700000	-13.3736624220824	-134.379337668967	-0.342163472210836	-28.4240657975093	-0.37103398043008	-28.3831043032206	-13.1813474868249	-109.430586538296	
939400000	-13.262219379986	-133.777976568859	-0.337178028135288	-28.3451218046195	-0.367926643164762	-28.4659055304463	-13.1564172527519	-109.716413684132	
941100000	-13.2260905243765	-134.476027108223	-0.362927906472929	-28.4787728463798	-0.384119153039369	-28.5380858415805	-13.1936395567404	-109.821159524419	
942800000	-13.2954430496653	-134.184778614567	-0.358407987056554	-28.5165789711711	-0.376838214275468	-28.5698538985964	-13.1466353617633	-109.551856257383	
944500000	-13.2458623711171	-133.986656944547	-0.359441602019091	-28.6323111092761	-0.369389224986811	-28.4894881712186	-13.127795955269	-109.185570256653	
946200000	-13.2750926720325	-133.988204971923	-0.358277193490752	-28.6604773991268	-0.379329101135872	-28.6420741893473	-13.0387557136719	-109.764931976415	
947900000	-13.18968884519	-133.936611631399	-0.366402671086049	-28.7295390494292	-0.378925024835145	-28.7852891778015	-13.051049319423	-109.990594950824	
949600000	-13.1538337224988	-134.845830813502	-0.359857325838077	-28.7608142297852	-0.382367171190124	-28.7689529057629	-13.0927395085034	-110.281508649416	
951300000	-13.1872232301275	-134.391895026339	-0.372399982634792	-28.851480583649	-0.367762103095499	-28.8530872566302	-13.0430725750538	-109.916896057926	
953000000	-13.1308387982261	-134.428397841111	-0.376274748912872	-28.8057106054226	-0.361994958789951	-28.9029086383679	-12.9672276835816	-110.167468397826	
954700000	-13.1762648952477	-135.117156003573	-0.362976269839251	-28.9308489908774	-0.375921487485643	-28.7826830361236	-13.0643098523088	-110.173109946466	
956400000	-13.1602507000249	-134.511174469803	-0.379166602171153	-29.0154934973262	-0.378230882174579	-28.8290349948433	-13.0092232130015	-109.797757296168	
958100000	-13.0884158390522	-134.76944428533	-0.37464835027956	-28.9322435103991	-0.366793757942605	-28.9916248701979	-13.0191443774139	-110.430718094347	
959800000	-13.1825305629729	-135.028551848929	-0.387734794237283	-28.9828075173279	-0.379534413398946	-28.9622590501215	-12.9816090885706	-110.239970420785	
961500000	-13.1261593168946	-134.65856372184	-0.367997943926973	-29.1356304020172	-0.380247698944856	-29.047525797808	-12.9031316200693	-110.015523277504	
963200000	-13.2052897252353	-134.508588348714	-0.371100753343135	-29.2590608719382	-0.388777226590559	-29.2434469745084	-12.9032466786409	-110.173588872618	
964900000	-13.0993405091504	-135.022590113843	-0.355669727865073	-29.2737843454748	-0.381002563254372	-29.1640087041473	-12.9380580496667	-109.699824656008	
966600000	-13.0458416002755	-134.963909490561	-0.375869885425541	-29.2032970284997	-0.37882340005096	-29.2070653473015	-12.9033622710747	-110.125041814563	
968300000	-13.0491202809379	-134.858298236301	-0.372534014160125	-29.2578622700322	-0.396801879670393	-29.3361043226368	-12.916745800933	-110.410203289776	
970000000	-13.1027975987379	-135.14462791894	-0.377582589247218	-29.3879902010943	-0.397148466644016	-29.34915469467	-12.8958181344057	-109.727311575565	
971700000	-13.0344689197287	-135.204585686065	-0.378396433092159	-29.4397429379826	-0.38114599767859	-29.381377198942	-12.8865898746325	-110.221346074196	
973400000	-13.0558084850457	-135.410642573579	-0.386610167198157	-29.5137166088291	-0.378103131591929	-29.436051933908	-12.8032671462606	-109.806689314995	
975100000	-12.9828524666377	-135.651572622673	-0.386955548190512	-29.4352389814987	-0.386435442615682	-29.4425853775111	-12.8150811646108	-110.366349495066	
976800000	-13.0344471370325	-135.118704475559	-0.381051636781763	-29.4089331198706	-0.388622168162174	-29.4571509582195	-12.8520165668624	-110.585685993577	
978500000	-13.0119769491249	-135.470210072427	-0.387279722428581	-29.4804530644532	-0.382415780408284	-29.5341078868135	-12.8511524569712	-110.538506845055	
980200000	-12.9892351997427	-135.449029830504	-0.375486126662351	-29.7034107397229	-0.393578322077374	-29.5911617447432	-12.8135489140023	-110.479701824378	
981900000	-12.9540402437941	-135.556851498877	-0.401075028417216	-29.7649355216496	-0.375379974497125	-29.673347195084	-12.8435599575792	-110.689865023134	
983600000	-12.9686728399386	-135.612734137547	-0.392550956293483	-29.733479211473	-0.382481935753804	-29.6301899794938	-12.7774152393006	-110.033794786286	
985300000	-12.9698249551985	-135.642684407745	-0.381773815201164	-29.7081472834149	-0.394106185251442	-29.8207880157014	-12.787958301932	-110.454870346128	
987000000	-12.9184297734399	-135.711616183314	-0.374163589761516	-29.8421491600083	-0.390347748688023	-29.8026294062836	-12.8308862688099	-110.331839943636	
988700000	-12.9525927269406	-135.819782747886	-0.375534185844627	-29.9486777003614	-0.385576713552939	-29.7906796674786	-12.7278510580721	-110.829945758747	
990400000	-12.9540849656648	-136.168545529738	-0.40019349381768	-29.9461764299084	-0.398025288996327	-29.970303411896	-12.7267438679116	-110.522021720377	
992100000	-12.8318508378772	-135.73450654638	-0.384914604095573	-29.9777055254711	-0.400822460894451	-29.8361171745574	-12.7447578979018	-110.642797502424	
993800000	-12.8934932911791	-136.152777859402	-0.382012362924393	-30.006605842262	-0.386525003032317	-29.9103780955592	-12.6908227060353	-110.546252699405	
995500000	-12.88062419817	-136.528122389426	-0.404025350498177	-30.0930408029621	-0.384445485281683	-30.0281219361391	-12.7087822167518	-111.143031050079	
997200000	-12.8748483021938	-136.071317300225	-0.393925224837022	-30.1443350255935	-0.395818114247647	-30.1439853292752	-12.6543814339902	-110.594265799492	
998900000	-12.8458024509251	-136.019870119121	-0.396446862624677	-30.0923719018739	-0.405630715810932	-30.1379808549209	-12.7140061387141	-111.11646372461	
1000600000	-12.8354614469768	-136.154107498625	-0.399068100558473	-30.1753430056285	-0.402334059658243	-30.2390310590153	-12.6707661479947	-110.610131719157	
1002300000	-12.7830000987355	-136.546074260324	-0.399671027701805	-30.1341456508881	-0.397877557140357	-30.2243784863628	-12.6835644646161	-110.656060480388	
1004000000	-12.8602698671525	-136.501439042839	-0.401734594651552	-30.2771161205999	-0.40806841086997	-30.2840140191249	-12.6517934169415	-111.17580909222	
1005700000	-12.8052145759693	-136.693359222791	-0.394172933885553	-30.3354277301343	-0.394658532354444	-30.3729260987967	-12.6774976597916	-110.775068561823	
1007400000	-12.7915090227683	-136.965951079901	-0.397088015899305	-30.5060727579083	-0.401709814376859	-30.3485307698091	-12.6023965800148	-110.729552691917	
1009100000	-12.7365536571257	-136.90351303395	-0.392269635279881	-30.3820223711613	-0.418513500380905	-30.4088958507137	-12.6165154675117	-111.562456171428	
1010800000	-12.7568030786039	-136.390321771613	-0.394236514290814	-30.5406809277885	-0.394187327511025	-30.3789819629548	-12.6219922664009	-111.191573112754	
