!Keysight Technologies N9950B: A.12.38
!Date: Thursday, 01 June 2023 12:08:57
!Timezone: (UTC-06:00) Central Time (US & Canada)
!Model: N9950B
!Serial: MY61131330
!GPS Latitude: 
!GPS Longitude: 
!GPS TimeStamp: 0001-01-01 00:00:00Z
!GPS Seconds Since Last Read: 0
!CHECKSUM:1986727721
!Correction: S11(ON U)S21(ON U)S12(ON U)S22(ON U)
!S2P File: Measurements:S11,S21,S12,S22:
# Hz S DB R 50
800000000	-14.3570216182174	163.004122820984	-0.303736793126886	-59.5428097494032	-0.292825648938105	-59.4809679252151	-14.2735036753502	-108.451340608972	
801700000	-14.4331436920037	163.279013188941	-0.30502053479751	-59.6971386322548	-0.278404710514125	-59.7523781456262	-14.1927967434779	-108.507230948054	
803400000	-14.3334418942043	162.377485379116	-0.291935465000135	-59.8114232871913	-0.29652859239562	-59.7855075164428	-14.2596728943041	-108.436717123146	
805100000	-14.3168990454515	162.76097265308	-0.28087879137803	-59.9339881561671	-0.304680760409388	-59.9107651093432	-14.1728659124612	-108.633675500861	
806800000	-14.329015828652	162.900333341941	-0.309383768927527	-60.0036215030416	-0.302026337614312	-60.0841600364883	-14.1427770788207	-108.798624344416	
808500000	-14.2269987819763	161.966015052827	-0.303340262139291	-60.1438696385747	-0.306590578223381	-60.2218324271603	-14.1004200925877	-108.447422956996	
810200000	-14.3139077819434	161.597257031697	-0.296378465908209	-60.2499293288208	-0.29034750236914	-60.2987830877002	-14.1302675821779	-108.454937101102	
811900000	-14.2154608803337	161.906626628226	-0.306153083838253	-60.4086341490444	-0.300689971126089	-60.4100780611964	-14.0714216320605	-108.914992788883	
813600000	-14.2255223528502	161.652602053065	-0.298274019821367	-60.5098176218469	-0.286764024978026	-60.5244709165186	-14.1120001222652	-108.492118898951	
815300000	-14.2826456207754	160.884818320066	-0.298323720845433	-60.6515840900836	-0.301220494362301	-60.5930157994667	-14.0488945400579	-108.292735479225	
817000000	-14.1617906110724	160.76014824839	-0.287924060328737	-60.796796553402	-0.306457640519539	-60.8902182844283	-14.0110653318599	-109.413250884439	
818700000	-14.1869507522787	160.834114184041	-0.30007303846196	-60.896762985946	-0.299083713098929	-61.0175579654993	-14.059377674835	-108.693286292977	
820400000	-14.1657623800317	160.743899400977	-0.291018528294825	-61.0139285958764	-0.307831874267619	-61.0774909772112	-14.0662372561813	-108.865924568962	
822100000	-14.1786773221185	160.839609879568	-0.301007236345392	-61.1538098626466	-0.3061554197427	-61.1865684031855	-14.0395383824777	-108.952870673233	
823800000	-14.1430642847946	160.560192954307	-0.295741795996629	-61.3428901543365	-0.311103248360729	-61.1942025167309	-14.0133469240757	-108.79596171454	
825500000	-14.1183080943535	159.928090136909	-0.303850422730453	-61.5409773104464	-0.305836974467645	-61.4339248971995	-14.0105438087994	-109.026479519691	
827200000	-14.0218501990463	160.090975136557	-0.317296258372119	-61.5292717133006	-0.29903920476454	-61.5970633965237	-13.9269810272982	-109.512402740406	
828900000	-14.0095097911851	159.647519847291	-0.309127033659429	-61.7002727234989	-0.304757916298345	-61.6605087888197	-13.8482912080208	-109.307007124451	
830600000	-14.1048042487275	159.325170751147	-0.295519190563307	-61.8409228187101	-0.309968251855883	-61.7131696300446	-13.9728744149263	-109.518926704912	
832300000	-14.1154428523762	158.96733294956	-0.32883669937326	-61.8670931406818	-0.317192251277712	-61.8870830726562	-13.938558637496	-108.357120885178	
834000000	-14.0686334763238	158.989687084896	-0.313659789467718	-61.981444731989	-0.321085316352286	-62.0774656333718	-13.9122064729013	-109.025736513774	
835700000	-14.0243387500912	159.226238296302	-0.311112357245847	-62.2587166928834	-0.307317951620291	-62.2133661031926	-13.8446689888737	-109.130307124855	
837400000	-14.1259122022043	158.461884650655	-0.312781900489019	-62.2652472719842	-0.322128127091153	-62.2550249894103	-13.8715738133612	-108.482286698	
839100000	-14.0222210521537	158.569405616263	-0.316426887781248	-62.3924342515671	-0.30916038396459	-62.4696189325767	-13.8764520232572	-108.99895720012	
840800000	-13.9534713446612	158.151257599182	-0.317545029780251	-62.511255366818	-0.31021377586027	-62.6404999899711	-13.848305705115	-109.6486268118	
842500000	-14.020652164726	158.155717584131	-0.310352693783647	-62.7112774134893	-0.319925549216401	-62.6503276675676	-13.842423267055	-109.72798800887	
844200000	-13.9269287214277	157.136076512788	-0.308655333125684	-62.8108413440008	-0.323548087760018	-62.7181388682614	-13.8931732050832	-109.298469973269	
845900000	-13.9450496056717	157.569741348607	-0.319134926792814	-62.874219594458	-0.322719870029949	-62.8756879835514	-13.7885721260065	-109.81212857849	
847600000	-13.8782394561238	157.468570925196	-0.312741681546964	-63.0035709804816	-0.316093177283288	-63.0484650079655	-13.8254629169684	-109.635264523571	
849300000	-14.0010219762329	156.987079428647	-0.313542852982202	-63.1516631823459	-0.330060032696937	-63.175424184602	-13.7371790440729	-109.091120297527	
851000000	-13.8857943550237	156.953266988759	-0.327682549022151	-63.2990639516825	-0.32035894481547	-63.2867395765447	-13.7190986097727	-108.931428536295	
852700000	-13.8390707304558	156.856143415828	-0.306064540194116	-63.4049122879129	-0.309041988331572	-63.432787845959	-13.8057690332556	-109.376027960672	
854400000	-13.8623910033666	156.751966827804	-0.305332944886581	-63.471181665957	-0.316385590272417	-63.6043514757245	-13.8005225018923	-109.780132687598	
856100000	-13.8597194958345	155.85505081252	-0.319217212849183	-63.7190328509583	-0.32032069384903	-63.6716873655735	-13.7015026940212	-109.838061248031	
857800000	-13.8123216167717	155.703726864268	-0.333162831141209	-63.8136992529772	-0.30877576499643	-63.7609384148071	-13.7054133300867	-109.63819823775	
859500000	-13.8623066636934	155.709512852097	-0.318721146308069	-63.9063171965753	-0.316374323585856	-63.9689699021014	-13.7670250954974	-109.548045447104	
861200000	-13.8205926234029	155.66428990325	-0.339017357997461	-64.0338923471595	-0.334450481919181	-64.0555521291088	-13.6803514255049	-109.967925307107	
862900000	-13.7872274424606	155.370421804144	-0.328988110029403	-64.2185899876221	-0.320193604147621	-64.191516103556	-13.6057141821685	-109.002127194797	
864600000	-13.7810216944799	154.891627633142	-0.340627183108594	-64.2886084371909	-0.327472541253791	-64.2484966622959	-13.6798510065206	-109.507739041448	
866300000	-13.7606885416144	154.797832546589	-0.338137405769373	-64.4389567466785	-0.327070350666047	-64.4338978952281	-13.5860927548288	-109.151780345599	
868000000	-13.8465637011266	154.837013290957	-0.327311788008359	-64.4756623814955	-0.339573776782215	-64.4564654223371	-13.6149761036817	-109.31502592796	
869700000	-13.6937864871931	154.175054172144	-0.331024086395896	-64.604195946148	-0.322221729498835	-64.5824271299816	-13.6327381260991	-109.813443237283	
871400000	-13.741746275189	154.148177976637	-0.329046724271036	-64.7195313826687	-0.344539789810666	-64.7604445788866	-13.581708386925	-109.834390736932	
873100000	-13.5749908605196	153.910415370956	-0.347394459345339	-64.8621066589047	-0.336033973226621	-64.8791041504482	-13.5856761756824	-109.999505541976	
874800000	-13.6713809145112	153.610431248131	-0.338759355903765	-65.0955213711419	-0.31585037843814	-65.0046547601869	-13.5709280005358	-109.873411138036	
876500000	-13.6259364478742	153.4613245158	-0.324558635909861	-65.045088537196	-0.332563412152611	-65.1355706340993	-13.6277779591816	-110.009764708774	
878200000	-13.6729121969093	153.193750798999	-0.331274137089862	-65.2589042460331	-0.328824785806071	-65.2906796373744	-13.5156330756964	-110.046637220738	
879900000	-13.6546473353623	153.212609038079	-0.342749054849451	-65.3615356558934	-0.327025953300833	-65.3573838940288	-13.5457413966217	-110.08981591574	
881600000	-13.5674428791712	153.085680847453	-0.331142629911857	-65.5123188303034	-0.329901252129212	-65.4399637370786	-13.4397482671507	-110.011079002596	
883300000	-13.5985283337773	152.434575859529	-0.346360481580619	-65.6435854943957	-0.337696504709168	-65.5832780972816	-13.5019090103206	-110.242853971936	
885000000	-13.5930261451915	152.305237312297	-0.331813812345026	-65.6899721201108	-0.326642226394122	-65.7678885380071	-13.4945219435375	-110.348976331036	
886700000	-13.6132021702593	151.760428979329	-0.343413208037218	-65.8747634871675	-0.333656285069491	-65.8483894700573	-13.459992063823	-109.982092580806	
888400000	-13.6074700019369	151.891611949413	-0.328449726725452	-65.9197053471723	-0.353691182273339	-66.0303341794561	-13.5488839193451	-109.890807804296	
890100000	-13.5877298678748	151.18788492312	-0.344887531823098	-66.1133633250638	-0.353085058979298	-66.0336182015099	-13.4185307623491	-110.670396645432	
891800000	-13.6114303166327	151.659755207684	-0.351098326303323	-66.2130569495052	-0.340456953535423	-66.202583139847	-13.430163000119	-109.861463572023	
893500000	-13.512622409634	150.906810582602	-0.338687325302448	-66.4642951647023	-0.332057743082915	-66.3470071011078	-13.345509918461	-110.103122077695	
895200000	-13.478444246723	150.662945942425	-0.328441325994004	-66.4665418983633	-0.350228230601827	-66.4759751539622	-13.4492996776623	-110.487359931433	
896900000	-13.539840555888	151.313663528976	-0.330359632057273	-66.6469852322027	-0.361366582699674	-66.6732714966719	-13.3788759848555	-110.219450958006	
898600000	-13.4869703964446	150.811525590946	-0.347535381677083	-66.8753866667096	-0.330960097341472	-66.686940825509	-13.302562001138	-110.170764192833	
900300000	-13.4353281570073	150.72968810464	-0.328727507966856	-66.9154057329876	-0.353930325267966	-66.9646770735639	-13.3849853405194	-110.189181803691	
902000000	-13.4775512371724	150.394408320677	-0.332095570736381	-66.9216993676961	-0.342773860563392	-66.9739253437198	-13.3021452457613	-110.49489758295	
903700000	-13.4390702981291	149.911085210915	-0.357949649454533	-67.0338179137108	-0.352649164877618	-67.1322456562279	-13.298584547486	-110.781166534478	
905400000	-13.4418201469637	149.798824394154	-0.336420835162421	-67.2332779835984	-0.338258561361801	-67.3384686594716	-13.300434612874	-110.527376457428	
907100000	-13.448619731437	149.35943506134	-0.353381549072632	-67.3752059229229	-0.347217241057436	-67.2832996701192	-13.2996725230645	-110.889492490333	
908800000	-13.3616939466228	149.42265403627	-0.344834484189519	-67.5525802358473	-0.355206648047474	-67.5152409229475	-13.2866590316312	-110.610180855053	
910500000	-13.4422073516105	148.733203783563	-0.36223195885347	-67.6522190983899	-0.356563994589649	-67.6604910951814	-13.2264338434287	-110.303165051106	
912200000	-13.3671595258426	148.615534436682	-0.349383975130596	-67.7315878501713	-0.361894835490534	-67.6690115589646	-13.2651203468593	-110.045905408977	
913900000	-13.3674568105707	148.871831401085	-0.358656318748465	-67.8225765976839	-0.358324297248216	-67.8742142688534	-13.1746624284357	-110.411186637352	
915600000	-13.4137653334281	148.402979784925	-0.347882031151485	-68.0506128620237	-0.345325461595107	-67.9548405522243	-13.2299926021751	-110.573867927425	
917300000	-13.3471422589031	148.568464688579	-0.357806349255305	-68.0791303867329	-0.354777010569012	-68.1047189955611	-13.2101358419667	-110.196076580561	
919000000	-13.2779825520537	148.132716419898	-0.358624066281929	-68.0938940110485	-0.359822053361179	-68.2642016424575	-13.1959937510949	-110.508851384252	
920700000	-13.2983324862851	147.709879832194	-0.368019470342257	-68.4141460534647	-0.355426325011389	-68.2757702327471	-13.1578153149386	-110.71192924263	
922400000	-13.3572169468041	147.805911573514	-0.344483775932249	-68.4642079062189	-0.344232002498404	-68.4178146434178	-13.1828216530425	-110.169914969528	
924100000	-13.3137741143568	147.629970372489	-0.368534458024841	-68.6698041537258	-0.363339449543072	-68.5215692334611	-13.1274584426804	-110.187537689408	
925800000	-13.2584313979054	147.032175141233	-0.371317971407686	-68.6973684539344	-0.368413098643785	-68.6808978809212	-13.1568960692133	-110.684808282367	
927500000	-13.2848753422205	146.519987280319	-0.365166137192688	-68.8223552852339	-0.361849512048517	-68.8675167203988	-13.038152820738	-110.163914851224	
929200000	-13.2645953134223	146.261427049582	-0.360669986993537	-69.0162839335007	-0.352842857275986	-68.9210946530105	-13.0877937139323	-110.756615443255	
930900000	-13.2172623227439	145.998716725664	-0.349767809142513	-69.1736590686841	-0.354291920416427	-69.1445372795724	-13.1055629807353	-110.665305430289	
932600000	-13.272804665197	145.907448510254	-0.365593831206491	-69.2437569017265	-0.354625793306401	-69.1966154254913	-13.096338462138	-111.052944527739	
934300000	-13.2144922107069	145.733845478867	-0.362610347245949	-69.3312108011554	-0.349396768111248	-69.2937087417894	-13.0755015602065	-110.809680919203	
936000000	-13.1483349583145	145.847295162115	-0.35260146600267	-69.4930105021108	-0.352692392587283	-69.4059575019042	-13.060883520802	-110.771210397677	
937700000	-13.1531387690303	145.51244389307	-0.354369351181116	-69.5394433874019	-0.355125124865421	-69.5256386543355	-13.0261336680984	-110.642415282548	
939400000	-13.1323996422352	145.354609951697	-0.368675885859957	-69.728956155172	-0.363656582295465	-69.7214130814534	-13.0033578878767	-110.74574422892	
941100000	-13.1086377212292	144.988841053536	-0.372060025895398	-69.8264102336238	-0.36260490489941	-69.8687172119432	-13.0431946943873	-110.928718853863	
942800000	-13.136760619646	144.990072225651	-0.371275820463326	-69.9579017957298	-0.366358020604318	-70.0965495599428	-12.9575015227815	-111.128132685658	
944500000	-13.1824299286785	144.853286848589	-0.368716945133966	-70.0773962735603	-0.364891446656219	-70.0482561219933	-12.9743764140365	-110.88128503443	
946200000	-13.1426760018152	144.340601653984	-0.374087475534192	-70.1060194892191	-0.365137259303062	-70.1563993258447	-12.9624177318124	-110.895886005161	
947900000	-13.101156080712	144.306668242369	-0.379302256578057	-70.2882696858597	-0.36807970233204	-70.2601212314894	-12.9664810240777	-111.233657723378	
949600000	-13.0628551022739	143.758690942093	-0.364194451095534	-70.5808612562795	-0.366201850707116	-70.4707597667635	-12.9368320347441	-111.633742217289	
951300000	-13.0472527800049	143.74696890695	-0.377629693054211	-70.5850908030908	-0.37872527139824	-70.6580037124126	-12.9224445175176	-111.335536749713	
953000000	-12.9973246843263	143.563160069794	-0.377810006614129	-70.6734780189887	-0.371565781748852	-70.6493440665208	-12.8849129303976	-111.040261990721	
954700000	-13.0732240177954	143.205332408573	-0.375381762823442	-70.8403777935583	-0.372297690623229	-70.8488681883963	-12.8690895889781	-110.669495318598	
956400000	-12.9970436291436	143.065137158877	-0.372219706235021	-70.9504688633936	-0.368272360364281	-70.9148421537012	-12.8698126903698	-110.844483196609	
958100000	-13.0088455356688	143.297225275886	-0.362337354001515	-70.982871755617	-0.379822908996157	-71.1255788626298	-12.8590292864271	-111.457901331406	
959800000	-12.9726900409438	143.077953767394	-0.371229846075766	-71.2240893587568	-0.378515315689493	-71.1988169794819	-12.8942539594469	-111.229407141147	
961500000	-12.9716424726554	142.378258083182	-0.36430076080647	-71.3930478934005	-0.380842015333127	-71.3313042627836	-12.8075547252784	-111.37300071083	
963200000	-12.9280933365317	142.268144311341	-0.373632289892117	-71.4810837302385	-0.369491714507873	-71.4321645836243	-12.802931570401	-111.902370330651	
964900000	-12.9861811539665	141.861224877572	-0.379627250588122	-71.473171884364	-0.371600283206387	-71.5860474775183	-12.7985325662231	-111.722822234145	
966600000	-12.9669017785193	141.92975839008	-0.364689003617719	-71.7889095954699	-0.383161347838996	-71.6810954333326	-12.8453965457341	-111.618849529292	
968300000	-12.9429210922334	142.002314210426	-0.384645294435025	-71.8406261445223	-0.37025398279706	-71.7999387339618	-12.6937179796328	-111.522588932867	
970000000	-12.900026380699	141.712433015369	-0.377355064837308	-71.9456669583858	-0.380222659318719	-71.9255210887531	-12.7800063655215	-111.313656053998	
971700000	-12.8875051849166	141.377047064918	-0.386787056983582	-72.0415315178327	-0.357436293220361	-72.0564418794994	-12.7317722241964	-111.627444936698	
973400000	-12.875883833205	141.189197568064	-0.384781164845675	-72.0640317170473	-0.38002842336162	-72.1858148610459	-12.7705534372805	-111.273757484556	
975100000	-12.887678437058	141.173954110807	-0.390954403720815	-72.2550503248985	-0.37177194004936	-72.2130426661366	-12.7411394404156	-111.49395138493	
976800000	-12.8744680343868	140.443398497705	-0.386385425982766	-72.4357040442324	-0.395291070076693	-72.5071427473767	-12.7667819482154	-111.433890966737	
978500000	-12.849887522963	140.909601328213	-0.381912231367206	-72.5400056797615	-0.385965829884932	-72.5840676388673	-12.7286067592583	-111.183518608027	
980200000	-12.8331422165322	140.547318042363	-0.387966887819445	-72.6637467032496	-0.374973693190913	-72.5466090286778	-12.6756093949776	-111.349394153749	
981900000	-12.8667510238921	140.333677639678	-0.387282433328877	-72.7966250333895	-0.392554720755253	-72.8063400693896	-12.6851796199679	-112.256984333752	
983600000	-12.7741200451047	140.299333636453	-0.398312586096925	-72.8764566910238	-0.392214658825704	-72.8823135469309	-12.7143688086038	-111.892520383074	
985300000	-12.7621848781679	139.641410161191	-0.386314693542691	-72.9577307366149	-0.380594092684022	-72.9604126045468	-12.5794951180235	-111.746978854736	
987000000	-12.8304545203883	139.495292173663	-0.39485018599981	-73.1854416129399	-0.387488084934482	-73.2300639227408	-12.6548038700868	-111.85575328012	
988700000	-12.7296171527406	139.001349667403	-0.382647316903808	-73.2702524416185	-0.392379789806259	-73.3216162309668	-12.6056655224141	-112.095330481607	
990400000	-12.761641039723	139.038395151535	-0.404829237084746	-73.4832778506633	-0.399600163978364	-73.4334564160989	-12.6801977402226	-111.834268639372	
992100000	-12.7269239272945	139.169095789164	-0.385550986156306	-73.4921722967283	-0.390880575353121	-73.5293202689654	-12.6623319768484	-111.889724294491	
993800000	-12.7936225787427	138.650462610332	-0.39774853503743	-73.6282699145919	-0.392077295938037	-73.6568471284869	-12.6880974526388	-112.147287943804	
995500000	-12.7620324806483	138.083394522397	-0.398070413645428	-73.8133798615161	-0.397557580820579	-73.8526128663627	-12.5391428743701	-111.843991446687	
997200000	-12.7407273299601	138.23254439682	-0.396941707410515	-73.9429412614515	-0.401933385977477	-73.9367900306657	-12.5541697311099	-111.795127170593	
998900000	-12.6228741997342	138.088583669482	-0.409755071550289	-73.9539951226503	-0.400535855378519	-74.0498841922271	-12.498282654541	-112.237149368365	
1000600000	-12.6419809206747	137.927409547293	-0.393010299444194	-74.1794352673988	-0.389022952459123	-74.1053169998207	-12.5684072357601	-112.724737315187	
1002300000	-12.6849520799136	137.537462362131	-0.402350168104038	-74.2416013940597	-0.390226714203128	-74.2866432888246	-12.5763047970956	-111.985694740416	
1004000000	-12.6473992843099	137.340472679196	-0.403290065462836	-74.3237401894502	-0.401095723508241	-74.4739875814103	-12.5356441343538	-111.777524183267	
1005700000	-12.639941263735	137.213931453255	-0.39852876713678	-74.6045378274444	-0.400541106658898	-74.4878898848406	-12.4898606881589	-112.109919417072	
1007400000	-12.6494101562243	137.09300261172	-0.396537966506853	-74.6717356316718	-0.407819212691123	-74.6464527832446	-12.4732812654488	-112.129223407716	
1009100000	-12.625240031114	136.728855383171	-0.410098481749556	-74.7823230223335	-0.402598266300352	-74.7587653639131	-12.4161633344709	-112.06585988334	
1010800000	-12.6180488442194	136.565542478448	-0.416161693851773	-74.8881816341825	-0.395640547098305	-74.8154690591808	-12.4352286854353	-112.680484793776	
1012500000	-12.5419000636049	136.303827931629	-0.411998226558142	-74.9580657533402	-0.415769791769562	-75.0345591974375	-12.4218682882109	-112.251006467558	
