!Keysight Technologies N9950B: A.12.38
!Date: Thursday, 01 June 2023 12:15:42
!Timezone: (UTC-06:00) Central Time (US & Canada)
!Model: N9950B
!Serial: MY61131330
!GPS Latitude: 
!GPS Longitude: 
!GPS TimeStamp: 0001-01-01 00:00:00Z
!GPS Seconds Since Last Read: 0
!CHECKSUM:0726821476
!Correction: S11(ON U)S21(ON U)S12(ON U)S22(ON U)
!S2P File: Measurements:S11,S21,S12,S22:
# Hz S DB R 50
800000000	-19.4082931715305	-124.067648812874	-0.0990772922415539	-20.6674016110134	-0.0926318961942638	-20.7029713656975	-19.2525953781419	-96.8613142250837	
801700000	-19.5458213246467	-123.75438309776	-0.0927855131354919	-20.757235723168	-0.103244115402783	-20.7481844872136	-19.1774669324891	-96.8613891190578	
803400000	-19.4213825738519	-124.89529021294	-0.0792987461518928	-20.8270966935742	-0.0840583043473324	-20.8049207706814	-19.2550227487102	-96.7522332901601	
805100000	-19.4032645653448	-124.017247488911	-0.0926227079936182	-20.888505120294	-0.103033545987619	-20.7959084539175	-19.128191393211	-96.9796504474615	
806800000	-19.3998595224464	-123.504842961656	-0.0971383416385725	-20.8838967062624	-0.0955953518362511	-20.9364704851173	-19.0463565491007	-97.4954565678095	
808500000	-19.2480346674767	-124.719465610643	-0.0911243715930857	-20.9354469392487	-0.0955885855939866	-20.9633388598706	-19.0014821023454	-96.766475100327	
810200000	-19.412430020616	-125.002170906055	-0.0828567303690691	-20.9566979373066	-0.0783181485614831	-20.9047787056343	-19.0768972499296	-96.5321534319199	
811900000	-19.2169194267727	-124.159125649219	-0.0873116925577346	-20.9798195282917	-0.102236410802178	-20.9881635952174	-18.9949758479903	-97.2044030150202	
813600000	-19.3045746057509	-124.239474376133	-0.0995773327616649	-21.0093321022646	-0.0946978255485051	-21.0304968522045	-19.0510059184911	-96.7507770495853	
815300000	-19.3786018347558	-125.230759140561	-0.0890748897314417	-21.0723619128793	-0.10413341144315	-21.0767669592846	-18.9681333505958	-96.4732519894456	
817000000	-19.2185577540137	-125.23384101841	-0.0930983606146137	-21.2094511623679	-0.112980869222861	-21.1874878093247	-18.9269945946263	-98.0405385577804	
818700000	-19.2250718916556	-124.807456650569	-0.0838569914060416	-21.208780904837	-0.098899589719712	-21.2523592679538	-19.0291224561603	-96.7725865744219	
820400000	-19.2304088590184	-124.625474563362	-0.0866951438884716	-21.2397830152874	-0.0957491569578214	-21.1516401232332	-19.0052892906431	-96.8795133237812	
822100000	-19.261467823353	-124.317382118433	-0.100414169325396	-21.3124946683388	-0.0927988954987512	-21.3262179704095	-18.9697725910582	-97.1366292472615	
823800000	-19.2435887645838	-124.376660059728	-0.0992298095051866	-21.4098674113604	-0.106569285071872	-21.2605971673375	-18.9413502206173	-96.9312463583079	
825500000	-19.175777195179	-125.053063922159	-0.0860317068970665	-21.3734405694872	-0.0912920625323501	-21.4354159271225	-18.9103494797031	-97.1802974483737	
827200000	-19.0101078213473	-124.601396574219	-0.0940084973791122	-21.3901587185105	-0.0931021857480975	-21.433590394343	-18.8082968352301	-98.2145826013624	
828900000	-18.9852583874467	-125.31208698072	-0.0853154250975193	-21.4436245658829	-0.100999213261904	-21.4468958760799	-18.7368797909823	-97.8498990488305	
830600000	-19.1764051935331	-125.287398071605	-0.0887463968609844	-21.5438516246763	-0.106872637942803	-21.3965957341824	-18.9091253555739	-97.9817846321024	
832300000	-19.195708057041	-125.552190411892	-0.103015433815383	-21.4564558991972	-0.0995894499947125	-21.5835263751113	-18.8362499763155	-96.1010359973366	
834000000	-19.1508687671647	-125.666272111843	-0.109558349501182	-21.6090313710433	-0.102670234744384	-21.532185601941	-18.8138009547086	-97.0001341852113	
835700000	-19.0626149989308	-124.366171746328	-0.0952664979032645	-21.6362251209611	-0.0956498805244518	-21.7032792215115	-18.6951543483148	-97.5155265442171	
837400000	-19.2476481509191	-125.3816174349	-0.0987353783295959	-21.6735669102798	-0.109476155157152	-21.6907728165992	-18.7598507283753	-96.3943717274801	
839100000	-19.05753680872	-125.132660727768	-0.098317201610108	-21.6983196742098	-0.0947622913325998	-21.7238699716321	-18.7778436754343	-96.948544797415	
840800000	-18.9464543281614	-125.47154124653	-0.0964628581688989	-21.7878518903547	-0.0898939685066212	-21.7425442916256	-18.756331400885	-97.6399129021821	
842500000	-19.1183646140768	-125.232675398161	-0.103890714476753	-21.8093312195971	-0.105077282190651	-21.8031216666386	-18.7566584045367	-98.4185593100256	
844200000	-18.9596435250076	-126.603894395747	-0.100585565140355	-21.8410548244177	-0.0978926960890778	-21.8516775034161	-18.8357366646335	-97.5186948424859	
845900000	-18.9588727362769	-125.618633740234	-0.0934248859942589	-21.8786085426111	-0.116537125102846	-21.8350285696731	-18.7419088192597	-98.2566589684952	
847600000	-18.8993363108016	-125.600914785188	-0.101303832753536	-21.9462964088039	-0.099770474158637	-21.8370475211701	-18.7685019461816	-97.6689326141083	
849300000	-19.1048437887421	-125.934972152271	-0.0866642496984141	-22.0278968095998	-0.107638409793859	-21.9481895090591	-18.6125770753557	-97.0439604142971	
851000000	-18.9063887292023	-125.704537971141	-0.0919659255096578	-22.0278166728968	-0.106420627067084	-22.0466192683169	-18.589138904278	-96.9499932858305	
852700000	-18.8400864016026	-125.421532809583	-0.0937782276966757	-22.1213123432273	-0.0941608590986191	-22.0859489995837	-18.7667482969118	-97.2553703931669	
854400000	-18.9206759927507	-125.609527082466	-0.0887813502053016	-22.0521189918055	-0.102634522644079	-22.1288672280234	-18.79658440555	-98.1704773178582	
856100000	-18.8914479830407	-126.76150704171	-0.0853013204070948	-22.164432741909	-0.101900727965737	-22.1436171640816	-18.6016299413651	-97.8590954994033	
857800000	-18.8512580128688	-126.425165428796	-0.113684848833327	-22.205873062256	-0.0941078516414444	-22.2609592731507	-18.5752442803573	-97.9440633401779	
859500000	-18.867443679791	-126.028592828922	-0.0813918146740247	-22.1485071143417	-0.106441556532342	-22.2654639826046	-18.7332166374299	-97.5430772122581	
861200000	-18.8187130264751	-126.053535124813	-0.09978291032672	-22.3347913733814	-0.101102275576752	-22.3218039683322	-18.565840671651	-98.0591580912085	
862900000	-18.796372730518	-126.147309306032	-0.11104559475013	-22.3375889008985	-0.103558869646136	-22.4466963271088	-18.4445392207341	-96.9016445285782	
864600000	-18.8128557229569	-126.996492325357	-0.110518227582719	-22.3291119705278	-0.114921346979186	-22.3051156159626	-18.5987531991945	-96.9850628627206	
866300000	-18.750865229098	-126.759951828853	-0.101586640200607	-22.3628047289996	-0.0959212132509104	-22.4353393639226	-18.4430943550674	-96.6175942451625	
868000000	-18.9314960254537	-126.579083891512	-0.104085394350686	-22.4477559889796	-0.12351320916498	-22.4517484572666	-18.5016941707575	-97.1463701878678	
869700000	-18.6905122904737	-127.179792854632	-0.104686147440605	-22.5675432826622	-0.114259826804438	-22.3859098638566	-18.5349135999907	-97.8355057384207	
871400000	-18.7655037345649	-127.162871561683	-0.110357083787081	-22.5117959723777	-0.113471482921562	-22.4876979743851	-18.4424027245358	-97.7792694052367	
873100000	-18.4966626356004	-127.057962588803	-0.127184943397154	-22.5535209311405	-0.10758351216073	-22.6339234578047	-18.4932852865202	-98.0180074672214	
874800000	-18.6666635357741	-126.983526247861	-0.103044933670403	-22.6527156334421	-0.0995406027300124	-22.6489280662563	-18.4660224170546	-97.8159900542373	
876500000	-18.5886180307522	-127.167462748232	-0.106163431080614	-22.6515335632912	-0.109889361591437	-22.6400586201336	-18.5610924915358	-97.9695245149791	
878200000	-18.7167307982145	-127.545144541828	-0.115219898833194	-22.662453846093	-0.100124410981453	-22.7881615630817	-18.3668474303434	-98.1789366456522	
879900000	-18.6757214463089	-127.119117599838	-0.123902101858857	-22.7983826011537	-0.0991699987356719	-22.7528601820705	-18.3864846998717	-97.8500373697973	
881600000	-18.5144562892977	-126.940503542972	-0.100909106257948	-22.8208529489789	-0.111720247016694	-22.7482052895182	-18.2810001434184	-98.2483911304407	
883300000	-18.595159563319	-127.508170918878	-0.0956307600985733	-22.8653221008904	-0.104107607761242	-22.9022363509922	-18.3506642532857	-98.368614478468	
885000000	-18.5648614311153	-127.557665500488	-0.0942217028689522	-22.8883343070546	-0.111869429455425	-22.8416340166239	-18.3840645338928	-98.5864618069398	
886700000	-18.6193682100317	-128.198647878592	-0.101001686816838	-23.0386933425574	-0.107135229093263	-22.96451325671	-18.3168321697694	-97.8972460303725	
888400000	-18.6056454960476	-127.673604224652	-0.0856793760507054	-22.9566699034559	-0.104134523951817	-22.9435755246506	-18.4474219897571	-97.5799842460079	
890100000	-18.5788972135512	-128.515841986508	-0.107943905325845	-23.0434268683105	-0.123267852023218	-22.9769228245735	-18.2565728946844	-98.9318853389252	
891800000	-18.6058693290153	-127.697118500366	-0.112658352814771	-22.9998150365168	-0.113637445812412	-23.0410409541616	-18.3155130366659	-97.6111466888769	
893500000	-18.4965664640731	-128.246235030439	-0.107828458585293	-23.174938493104	-0.11032814884959	-23.1541965238193	-18.1392063092031	-98.0758848755597	
895200000	-18.4214481253863	-128.32454887641	-0.0899806297753046	-23.1806967590976	-0.12679563185862	-23.1323393533932	-18.3429972335216	-98.43919973897	
896900000	-18.5790273230608	-127.228939540311	-0.107245282764494	-23.1754077069083	-0.121915835143982	-23.2765533832602	-18.2057922444474	-98.1551983478936	
898600000	-18.4357791196652	-127.646411799939	-0.106439733313206	-23.2274533930207	-0.113463235904285	-23.1974941548099	-18.1232605478578	-98.0378764222813	
900300000	-18.4000009903888	-127.495794742254	-0.100251389757623	-23.3694394209059	-0.112383494973577	-23.3340263188211	-18.2352250859792	-97.8648450843474	
902000000	-18.4406761613521	-128.092814846026	-0.110606037637038	-23.3149261868577	-0.108670529540616	-23.3232455796434	-18.0926209776602	-98.4336034145558	
903700000	-18.3913462482973	-128.417882995663	-0.112129751811697	-23.3015912724313	-0.122763783047715	-23.5316202201719	-18.0887651484468	-99.1590511063673	
905400000	-18.400034646677	-128.263377949862	-0.102190417384424	-23.4363295809636	-0.112956762755177	-23.4553621664194	-18.1151851991619	-98.4747708842023	
907100000	-18.4423580001966	-128.518121105409	-0.106366543193534	-23.4225550574243	-0.105471979286534	-23.4559026847825	-18.128897388084	-99.0692081474112	
908800000	-18.2589237116687	-128.170003695179	-0.112238664037226	-23.5692947817917	-0.127339522871077	-23.5149103616359	-18.0977187277993	-98.3015224104055	
910500000	-18.425391169741	-129.191044216937	-0.123554498167183	-23.5193110386721	-0.11403022535459	-23.5411519566732	-18.0035901629596	-97.8749092835309	
912200000	-18.3021587645289	-128.813274049219	-0.104995869261045	-23.6034328760139	-0.132701145406833	-23.6145662393148	-18.0436009234821	-97.4870752208139	
913900000	-18.3167002982356	-128.519599424279	-0.118966504093545	-23.6753146798505	-0.112964039963059	-23.606770399579	-17.9009107655871	-98.1625767524089	
915600000	-18.4147617185853	-128.549989109012	-0.109315076055745	-23.6762669524062	-0.107946233274642	-23.6579719717888	-18.0839635993812	-98.6300787931468	
917300000	-18.3080277850075	-128.192517878679	-0.123988405486269	-23.7074947823034	-0.118725362743348	-23.7785347389643	-18.0012695361844	-97.6296201557941	
919000000	-18.1580930034191	-128.660342524718	-0.116523045606388	-23.6369122215367	-0.1110589573375	-23.7592491008908	-17.9715998629288	-98.1635948645698	
920700000	-18.2396990258401	-128.936823140252	-0.123273699507137	-23.8179563902437	-0.113727693988331	-23.7617908332127	-17.9549156710561	-98.3078115313652	
922400000	-18.3484036492283	-128.567592884239	-0.0983190143337357	-23.8826312195282	-0.105945469073633	-23.7751173399493	-18.0052886672863	-97.5575153151687	
924100000	-18.2548075290168	-128.726950863169	-0.117845031770472	-23.9786963403709	-0.114150774869137	-23.914941592138	-17.9000531686061	-97.7658195877253	
925800000	-18.1274632018061	-129.130611255214	-0.118810059429611	-23.9540713147344	-0.123002622400551	-24.009538275929	-17.9469346923318	-98.3232548622066	
927500000	-18.2370537808518	-129.897973999324	-0.119931104344215	-23.9536473590061	-0.121467967179877	-23.9891147215754	-17.7586225545141	-97.7025979849322	
929200000	-18.1835223828994	-129.925045122174	-0.10024037480866	-24.0448130635535	-0.108807876823803	-24.058254259769	-17.8685144064184	-98.4929429689036	
930900000	-18.1454694081462	-130.065023238002	-0.104569399562501	-24.0841678359924	-0.111031534978001	-24.0822533658445	-17.8532087523419	-98.2238625241602	
932600000	-18.2554025283766	-130.067535971209	-0.130995363050449	-24.12055133669	-0.123872649898976	-24.1466105477067	-17.910684653975	-98.9747217018266	
934300000	-18.1640199982565	-130.02980534269	-0.117257188533685	-24.1837167953979	-0.109776572931634	-24.1118392634356	-17.8345510251821	-98.3289931579705	
936000000	-18.0424069742129	-129.633392675767	-0.114184104400356	-24.1951893596491	-0.114665890379148	-24.1066139155311	-17.8322179314609	-98.4071145602142	
937700000	-18.0541643556958	-129.940105653948	-0.116839464313861	-24.1873555510091	-0.116146982535081	-24.1687186398693	-17.807955547776	-98.1045230266371	
939400000	-17.9911270064693	-129.86299741734	-0.106859848729096	-24.3539454592201	-0.113570868323794	-24.252953266989	-17.7364768618668	-98.3201157163425	
941100000	-17.9505591162311	-130.213821355161	-0.110573636692749	-24.290831539415	-0.12766114450833	-24.4174850338489	-17.8582517418203	-98.3924746363723	
942800000	-18.0671035888146	-129.968282036671	-0.126560263026561	-24.3146677966246	-0.116528376155093	-24.464535333197	-17.7164194724334	-98.5478070447014	
944500000	-18.0896401920151	-129.985466661573	-0.118908187767122	-24.4466829453821	-0.11673830988583	-24.4185427038731	-17.7477152043989	-98.5301519584892	
946200000	-18.0165271407146	-130.643680408826	-0.107112415185171	-24.4429384861264	-0.126327638798077	-24.4332725762833	-17.7245569888834	-98.2677900364461	
947900000	-17.9931587080549	-130.004513340663	-0.113408161645339	-24.489040709678	-0.120174809994401	-24.4366854174003	-17.701356650415	-98.9475655981902	
949600000	-17.9384609293913	-130.489484898493	-0.120253440808928	-24.6044890127261	-0.118864146610463	-24.6596304764507	-17.6733701906431	-99.6974219506538	
951300000	-17.890646529114	-130.312475171956	-0.11426036212723	-24.5047142498642	-0.126358159912731	-24.6041127895921	-17.6336115879258	-98.7588407546708	
953000000	-17.8289216163427	-130.519202141891	-0.120095252549363	-24.5789047755949	-0.11985285929091	-24.6913662876104	-17.6414670524609	-98.6792677788926	
954700000	-17.9701900484906	-130.870867593543	-0.112632120354951	-24.6512139838586	-0.125855297341646	-24.6879814909386	-17.5433295595553	-97.9858977715543	
956400000	-17.836669585031	-130.643819221709	-0.11136761846836	-24.712955877256	-0.128590818305214	-24.733000236932	-17.6300932749103	-98.0538218764812	
958100000	-17.899058122603	-130.180324029553	-0.111030798924872	-24.7497344731566	-0.117766237320333	-24.7131156629579	-17.5359361163247	-98.928720102822	
959800000	-17.8379078523457	-130.205684360671	-0.119265539951081	-24.7788057009395	-0.12676133389403	-24.8746475068305	-17.6426195556186	-98.6310439927168	
961500000	-17.8301333503397	-131.082917397746	-0.104971593680142	-24.9010733681148	-0.130517153736709	-24.7904142182634	-17.5336997789285	-98.8859685096693	
963200000	-17.7955135617953	-130.974456655973	-0.126792345093792	-24.9586258147606	-0.113395945125723	-24.9223460064456	-17.5272476411758	-99.7568736153826	
964900000	-17.8572181729923	-131.239539639912	-0.10815564688695	-24.9097587758374	-0.123313036903028	-24.9638209402925	-17.5213829103775	-99.2677430503312	
966600000	-17.8504037418005	-130.985677560158	-0.120946724805264	-25.0478939032179	-0.131108899026654	-24.9666813350251	-17.5986603331412	-99.0566309365042	
968300000	-17.7659959287046	-130.459654402934	-0.111067958208186	-25.0750464797958	-0.127541967605672	-25.1155971419196	-17.3881153828717	-99.0895068513042	
970000000	-17.7308272577643	-130.609951360149	-0.120013302238558	-24.9852280901029	-0.12189129848747	-25.0604417053092	-17.5140572631709	-98.6275261403458	
971700000	-17.7417576599707	-130.873475062583	-0.127184876901448	-25.0776062179667	-0.111995280141532	-25.0903246980463	-17.4846335278994	-99.1122313315453	
973400000	-17.7066496425983	-131.283782115725	-0.118928316545723	-25.0174381727959	-0.125716038143917	-25.1740698689192	-17.4905576671904	-98.7686604138268	
975100000	-17.7580462825256	-130.969285388968	-0.127175502045489	-25.0805234420818	-0.117295384338585	-25.2561104538433	-17.4573877408559	-98.8276935818041	
976800000	-17.7170834390304	-131.650833135319	-0.129505702803659	-25.246827361347	-0.132466841769484	-25.2436202904128	-17.4685536351685	-98.580818630494	
978500000	-17.676852580499	-130.874130229509	-0.111564583491265	-25.3129155910755	-0.130683636169919	-25.3215759880231	-17.464041796101	-98.0727872183571	
980200000	-17.6431927343042	-130.857592902693	-0.126511085316639	-25.2858986390871	-0.115120448691786	-25.2594679705352	-17.3944792588657	-98.7782160334686	
981900000	-17.7321037709414	-131.123517418386	-0.120080454419933	-25.420602959117	-0.134334721750507	-25.3811915703456	-17.4020928193817	-99.923684483535	
983600000	-17.5877581694587	-130.709505935963	-0.134012495304459	-25.3716796450726	-0.118412978143938	-25.3824317365729	-17.4316196700094	-99.2440912051539	
985300000	-17.6101787148728	-131.592441835658	-0.127386059154182	-25.3836935557676	-0.125965927141645	-25.4037973405217	-17.2289698665688	-99.1588780481164	
987000000	-17.6941407813272	-131.784379159365	-0.126476963867047	-25.6045509678791	-0.130283098298673	-25.5456242128154	-17.3490302257883	-99.0381069503846	
988700000	-17.5408554017395	-132.047253772133	-0.121249313688994	-25.4796962087415	-0.127303735911512	-25.607710529474	-17.273568769886	-99.4202078860831	
990400000	-17.5900510609082	-131.707631503339	-0.119765517475195	-25.6388584255005	-0.129236693783924	-25.5832641170048	-17.3854108203401	-99.1913626282448	
992100000	-17.5852074751615	-131.457790142482	-0.127385543888725	-25.6149510527316	-0.130578378243728	-25.6604576413854	-17.4033563067321	-99.0413780580486	
993800000	-17.6590128719626	-131.610899473719	-0.130706550920039	-25.6243948557521	-0.131091176140573	-25.5874095754357	-17.4280615387969	-99.3276093303289	
995500000	-17.5918066442662	-132.37071949514	-0.125233771061773	-25.6601221367529	-0.137560017974652	-25.7748092616253	-17.1867075846377	-99.0343474224232	
997200000	-17.5962350859726	-132.065528469241	-0.123529495678449	-25.7333644542046	-0.137087623704398	-25.8240917978566	-17.2269020448382	-98.8766426210315	
998900000	-17.3723925133831	-132.016166152451	-0.139966230545522	-25.7185898470028	-0.130851276576065	-25.8374922228036	-17.1419011453416	-99.6318545510528	
1000600000	-17.4301998996857	-131.923923622712	-0.117115464035083	-25.8811524638447	-0.136202429410163	-25.887009386842	-17.3031582719033	-100.201479497786	
1002300000	-17.5070961557696	-132.202783105475	-0.11815824816358	-25.7691960695237	-0.123305343792848	-25.9076701336445	-17.2719351992324	-98.7922298243965	
1004000000	-17.4338510730698	-132.25317212327	-0.126731611078804	-25.8975783739362	-0.127629431421472	-25.9847614367429	-17.2099087286635	-98.5681256103681	
1005700000	-17.4609047716896	-132.284960863977	-0.133481735589533	-26.0024081269512	-0.125106322608549	-25.984418098526	-17.1656486743174	-99.247556995429	
1007400000	-17.443462902635	-132.024537722709	-0.118791657398903	-25.9994526836196	-0.14210020891539	-25.9952358811906	-17.1415206583931	-99.189601064306	
1009100000	-17.4537677554564	-132.84494121972	-0.138939983304173	-26.1345167515493	-0.130104146377014	-26.0907165416778	-17.0627385450863	-99.1596201101732	
1010800000	-17.4223288370159	-132.674854860495	-0.133903300972467	-26.1183949864964	-0.145099080999485	-26.0545330490764	-17.1290584533813	-100.069743677995	
