!Keysight Technologies N9950B: A.12.38
!Date: Thursday, 01 June 2023 12:08:33
!Timezone: (UTC-06:00) Central Time (US & Canada)
!Model: N9950B
!Serial: MY61131330
!GPS Latitude: 
!GPS Longitude: 
!GPS TimeStamp: 0001-01-01 00:00:00Z
!GPS Seconds Since Last Read: 0
!CHECKSUM:0470900471
!Correction: S11(ON U)S21(ON U)S12(ON U)S22(ON U)
!S2P File: Measurements:S11,S21,S12,S22:
# Hz S DB R 50
800000000	-14.352481153688	-128.871927900508	-0.304176138827489	-25.5325508354841	-0.289879245229418	-25.5636101352251	-14.2771336090593	-108.685532937761	
801700000	-14.408685715879	-128.565996940727	-0.291099536240249	-25.6350401254736	-0.296654128414589	-25.6616964088471	-14.198475292584	-108.559455498689	
803400000	-14.3302727465406	-129.184459752909	-0.295132921277215	-25.6097668256745	-0.284469588094657	-25.64570265354	-14.2604107428071	-108.411372966516	
805100000	-14.3183193007148	-128.721731402597	-0.299915812868904	-25.7229524268913	-0.299460233596295	-25.796787104795	-14.1679804914688	-108.822565979702	
806800000	-14.3200908280482	-128.439599494441	-0.295907821098917	-25.6761341991712	-0.305589254562364	-25.8531249341876	-14.1433741266662	-108.799865190348	
808500000	-14.2031001192811	-129.244984799036	-0.300605722153863	-25.8049692969589	-0.304893890570714	-25.8634579428328	-14.1113728088811	-108.571944169373	
810200000	-14.296343140271	-129.511793094954	-0.289420291986994	-25.8955387966016	-0.301483167920033	-25.8773225110528	-14.1542294399312	-108.530674656682	
811900000	-14.212305369399	-129.059141674944	-0.3055972593993	-25.8840997066106	-0.295266646717439	-25.9402427504367	-14.0693984031907	-108.877496166425	
813600000	-14.2317341674046	-129.138895710485	-0.314762671737676	-25.9203842601897	-0.286568894434553	-26.0063564974377	-14.1158708686286	-108.718990117144	
815300000	-14.275220949414	-129.608036644939	-0.299826060474265	-25.9433719199689	-0.304766016437139	-25.9643397000808	-14.0649906911681	-108.304066808556	
817000000	-14.1653070666226	-129.784278392604	-0.291141166261778	-26.1452270389388	-0.304246207089532	-26.0952076136455	-14.0236336342504	-109.345612644795	
818700000	-14.1706404270782	-129.623121318244	-0.292854742273168	-26.0793753950992	-0.301572421329831	-26.2108616667773	-14.0581561147111	-108.629251464092	
820400000	-14.182831259507	-129.538549761109	-0.297532290707801	-26.1945369868371	-0.303656483313823	-26.1472153419814	-14.0614208318384	-108.849935503786	
822100000	-14.1875700531042	-129.344100465545	-0.313004151667668	-26.2521616046843	-0.309827239224811	-26.2146645357647	-14.0451376879762	-108.926229871156	
823800000	-14.1574671690383	-129.425683614982	-0.30417329820517	-26.3024409854837	-0.304825300681273	-26.229919934892	-13.9929845614546	-108.871893576153	
825500000	-14.1340590593476	-129.6842490145	-0.306025301838112	-26.330885335655	-0.312370574673105	-26.2986425165775	-14.0136552991306	-108.921267395987	
827200000	-14.0239772381259	-129.699318117799	-0.310846185104558	-26.4232182575019	-0.29548513742323	-26.4720382115992	-13.9125054012912	-109.578530890937	
828900000	-14.014389020001	-129.975172905235	-0.318545958587572	-26.466475753115	-0.319093571238937	-26.494331933203	-13.8754250018881	-109.50915554364	
830600000	-14.1207494354278	-130.085459544455	-0.317716717058113	-26.5404917753727	-0.312993645606903	-26.446963074013	-13.9718375882952	-109.631835255351	
832300000	-14.1095644616091	-130.331049940401	-0.320514278185295	-26.5414725430366	-0.31319250275513	-26.5045430228145	-13.9362536134136	-108.352778941252	
834000000	-14.0835830767244	-130.203899889683	-0.31085766305802	-26.5346510033442	-0.307244099541324	-26.5988432527981	-13.8928372583284	-108.991158909393	
835700000	-14.0070773295087	-129.809058536334	-0.312097956373196	-26.7383607278584	-0.297197322132653	-26.6609115981293	-13.83097333987	-109.046961836502	
837400000	-14.1262172937543	-130.249410262252	-0.306509131211029	-26.7118820835948	-0.32634514563038	-26.7062811782103	-13.8852437440898	-108.643193293542	
839100000	-14.0193492682767	-129.963287391119	-0.325038332450473	-26.7024064877408	-0.306890964803134	-26.7954859831998	-13.8708610146519	-109.021019672072	
840800000	-13.9432811290356	-130.390653140516	-0.316062768585539	-26.8631755049937	-0.311874689733984	-26.827620205587	-13.85927990571	-109.55648940359	
842500000	-14.0419925735561	-130.296959948976	-0.323996634223744	-26.9097949019954	-0.320468015169131	-26.9486996702083	-13.8504413323648	-109.856806438883	
844200000	-13.9415275912494	-131.135035056411	-0.316530356860289	-26.9180833923991	-0.319050319003022	-26.9265541627394	-13.8800981927564	-109.586892537683	
845900000	-13.9225230184171	-130.523065186722	-0.31223716439085	-26.9145215871579	-0.329946959872342	-26.9028019775583	-13.8110868122065	-109.848529016884	
847600000	-13.8933277088324	-130.551184424711	-0.336758195742795	-27.0442525377168	-0.324394448978342	-27.0757253687891	-13.8114275634275	-109.825409716726	
849300000	-13.9902237273091	-130.835678071341	-0.311133161954892	-27.0848813351729	-0.328313426492334	-27.084641761073	-13.7428059856106	-109.223300657879	
851000000	-13.8721910361947	-130.699427748247	-0.310400461353875	-27.1229481697959	-0.323927611920526	-27.1626202290687	-13.7121298024654	-109.038646619467	
852700000	-13.8647353731646	-130.622422400634	-0.315293241750325	-27.2290654379024	-0.316799089767095	-27.1454160511848	-13.8331184855561	-109.310882261684	
854400000	-13.8842305717426	-130.763729532825	-0.311194919099698	-27.1803158653836	-0.314179322445323	-27.2106666132843	-13.8284483271281	-109.7481170778	
856100000	-13.8550865834521	-131.405834226472	-0.301028519801116	-27.3511240615967	-0.325096507267997	-27.2512667438397	-13.713357313188	-109.727642389136	
857800000	-13.8181055760028	-131.229102939518	-0.331123120975609	-27.3371022762405	-0.328705635234352	-27.3865656008775	-13.7118124109204	-109.674369091677	
859500000	-13.8531742716604	-131.164361878578	-0.333019782491491	-27.4038193263968	-0.319538816045856	-27.3373488549495	-13.7769059429408	-109.462720247524	
861200000	-13.8042676375076	-131.158003193715	-0.323892912134461	-27.475261742136	-0.337747104617469	-27.3942843490777	-13.7045924025545	-109.940492144005	
862900000	-13.803257828588	-131.186764969601	-0.333753113475216	-27.5620958708385	-0.326009077633862	-27.5399899476011	-13.6184586238256	-109.128021220755	
864600000	-13.7700795322145	-131.593432117432	-0.324997202803765	-27.5134490466081	-0.325630688751475	-27.4425267061398	-13.6872386705493	-109.344765911902	
866300000	-13.7384885966105	-131.502426855474	-0.323907802575042	-27.5242963458833	-0.324999644541247	-27.5883596871794	-13.61062363133	-109.040137085813	
868000000	-13.8460393540376	-131.453502886132	-0.323163447140911	-27.5757725036261	-0.334045637085364	-27.5270758142494	-13.6304333411899	-109.210476054957	
869700000	-13.704158183398	-131.849267711427	-0.33660258960441	-27.6085588632243	-0.327816920274206	-27.5845946738562	-13.6265612499777	-109.695689092058	
871400000	-13.7469057081161	-131.913831529641	-0.32857721665095	-27.7194771216895	-0.338984190634669	-27.7071167161849	-13.5743872931579	-109.77281811716	
873100000	-13.5683906492051	-131.88666434754	-0.339696151412369	-27.7819951519429	-0.335302404020906	-27.73589026389	-13.5808628732732	-109.885606696817	
874800000	-13.6809717283856	-131.846482950624	-0.342238122063689	-27.9238815778802	-0.321176431184734	-27.8363611778242	-13.5852657692121	-109.984029413759	
876500000	-13.635891580452	-132.16902460459	-0.336668971919604	-27.8820321495827	-0.327781044586349	-27.8478597779915	-13.6337361805735	-109.834988954776	
878200000	-13.6815495155446	-132.225700459849	-0.335122799391662	-27.8993588099865	-0.32425983259873	-27.9943445971497	-13.5250021954776	-110.015567454711	
879900000	-13.6753363764532	-132.050855085332	-0.353070003538922	-28.0558917217355	-0.330400024326374	-27.9630632583526	-13.5388952736877	-110.064945797649	
881600000	-13.5762538763328	-132.008716447356	-0.335718783685453	-28.0510852474839	-0.333870421544651	-27.9866030608569	-13.4483591542413	-110.087228293402	
883300000	-13.6109646200005	-132.384563991741	-0.339228416961299	-28.0704445128395	-0.327050900703252	-28.0401112697721	-13.4882640339563	-110.265140710192	
885000000	-13.5986527439394	-132.553025402604	-0.337699809234304	-28.0898140609414	-0.345984691270201	-28.0711683813239	-13.4955934208425	-110.386587610033	
886700000	-13.6098763650892	-132.848000895343	-0.343208602567495	-28.2434725796461	-0.337627621778177	-28.2299930593418	-13.4637586715527	-110.124545326343	
888400000	-13.604828143783	-132.686133680442	-0.332372030390362	-28.2488667800439	-0.347927997931948	-28.2416005207952	-13.5547586995777	-109.910295980342	
890100000	-13.6046414108994	-133.2393075396	-0.351113840635536	-28.3548108096553	-0.346529442977363	-28.2999244698897	-13.4118650027649	-110.698574232863	
891800000	-13.6024122038653	-132.565682223904	-0.346803093484149	-28.306397820034	-0.333821321209958	-28.2854095273084	-13.4441278411582	-110.006835986595	
893500000	-13.5140588344458	-133.119459004468	-0.339864503918847	-28.5124888500836	-0.338298342293499	-28.4185293341607	-13.3483302277599	-110.159761493344	
895200000	-13.4921799803396	-133.133817202356	-0.345924757236681	-28.4779072662376	-0.350129393803258	-28.4709686179126	-13.4686905694115	-110.477403388845	
896900000	-13.5541631736682	-132.514757283488	-0.342923300343479	-28.5383516841301	-0.353384884068517	-28.5127569724484	-13.3734927990627	-110.214123311173	
898600000	-13.4667030558828	-132.804299414626	-0.340829874545305	-28.5644837607974	-0.344847865478801	-28.5167276575158	-13.3116954753916	-110.104601322761	
900300000	-13.4605633440323	-132.825495119966	-0.339003933643244	-28.667453701615	-0.34165592732995	-28.6301284350743	-13.3809909782207	-110.141631647909	
902000000	-13.4802733725506	-133.065132673435	-0.332140208808974	-28.5837377868997	-0.348625584114075	-28.6948076527194	-13.2916350632894	-110.558925904713	
903700000	-13.4231992454732	-133.410022332209	-0.35457471299758	-28.7331946664503	-0.36218856287558	-28.7676434094985	-13.3015502416165	-110.821957364957	
905400000	-13.4589258165353	-133.211703730551	-0.359271053345268	-28.7397891286619	-0.338474118397241	-28.7816475186821	-13.2863005390449	-110.460382608685	
907100000	-13.4484094519267	-133.431436960484	-0.356755400985168	-28.8356147231362	-0.341860038295437	-28.730226099331	-13.3010649778302	-110.886175927281	
908800000	-13.3600803168964	-133.311303129822	-0.360007620962039	-28.8719648706331	-0.363499290489409	-28.8298748281064	-13.2729637704847	-110.578688199429	
910500000	-13.4515912933567	-133.893949025096	-0.347858619118609	-28.90363822444	-0.344838068165737	-28.9401686948698	-13.220831190751	-110.295423088842	
912200000	-13.3716187617629	-133.690437839201	-0.360911572964821	-28.9213532347604	-0.368594743327968	-28.9827443672113	-13.2542075273561	-110.012076800504	
913900000	-13.3672698603468	-133.461487166313	-0.351580066784487	-29.0414209502287	-0.354609206738281	-29.0514382118331	-13.17497532255	-110.551956557652	
915600000	-13.4281113217135	-133.699608005703	-0.362333163599694	-29.0491688269956	-0.346514968067361	-28.9797249077165	-13.2519993981785	-110.51706091346	
917300000	-13.3395519319248	-133.471940219733	-0.343817178013995	-29.0932531635005	-0.349894053197976	-29.1389666908597	-13.2019142762102	-110.257464153323	
919000000	-13.2779792434539	-133.843666663966	-0.361060871320615	-29.0838199915966	-0.350257815785779	-29.2402912422847	-13.1883927976808	-110.599535968553	
920700000	-13.3195411030764	-134.012939650647	-0.36261223186889	-29.2475339146703	-0.355925910145335	-29.2128349048893	-13.167595487135	-110.665605523332	
922400000	-13.3597239641525	-133.844657681377	-0.347510266291744	-29.2737978277969	-0.347462563936909	-29.2433365470104	-13.1824982356739	-110.124287450403	
924100000	-13.3176124657015	-133.843112060822	-0.366167084597707	-29.3741591327802	-0.361847177571003	-29.2893020171341	-13.1257349587433	-110.266833474846	
925800000	-13.2426520729928	-134.294923576236	-0.361344348498703	-29.3931350881058	-0.357413745530003	-29.3539206328191	-13.1396132191323	-110.638970611494	
927500000	-13.2862153519778	-134.645908775245	-0.368753129968326	-29.3685843636046	-0.363920400131332	-29.4100771846983	-13.0363986163832	-110.061141221824	
929200000	-13.2705656900585	-134.713327885857	-0.352832160343588	-29.5270648798366	-0.360159031650607	-29.495922781454	-13.096299103327	-110.807604758636	
930900000	-13.2338242413765	-134.890474116237	-0.358979823362129	-29.5970459299607	-0.357229753975062	-29.5525305483655	-13.0936293771405	-110.574947819224	
932600000	-13.2691743744529	-134.838837591378	-0.36919513242425	-29.6178795784061	-0.354651957770987	-29.5858285205713	-13.092042403365	-111.030938524335	
934300000	-13.2095870661599	-134.86840193752	-0.355877662159076	-29.6399607680866	-0.349634510894466	-29.5721477727594	-13.070924245407	-110.761110617306	
936000000	-13.1877267076839	-134.549930737493	-0.373062913400646	-29.7033796283066	-0.354606717924918	-29.6320686423629	-13.0557827397814	-110.866210307523	
937700000	-13.1691029457594	-134.83455266694	-0.36360620139507	-29.6856341193143	-0.368292074177752	-29.7059596068098	-13.0504557478791	-110.667602817741	
939400000	-13.1212328907131	-134.763092398598	-0.367734323164494	-29.8619052058553	-0.364363856982113	-29.8386906536221	-12.9922170065629	-110.78960434447	
941100000	-13.101182046158	-135.027553418433	-0.364287236685764	-29.7507122931907	-0.361481766475805	-29.8383338097104	-13.0278520221042	-110.820440372966	
942800000	-13.1466867427617	-134.85951047963	-0.369687928068718	-29.9043076154139	-0.358332408231249	-30.0127272324178	-12.9752084303612	-111.092000056919	
944500000	-13.1880084413063	-134.868218692129	-0.37691362570771	-29.8908228895256	-0.359719108461424	-29.9834043140237	-12.9806942101363	-110.871731034598	
946200000	-13.1302795253018	-135.329400419909	-0.361411774198754	-29.9649041646792	-0.356429583541291	-29.9886103603914	-12.9539643881289	-110.906074381809	
947900000	-13.1038446045648	-135.03516085118	-0.375098329630574	-29.9961920435253	-0.364409639871153	-29.9552192738987	-12.9614432821155	-111.276288669125	
949600000	-13.0482306760494	-135.512540440245	-0.372127236924285	-30.1374337607906	-0.36788073289542	-30.0649071996438	-12.9104416134802	-111.598243407964	
951300000	-13.0548470876004	-135.425257583227	-0.381191449423121	-30.0827004127387	-0.37539779506505	-30.1593851579239	-12.9129628276629	-111.369507831483	
953000000	-12.9931172787508	-135.384991883124	-0.371958812146863	-30.1435732031767	-0.367564695587553	-30.2586782324767	-12.8841863018264	-111.204470671095	
954700000	-13.0828738041587	-135.697791553474	-0.382487680338577	-30.2287147889626	-0.361691074110779	-30.3054501544306	-12.8536080164217	-110.710977324044	
956400000	-12.9934024522729	-135.549191938415	-0.363693250533313	-30.2541905321792	-0.375495604069157	-30.3378050349916	-12.8784472729432	-110.712094639512	
958100000	-13.0266857558598	-135.386179390401	-0.377221048715667	-30.3567043629885	-0.373779045533242	-30.3373153924457	-12.8321372636475	-111.436319000701	
959800000	-12.9730074144664	-135.460872335862	-0.376511307568686	-30.4446506200687	-0.378811361482927	-30.4409569392638	-12.9015981834491	-111.246580472826	
961500000	-12.9991079728857	-135.805703048001	-0.38052066405465	-30.4755572335854	-0.379263820122561	-30.4398379430857	-12.8107341224455	-111.34329711849	
963200000	-12.9424972662615	-136.065988417205	-0.379889038088797	-30.6552315029332	-0.369943634982821	-30.5135253529775	-12.8112939213766	-111.907656078371	
964900000	-12.9865693931449	-136.067837137723	-0.373715213796736	-30.5004464353739	-0.372132887874776	-30.576596068037	-12.7905122629488	-111.73523174355	
966600000	-12.9685148575503	-135.855401322033	-0.364720599535475	-30.6588203142714	-0.378540206006665	-30.5875163877707	-12.8320708632209	-111.537643356505	
968300000	-12.9263454464713	-135.672223124422	-0.381872665788868	-30.7685572953371	-0.375388802386604	-30.6914602237022	-12.6847771784653	-111.465801053052	
970000000	-12.9149485222768	-135.840293946794	-0.383798784371153	-30.723980743566	-0.380274811617533	-30.6619706625065	-12.7728417806483	-111.331311579934	
971700000	-12.8840607522408	-136.112318749145	-0.383785511289572	-30.754330146097	-0.369545475934298	-30.7203548468892	-12.7656716641296	-111.574168002317	
973400000	-12.8761512789019	-136.271613040485	-0.377017625379821	-30.7325273541348	-0.384845907736197	-30.8297139784801	-12.7637298746165	-111.318851318578	
975100000	-12.8870287224226	-135.955637155243	-0.39150320581265	-30.8348613552712	-0.374497913074935	-30.8653507386976	-12.7594921906853	-111.476423313233	
976800000	-12.8477065122534	-136.501415694301	-0.384294726843515	-30.9370277445053	-0.388318435129577	-30.9905602185067	-12.7439379932528	-111.393901760258	
978500000	-12.8608617708139	-136.037393158735	-0.391353449464324	-30.9925444501469	-0.391998192768854	-31.0105418680509	-12.7577924549412	-111.290893562507	
980200000	-12.8135680472361	-136.024964401557	-0.378657601903062	-30.9592821923136	-0.365953993598466	-30.9128504822291	-12.6697168129117	-111.496445985392	
981900000	-12.860196388047	-136.223615830689	-0.396506805057553	-31.1402704756667	-0.394133577625771	-31.0853916179566	-12.6971828309769	-112.277372604083	
983600000	-12.7769884135051	-135.966834986712	-0.401691450548727	-31.0535184407959	-0.392066348655365	-31.1221731467306	-12.7129637584425	-111.944620034184	
985300000	-12.7719519171433	-136.664194921041	-0.388405225868067	-31.1715433234267	-0.385296482327999	-31.1775941820329	-12.6021219842323	-111.870262417692	
987000000	-12.8315811384045	-136.597417358613	-0.384108565837845	-31.2247089958533	-0.381187193475481	-31.3130224217369	-12.6450746770623	-111.959688036433	
988700000	-12.7187081484987	-136.913589620188	-0.381983915911507	-31.2456865318145	-0.388648682068279	-31.3028620237783	-12.6045241497459	-112.067523849111	
990400000	-12.7546786065818	-136.677590220306	-0.394855147211832	-31.355104103067	-0.39868516293948	-31.3159645497283	-12.6789570096862	-111.807325506542	
992100000	-12.750318953194	-136.518330846755	-0.403140521059406	-31.3014117394464	-0.382176708635627	-31.4257404701386	-12.6523384661964	-111.982588582964	
993800000	-12.7927755819033	-136.860111240432	-0.398635418753016	-31.4358718369918	-0.385234167687803	-31.4287759907054	-12.6679281132098	-112.209704416134	
995500000	-12.7451888132132	-137.144172811817	-0.404455128302986	-31.4508984177981	-0.410237051938789	-31.5021325507629	-12.5414970133183	-111.824757266102	
997200000	-12.7437210042247	-137.009825167921	-0.401975518790485	-31.5959897977546	-0.417975153239122	-31.5255972072839	-12.5714621958256	-111.71214221146	
998900000	-12.6145840821151	-137.013835469798	-0.404071569669468	-31.4887977446824	-0.406988513054649	-31.5546353174137	-12.5088163461596	-112.231960766704	
1000600000	-12.6389289993275	-136.923823614002	-0.396066797247741	-31.6983048319163	-0.393318936134616	-31.6371641397151	-12.5901395538582	-112.721888393233	
1002300000	-12.6628489660712	-137.298054168235	-0.394096819428983	-31.6241567646531	-0.389789223123405	-31.6501215335773	-12.5655639843272	-111.920629800738	
1004000000	-12.648388275353	-137.36542346772	-0.409750452067247	-31.7741140867171	-0.389159837631902	-31.7728480688124	-12.5369730030678	-111.623772446038	
1005700000	-12.6428109822431	-137.29110005946	-0.415375705168852	-31.7692762394253	-0.400417449425777	-31.6798650662461	-12.5035308273076	-112.054589474082	
1007400000	-12.6434284898982	-137.128268808541	-0.402041627506651	-31.803997947693	-0.41291476019252	-31.7756528412489	-12.4810538319268	-112.145424567627	
1009100000	-12.6133623748021	-137.558858737312	-0.400685186047934	-31.8843253427345	-0.39926421451737	-31.9123149787321	-12.4185903197965	-112.082712638176	
1010800000	-12.5992941461592	-137.622788312004	-0.408952225004761	-31.9763095548977	-0.401242185183045	-31.8772033606836	-12.4403489995128	-112.742511966274	
