!Keysight Technologies N9950B: A.12.38
!Date: Thursday, 01 June 2023 13:44:41
!Timezone: (UTC-06:00) Central Time (US & Canada)
!Model: N9950B
!Serial: MY61131330
!GPS Latitude: 
!GPS Longitude: 
!GPS TimeStamp: 0001-01-01 00:00:00Z
!GPS Seconds Since Last Read: 0
!CHECKSUM:0348304072
!Correction: S11(ON U)S21(ON U)S12(ON U)S22(ON U)
!S2P File: Measurements:S11,S21,S12,S22:
# Hz S DB R 50
800000000	-19.9708832415632	-127.765275627095	-0.0574673761091534	-21.2178438331687	-0.084633457390231	-21.187932378941	-19.7131541283351	-95.0868023599755	
801700000	-19.7767477502745	-128.65344293843	-0.0638977989376442	-21.2276606480649	-0.0720974950786737	-21.3125837412792	-19.5341847432263	-94.8669953711554	
803400000	-19.8915662590685	-127.391397620257	-0.0677879092878694	-21.389318733094	-0.0824484120189332	-21.3641860336403	-19.62420413111	-94.2632604776551	
805100000	-20.0968039205932	-128.445642317488	-0.0691329177824309	-21.356834355828	-0.0851464169144501	-21.3717000729714	-19.6555681167884	-94.4256870365142	
806800000	-19.9711903476951	-128.182258934824	-0.0799842816645994	-21.4627623531831	-0.0722867031977266	-21.4261182030989	-19.3816028692282	-94.6355527420087	
808500000	-19.8345413915006	-128.75092673534	-0.0711142518750605	-21.4407711039399	-0.0853115598034722	-21.4338978565822	-19.485427532331	-93.8874326600203	
810200000	-19.8834850130216	-129.324115427948	-0.076598826270923	-21.5222704996898	-0.0795011611290692	-21.3933224499556	-19.5831537904008	-94.3325371840988	
811900000	-19.6412313402251	-128.889971808427	-0.0817609717673411	-21.4928648280904	-0.076435935005409	-21.6727312866247	-19.6900872523283	-94.4790424503287	
813600000	-19.8916776430602	-128.214408980346	-0.0801591301367913	-21.605888687222	-0.0661242721519269	-21.6875516496109	-19.4161596033171	-95.8950755584442	
815300000	-19.7254932450658	-128.84738309467	-0.0716502957409018	-21.6415360636509	-0.0810486036733287	-21.676461683458	-19.4826694112792	-94.7135570669118	
817000000	-19.8327135738633	-128.775795018277	-0.0659412739916768	-21.6510686079074	-0.07924183705139	-21.7429671912065	-19.4148229058497	-95.2324350632612	
818700000	-19.7592577181775	-128.711197532441	-0.0696175013174437	-21.7153302067921	-0.0740317123759708	-21.7710908629326	-19.4184936187449	-94.9018932596863	
820400000	-19.7685772286215	-129.457168088068	-0.0711248914006692	-21.7928709248282	-0.0675502015160402	-21.7995869629251	-19.4720882360096	-94.7840871716268	
822100000	-19.7767201619141	-129.005363743258	-0.062493795758011	-21.8331239489283	-0.0707958765485622	-21.7436847002639	-19.4925861258087	-94.1836695041363	
823800000	-19.6791527321993	-129.730841131016	-0.0786986509426325	-21.8945724475116	-0.0780965595770995	-21.7803095788306	-19.4271421041398	-93.7856776569292	
825500000	-19.7500843645618	-129.314249460579	-0.0721221198755858	-21.888131082675	-0.0840249455799248	-22.0024179248041	-19.4259496343793	-95.6716322288078	
827200000	-19.7399198770773	-129.272838019479	-0.0859059243136189	-21.8882041779688	-0.0925771912286555	-21.9109103861765	-19.3272914506498	-95.1630872027518	
828900000	-19.7721996482525	-128.889296284392	-0.0779812722931799	-22.0603151151878	-0.105112093821276	-21.9792326356565	-19.0956015382155	-95.8279939101763	
830600000	-19.463066311786	-129.537480003907	-0.0688527057899034	-22.0612326245809	-0.0723964357297987	-22.0655089029137	-19.3639252337183	-95.5636083568897	
832300000	-19.6172583736981	-128.965188289688	-0.0820900982796448	-22.0989893713227	-0.0931625114341428	-22.1090328808152	-19.2861065799703	-95.1949572211791	
834000000	-19.4561889766022	-130.507206742744	-0.073250445104879	-22.1278810443731	-0.0893647165971419	-22.1207020253082	-19.2662923251621	-95.2319405659741	
835700000	-19.5279664430096	-130.02202183234	-0.0627372151097123	-22.2223285183704	-0.0813556535476114	-22.2275160657792	-19.2681145703913	-94.0367917507458	
837400000	-19.5484029757638	-129.501123581501	-0.0743982439465745	-22.1635957812294	-0.077991873032704	-22.2914018972791	-19.0861425961141	-94.8324202869294	
839100000	-19.361379630169	-129.656104620247	-0.079197236420615	-22.2239140049994	-0.0815928566981138	-22.3489075282992	-19.0627759507866	-94.8543655678519	
840800000	-19.4833357752513	-130.009310311775	-0.0748694773253845	-22.2834834673779	-0.0910690303970734	-22.3387345195422	-19.1668900069255	-94.6746674421999	
842500000	-19.5158061236731	-130.621606546526	-0.0733460355252378	-22.4299592842585	-0.0852817179948914	-22.3631295966658	-19.3098509067399	-95.6022040807668	
844200000	-19.4744508313376	-129.982410181786	-0.0796789809055085	-22.3545806872959	-0.0776923052416219	-22.4686821899631	-19.1230259311462	-95.5947373650075	
845900000	-19.4160995859373	-130.228768456229	-0.0610767787073431	-22.5382847345089	-0.091975511131196	-22.4350321222656	-19.1019745852049	-95.970300558695	
847600000	-19.3565611047236	-129.848640578551	-0.0751333866141656	-22.528599454741	-0.0837987981978711	-22.5022564748537	-19.173554659139	-95.2864885187532	
849300000	-19.4683367226854	-130.020694576867	-0.0736852421563954	-22.5167285435483	-0.0844792243141137	-22.4754178326038	-19.1580425281227	-95.4103861027572	
851000000	-19.4210043123963	-130.741494894577	-0.0861310409324775	-22.5399771365607	-0.089384129401438	-22.6285556042556	-19.0970016401263	-95.4311519967664	
852700000	-19.3594385176283	-130.519439605719	-0.087522625205394	-22.6292517514	-0.0842568310865336	-22.6306624557491	-19.1398177186851	-94.1869383169614	
854400000	-19.4065103824635	-130.832283160278	-0.0768571330573053	-22.7017039892991	-0.0794022386440175	-22.6755169886453	-19.0934977092485	-95.5738817663425	
856100000	-19.1659655147926	-131.222388480164	-0.0828138827072086	-22.7499662986603	-0.0952355534722676	-22.6756420733406	-19.046932103202	-95.6077273382711	
857800000	-19.3264118522171	-131.293062073794	-0.0838256859546848	-22.7830635136656	-0.0938353914065362	-22.6732336557919	-18.9067785482203	-95.8227928368738	
859500000	-19.2628205093454	-129.552511469122	-0.0905122812803499	-22.7632018903194	-0.100906367849226	-22.7812314167602	-19.0390270173612	-94.7983300486316	
861200000	-19.2775153722987	-130.060815891836	-0.0766598589679841	-22.8652782829912	-0.0980617744356211	-22.8880003590276	-18.9139669077539	-95.3229460636241	
862900000	-19.3225894382834	-130.405284794792	-0.0730662380413673	-22.8815700481808	-0.0885634175527568	-22.9509123674307	-19.0358063706551	-94.6111304661012	
864600000	-19.1559931089534	-130.412129284123	-0.0805940154470007	-22.9519593416865	-0.09712899788558	-23.0408200088093	-18.9410737121044	-95.2349055695758	
866300000	-19.037705809855	-130.586750931255	-0.0874856013978307	-23.0066752863205	-0.0808755572034367	-23.01654239556	-18.9771640932484	-95.0469572677501	
868000000	-19.1000428099555	-130.092957119611	-0.0849236670023866	-23.0740968741848	-0.0917528166117787	-23.1378241438262	-18.8748842904127	-95.7712064305157	
869700000	-19.3437607956572	-130.890241994822	-0.0828286754234815	-23.1009360328159	-0.0834685040652507	-23.0883568330293	-18.933261187741	-94.15778573935	
871400000	-19.2049269982094	-130.790762505227	-0.0702239646460193	-23.1225568850038	-0.0896464192941996	-23.1477826319588	-18.9854218087166	-95.0664239716209	
873100000	-19.1533247590883	-131.891005753212	-0.0868415750698901	-23.3084037091203	-0.0985591730125827	-23.1606296957525	-18.8740581070606	-95.7740056172311	
874800000	-19.091694883794	-131.647606918498	-0.0839029798021046	-23.2620817742455	-0.095124019774287	-23.1611162807968	-18.7973720848116	-95.8140994586285	
876500000	-19.064276972035	-131.553705351302	-0.0828119381883556	-23.2328112699246	-0.0956642946901563	-23.2805147875512	-18.6749424503621	-95.6340541167685	
878200000	-19.0241374622032	-131.77697659097	-0.0714437241473372	-23.2474270165844	-0.0925075851506656	-23.2438850332711	-18.7963794767162	-95.8048611232028	
879900000	-19.0927258651751	-130.720291425777	-0.0940467084574417	-23.4539801748784	-0.0842339954628134	-23.3539629762581	-18.7661333541036	-95.2212585507274	
881600000	-19.0959239327119	-130.932844308075	-0.0808881495375404	-23.3899704843473	-0.0873351471678769	-23.3086324819102	-18.7540972834237	-95.7114788521478	
883300000	-18.9426903821007	-131.714954557703	-0.0971285876052471	-23.4303857118896	-0.0898244472431125	-23.4088117163442	-18.6704212443569	-96.3018193433725	
885000000	-18.9458637865919	-130.91361857579	-0.0877500083799257	-23.5156902827124	-0.100711354998111	-23.483331165626	-18.6449042230482	-96.093941024286	
886700000	-18.956729189369	-130.818337216534	-0.0861962199403613	-23.5565258559309	-0.080886748402843	-23.4608143735374	-18.7179402741761	-95.5116275318313	
888400000	-19.0063784605623	-132.715958364322	-0.0995185977459858	-23.5603303368898	-0.0961625485411505	-23.5144709694348	-18.5675072119791	-96.0830640409109	
890100000	-18.9168908699169	-132.057465977408	-0.0951496084696882	-23.7185648502954	-0.097997268850756	-23.6471860366271	-18.6856885912179	-95.5068568702744	
891800000	-18.9508385060524	-131.832622813172	-0.0780738390891108	-23.5690900953219	-0.096764747575071	-23.7103400914456	-18.7686617254262	-95.6397229961822	
893500000	-18.9902524765753	-131.629272957845	-0.0804515163124436	-23.7523118643506	-0.087974029931625	-23.6793910190147	-18.6119819610514	-95.9971606389933	
895200000	-18.9558501470278	-131.253507655052	-0.0696372705716811	-23.6818383671874	-0.101243605538538	-23.7365415118166	-18.483729229357	-96.147704078019	
896900000	-18.8970410097172	-131.74959835035	-0.092346070371891	-23.8209169629876	-0.0979716157928788	-23.8654430406995	-18.6038256613789	-95.9964920506813	
898600000	-18.8344257514217	-132.111754773651	-0.105256786517141	-23.7340584209888	-0.0848063401938378	-23.923816503799	-18.6368328047833	-95.7435866467691	
900300000	-18.8361846013679	-133.252462513804	-0.0973906833630148	-23.9134945756996	-0.0918007327205675	-23.8516159931601	-18.5970018681499	-96.0222048028584	
902000000	-18.7560892577297	-131.76387154328	-0.0792561435666403	-23.9925990112999	-0.0959157457285248	-23.9144497332154	-18.5037681651113	-95.5996969674966	
903700000	-18.7984812521954	-132.221592152611	-0.103780016451518	-23.8730497929852	-0.0857187215367093	-24.0087882839361	-18.5885719267403	-95.6545934821163	
905400000	-18.702128006824	-132.66142907205	-0.0832422214151847	-24.017310834378	-0.10888060850698	-24.087028727113	-18.5483176779563	-95.8389223953772	
907100000	-18.8413221877171	-132.853647970794	-0.083591312082485	-24.097205770161	-0.0912936774347993	-24.0135779308082	-18.4342897189782	-96.8252794584061	
908800000	-18.6594140044966	-132.939710916295	-0.0824270042881801	-24.1045035850796	-0.111736818145908	-24.2094272726879	-18.5311030165828	-96.8634382673954	
910500000	-18.7349203890956	-132.552394149291	-0.100359425565022	-24.2164098805776	-0.0937212716409932	-24.1549048252898	-18.4240462666869	-96.2575876545421	
912200000	-18.7100971276383	-132.818532950293	-0.0841352393809097	-24.271492314564	-0.0943701946382998	-24.2112735815376	-18.5090349984482	-96.5888112262255	
913900000	-18.8165465192839	-133.638299023264	-0.103870284596268	-24.2183244132665	-0.0875645294401873	-24.1575930177477	-18.5372654455003	-95.4019164161009	
915600000	-18.7923935227698	-132.82950121879	-0.0960793037651914	-24.3823590887059	-0.0861885727830986	-24.3889108089786	-18.4876889273683	-96.343312817618	
917300000	-18.6531265321613	-133.799825489909	-0.0789232425112879	-24.2898430108486	-0.079876524618557	-24.3514736193405	-18.5296471624935	-96.985745394325	
919000000	-18.6708050323778	-132.413062769436	-0.0836995535439351	-24.2589505191857	-0.0923205086211382	-24.4254078752374	-18.4635953486837	-96.112000752579	
920700000	-18.6049290204622	-133.206187379591	-0.106853225261438	-24.4302684819053	-0.0940127679418353	-24.4765056657006	-18.4146516738199	-96.5930118368848	
922400000	-18.6615473172768	-132.924985601638	-0.0867773676190491	-24.5112304286444	-0.094946142689006	-24.492471416029	-18.4163028276904	-96.5377186227993	
924100000	-18.5946170669103	-132.569606962394	-0.0992538217553071	-24.5669120469381	-0.105310268080021	-24.4857966765169	-18.2719108756328	-96.2301124259744	
925800000	-18.7374977817415	-133.20774334161	-0.0761178375559092	-24.6542280979353	-0.104161333420828	-24.5041832867125	-18.4793032787412	-96.2559933709901	
927500000	-18.6339297097879	-132.831885231826	-0.101213934937708	-24.6072239096295	-0.103364441161663	-24.5393380965474	-18.3675731486984	-96.7881398366884	
929200000	-18.6568891281872	-133.044949559943	-0.0965497028943345	-24.6647561997195	-0.101051722507063	-24.6735038450226	-18.2296212197176	-96.9506272549132	
930900000	-18.5578162003583	-133.580939689187	-0.0822559155370843	-24.5624050103081	-0.104223902342151	-24.7634815695155	-18.315679537381	-96.4479349140634	
932600000	-18.5158918729493	-133.963321369338	-0.0924001500228601	-24.7312548999211	-0.0867169074217026	-24.8030256854185	-18.1911353652891	-96.1745437940857	
934300000	-18.5674497388535	-133.39763345821	-0.0939435046044085	-24.8475796350432	-0.100805173951928	-24.7219514251892	-18.428542459082	-97.2374784727948	
936000000	-18.5078517751079	-133.233781601294	-0.0804410486629176	-24.7508291354226	-0.105240635321425	-24.8321614946388	-18.1559960715892	-96.5203291132246	
937700000	-18.617952424621	-134.532769830769	-0.0804111093585369	-24.9010071293874	-0.109539068210631	-24.8383225827058	-18.2920728120948	-95.8465595428145	
939400000	-18.437902868311	-133.450765022193	-0.0778584787907101	-24.8629313668475	-0.095090381243159	-24.9671694504696	-18.2687637867373	-96.5990493025632	
941100000	-18.3885009286643	-134.333979534784	-0.099134012104039	-24.8968451531846	-0.116927897351537	-24.9920595113876	-18.3378743927716	-96.24464462477	
942800000	-18.5004677578914	-134.227796757234	-0.0921055016042049	-24.9535573431956	-0.112036969910915	-25.0346263959564	-18.2541424899924	-96.0326905082825	
944500000	-18.4348491760432	-133.517018866964	-0.083074235275285	-25.0974463940454	-0.09707131602867	-24.9728823376148	-18.2070927964143	-95.6393035976492	
946200000	-18.5365421775835	-133.399599962838	-0.0934210783253295	-25.0594817887456	-0.108161414246318	-25.1023763782468	-18.0376168668988	-96.9464518665471	
947900000	-18.3986575208707	-133.457631231915	-0.0930014857417965	-25.1207500382293	-0.104470945834123	-25.1850257885244	-18.1200882737671	-96.8915563949471	
949600000	-18.3301557098515	-135.0435207449	-0.0903999029457322	-25.2429698154689	-0.104094243504702	-25.123629603378	-18.1908740413638	-97.0268360488259	
951300000	-18.3518413159181	-133.895797266987	-0.103115888684815	-25.231648395682	-0.0953370747941575	-25.2878377736565	-18.108435729426	-96.6532908206231	
953000000	-18.2918082093467	-134.308869192951	-0.107397501391367	-25.276866241526	-0.0980433893607338	-25.2687126678631	-18.0275006004719	-96.8042410836695	
954700000	-18.3498003145103	-135.2503810016	-0.0833932732123236	-25.2523052049599	-0.0920229714548304	-25.2286429141062	-18.1674542503803	-96.8845446693465	
956400000	-18.3360204141791	-134.158434698197	-0.108462697448323	-25.3777819020319	-0.0998504079412881	-25.2968942731293	-18.0486704108421	-96.3858684778077	
958100000	-18.2084541005707	-134.551021039236	-0.088232346200198	-25.318185357264	-0.101591257089098	-25.3768431296537	-18.1331128522921	-97.3101193832898	
959800000	-18.4147877103037	-135.152745299057	-0.101654511190295	-25.4622853678488	-0.1047492770059	-25.4419821509522	-18.0779647510951	-96.9088078552901	
961500000	-18.2907208309151	-134.350502583928	-0.0961535870037909	-25.5100838241855	-0.100340680122895	-25.5048637773739	-17.9544035608487	-96.8011701682501	
963200000	-18.4857234465329	-134.199505442836	-0.0928709793785293	-25.7639756972925	-0.109232090740013	-25.6225468746007	-17.952880505722	-96.7834475024117	
964900000	-18.2797296941334	-134.567418802502	-0.0819264230343469	-25.5476049365585	-0.118109347291822	-25.6816332160659	-18.0572558917951	-96.064815107723	
966600000	-18.1974640493528	-134.852428222899	-0.0999075002870214	-25.5966676462649	-0.110272121736774	-25.6898082232812	-17.9651741786581	-96.9621706875378	
968300000	-18.2118519539171	-134.572525110374	-0.0925084419176733	-25.6970826497507	-0.107055065364844	-25.6537375961069	-17.9565830404054	-97.0026365880935	
970000000	-18.2877572166934	-134.935083697338	-0.108864441852396	-25.7131403581807	-0.113052956147045	-25.7463678869684	-17.9044550619794	-95.9324259035388	
971700000	-18.1966770295313	-135.237919911091	-0.0968135977422342	-25.8843414270649	-0.111166643650629	-25.8161180190721	-17.9563997275758	-96.7563789190733	
973400000	-18.2539493270569	-135.439497890975	-0.102724785834316	-25.8226774525473	-0.0989175121867687	-25.7989995746602	-17.7966052628831	-96.0887556557199	
975100000	-18.1200592936579	-135.675157095162	-0.0937608877461189	-25.8231676283384	-0.11866964708162	-25.8050814786795	-17.8523101388114	-96.7566528532114	
976800000	-18.2503612722812	-134.778417114831	-0.113737332891182	-25.8417375493916	-0.113499375004448	-25.8429889652378	-17.9487032991081	-97.3801501923891	
978500000	-18.2043224359812	-135.586333062084	-0.103163289009337	-25.9765838155467	-0.100861951347873	-25.9254175808225	-17.9214110016113	-97.1078334530019	
980200000	-18.1785225893361	-135.273111904578	-0.104304537127815	-26.0283113628649	-0.097679843965412	-25.921909612318	-17.8468244283611	-97.173624492814	
981900000	-18.0878925087914	-135.497680893639	-0.11567624686417	-26.1311603442272	-0.0965697169425444	-25.9896778286781	-17.925935393301	-96.9306382429771	
983600000	-18.1565784714381	-135.69187452557	-0.111223579533586	-26.1349466770129	-0.109155688386424	-25.9557802648418	-17.8081541369084	-96.0843589268466	
985300000	-18.1503671296685	-135.570654664407	-0.0991539065782926	-26.0898371601157	-0.101047414276701	-26.1919182554309	-17.8199483056581	-96.9099481239188	
987000000	-18.1065480670099	-135.488229824256	-0.0962374175249703	-26.233743879835	-0.105851454374385	-26.1689215335824	-17.9187284546103	-96.6593649706143	
988700000	-18.1660556229953	-135.805872372188	-0.0993091103245671	-26.3379347694068	-0.109115845448473	-26.1420579953607	-17.7816919227198	-97.3725401049692	
990400000	-18.0981219717404	-136.22801099355	-0.103839607841045	-26.3363281454093	-0.105501449185626	-26.2503781556417	-17.7444493350433	-96.5138338035143	
992100000	-17.9304187136922	-135.513588487832	-0.107846933817056	-26.3072210495995	-0.0939326120948408	-26.2303159003703	-17.725928792992	-97.1346910720324	
993800000	-18.0764437000925	-136.297987420391	-0.093064252640733	-26.392442056374	-0.108311155645695	-26.3210534369511	-17.7239915678998	-96.926672568071	
995500000	-18.0116372047168	-136.785996697636	-0.103355464319526	-26.4240931666374	-0.107584124446988	-26.3769145734449	-17.7792659661777	-97.7697301668727	
997200000	-18.0136349579891	-136.058984957545	-0.100730558717527	-26.4399484495901	-0.100014302318576	-26.4285412942145	-17.620806792665	-96.718506250614	
998900000	-17.9836245022311	-135.874955771452	-0.104573955887289	-26.4063315491697	-0.127499253685352	-26.4599152365253	-17.7602639922955	-97.7299517135312	
1000600000	-17.9976299762456	-136.011414353806	-0.108485196727084	-26.4889363731053	-0.11283758896777	-26.5279006158923	-17.6896996252367	-96.6685255069697	
1002300000	-17.9112358063884	-136.815985842364	-0.111633423955054	-26.5209778766302	-0.118661847141352	-26.5596201148833	-17.7599950759485	-97.0797931605384	
1004000000	-18.0378745839288	-136.641649561642	-0.116760660708137	-26.5284485485989	-0.121289650703433	-26.5837789052198	-17.7102706477744	-97.6547293345979	
1005700000	-17.9089383209831	-136.953447107025	-0.102863712004316	-26.6665963404051	-0.103679185267375	-26.6793257542985	-17.7418280504926	-96.8850713219434	
1007400000	-17.8900510909483	-137.035122972887	-0.0997813372879446	-26.7194775421433	-0.124920886289793	-26.6302616788015	-17.6463662636721	-97.0687311100939	
1009100000	-17.8327168525485	-137.283655730732	-0.0951076316109509	-26.7482385735155	-0.111469604285948	-26.6867588382236	-17.5988631519351	-98.1514678540804	
