!Keysight Technologies N9950B: A.12.38
!Date: Thursday, 01 June 2023 13:40:10
!Timezone: (UTC-06:00) Central Time (US & Canada)
!Model: N9950B
!Serial: MY61131330
!GPS Latitude: 
!GPS Longitude: 
!GPS TimeStamp: 0001-01-01 00:00:00Z
!GPS Seconds Since Last Read: 0
!CHECKSUM:0321931121
!Correction: S11(ON U)S21(ON U)S12(ON U)S22(ON U)
!S2P File: Measurements:S11,S21,S12,S22:
# Hz S DB R 50
800000000	-14.9736783560327	-128.41385791619	-0.260000402339857	-25.2861824641971	-0.260732542073021	-25.3111784301584	-14.8084987378954	-108.447807623998	
801700000	-14.8592226763234	-129.108702698153	-0.265681449471487	-25.3436246285071	-0.264782498918293	-25.445035862675	-14.7282253126549	-108.3756753392	
803400000	-14.9244666146825	-128.441163508706	-0.27027985736047	-25.4606514933493	-0.284419290695223	-25.4674318611058	-14.7905167838057	-107.845651285778	
805100000	-15.0101073962608	-129.012390586217	-0.26467099426433	-25.4623659806179	-0.277456342982331	-25.5174819601122	-14.8263649571865	-108.010175264386	
806800000	-14.9523423370694	-129.040826080245	-0.276416365936601	-25.6674792470188	-0.264824340892418	-25.4647243931831	-14.6148353842227	-107.831702280453	
808500000	-14.8925325540371	-129.262046340324	-0.266961685140715	-25.6080928854252	-0.26305647367746	-25.6572877980557	-14.6551892440639	-107.90749871521	
810200000	-14.9015724262172	-129.639127311668	-0.269054452941038	-25.7616843770836	-0.262518550700684	-25.5314898270653	-14.7107276692436	-107.994195379989	
811900000	-14.7598309383271	-129.388468601962	-0.280845290811033	-25.6308769157347	-0.273946458996793	-25.745346201122	-14.7880672663859	-108.244450066193	
813600000	-14.8721969390865	-129.119055966579	-0.266022372093797	-25.7754724144754	-0.263041227118645	-25.8629495740836	-14.6391467706983	-108.896727954681	
815300000	-14.7969696283581	-129.467795976588	-0.276960337397067	-25.860524610544	-0.283787323306679	-25.9002322338794	-14.6806573263861	-108.396804843828	
817000000	-14.8500628232083	-129.495007944475	-0.269391036669979	-25.844465109419	-0.272644332601034	-25.9811719374136	-14.6111359598676	-108.814515715883	
818700000	-14.8030096309871	-129.509253725904	-0.278347425435452	-25.8586853219397	-0.273637836631557	-25.9622009834254	-14.6181516517709	-108.575584171587	
820400000	-14.7920507000737	-129.935586250085	-0.270107421332759	-26.0312430810519	-0.282878216936582	-26.0181217910917	-14.6652789819379	-108.877633581803	
822100000	-14.8287390717162	-129.761824160011	-0.283111892868134	-26.097646219793	-0.270509390946202	-25.9471647418922	-14.6580312487106	-108.349731437646	
823800000	-14.7240747280511	-130.206761439146	-0.27777709834669	-26.1296737541547	-0.265225097587893	-26.0233921041981	-14.5881462026171	-107.966937386925	
825500000	-14.7689932733847	-129.942614066274	-0.278328244784582	-26.0638602798309	-0.279978072667213	-26.1457234399384	-14.593525990094	-108.978512485082	
827200000	-14.7606853969394	-129.967944470155	-0.281198669206327	-26.1693226058379	-0.29125074573598	-26.1345730881264	-14.5171499750266	-108.832905406236	
828900000	-14.7265887193796	-129.588991008398	-0.263018826531474	-26.1953365845373	-0.278086496469695	-26.1588973668029	-14.3828840241996	-109.028872871306	
830600000	-14.5937837892973	-130.1875723469	-0.269015224949038	-26.3450236638149	-0.277645668002841	-26.3116346611958	-14.5263195787339	-109.236947205095	
832300000	-14.6732413079038	-129.879151122876	-0.282305122103847	-26.3281684159343	-0.279737232215045	-26.4055549063083	-14.4627158163522	-108.993055535532	
834000000	-14.5838202621199	-130.829384538743	-0.275345227955711	-26.4702681150002	-0.286725370487562	-26.4124962252519	-14.4663588768369	-109.051945429765	
835700000	-14.6008806326177	-130.521124675932	-0.273406253508521	-26.4595693474054	-0.274235480627874	-26.5305869711335	-14.4644038708078	-108.322772481091	
837400000	-14.6295946283517	-130.15417247637	-0.275472251406339	-26.4673123586347	-0.272836977092206	-26.5241015601112	-14.384680948383	-108.690678012214	
839100000	-14.512658031046	-130.404387391234	-0.285123085724274	-26.5720016372992	-0.283253253675858	-26.5519042165272	-14.3529034291466	-108.750262198902	
840800000	-14.5981024253874	-130.681524541627	-0.280758352703184	-26.5912573486173	-0.287418067515408	-26.5980712059943	-14.4016371498209	-108.620742040143	
842500000	-14.5954103660306	-130.920309080064	-0.297914957461466	-26.786374374483	-0.283706827680563	-26.6457997942613	-14.4490941385385	-109.373570358673	
844200000	-14.5851202024093	-130.73866365175	-0.288382733387934	-26.6684371183743	-0.274111252424147	-26.6648799824245	-14.3622395199607	-109.170941748422	
845900000	-14.5338686087014	-130.768727872421	-0.282133977138906	-26.7501530851682	-0.296872563538065	-26.7446873920293	-14.3380929237875	-109.483161436697	
847600000	-14.5005682309384	-130.654805428402	-0.283138596405345	-26.8616695451951	-0.284490366509202	-26.8191430304755	-14.3987298348333	-109.094027302484	
849300000	-14.5604488594112	-130.742498715145	-0.286830005402273	-26.7748456736824	-0.279474202383253	-26.8622275203042	-14.3711867551201	-109.149312450212	
851000000	-14.4994166363488	-131.221818445616	-0.282999691049208	-26.8028547825427	-0.293256852128813	-26.8739800742219	-14.3462159096281	-109.16729043485	
852700000	-14.4693535331907	-131.049062248518	-0.28794280612218	-26.956307996156	-0.286912006950569	-26.9388664612701	-14.3669845215808	-108.510028437912	
854400000	-14.4790951101573	-131.1432439589	-0.288355904874323	-26.9756112167892	-0.288241046802664	-26.9881635458255	-14.3168084701114	-109.307042257005	
856100000	-14.3578305842758	-131.653509889678	-0.290469538153545	-27.0839518198804	-0.281795254214185	-27.0897847783145	-14.2803589942229	-109.322715809009	
857800000	-14.4465014059823	-131.602460626379	-0.289308946838701	-27.1058597180078	-0.29884016274347	-27.0251638752596	-14.1895095740914	-109.586209329314	
859500000	-14.3726528888747	-130.693045668016	-0.292644272965188	-27.1250926038246	-0.295844332663212	-27.1678489051397	-14.2525105307282	-108.865350238258	
861200000	-14.3824221374221	-131.044867597086	-0.29055869246387	-27.2740374185112	-0.306829915887368	-27.2608184846842	-14.1865896947928	-109.154986776228	
862900000	-14.4288782044986	-131.289558065888	-0.284661140144495	-27.2834225691015	-0.281965739413822	-27.2942248435612	-14.2770771493628	-109.045365045633	
864600000	-14.2941651310808	-131.459481572789	-0.281749743852932	-27.3711250587538	-0.298872762426693	-27.3408945252752	-14.1946857096675	-109.300713742922	
866300000	-14.2842602233644	-131.458579014466	-0.305641368399548	-27.3490282847279	-0.299839403637959	-27.374514547807	-14.207759901541	-109.158076837777	
868000000	-14.2719355979619	-131.236295372058	-0.29616709166247	-27.4630383135421	-0.28437863252465	-27.5087296777897	-14.1320657690581	-109.657207112481	
869700000	-14.4001764238862	-131.524127980409	-0.297765985475832	-27.510845543236	-0.283611702232521	-27.5854416312369	-14.1898941502617	-108.664684527228	
871400000	-14.323626158303	-131.714474191903	-0.298302795356264	-27.4931131968904	-0.302533940711841	-27.5283122249424	-14.2250642686657	-109.39240562262	
873100000	-14.2939910422733	-132.226433035315	-0.293655605307169	-27.6841613803222	-0.314787087708392	-27.608940535191	-14.1503686004957	-109.707412955022	
874800000	-14.253843028983	-132.126131852388	-0.299614999289603	-27.6537874646887	-0.303193216623989	-27.6287083525828	-14.0956759757119	-109.680890323169	
876500000	-14.2301896228754	-132.131728177609	-0.295695212080964	-27.7174508205321	-0.305305043413233	-27.7643061293704	-14.0334223624806	-109.551221182509	
878200000	-14.2362945759313	-132.327529269524	-0.304909809751687	-27.6987408049206	-0.290140358709699	-27.7426655525337	-14.0678942474321	-109.582934293588	
879900000	-14.2379521335322	-131.753299210884	-0.296668233206824	-27.7932912952035	-0.302316121626809	-27.7623846111566	-14.0630783604486	-109.414310307165	
881600000	-14.2347330287398	-131.818408623272	-0.297982833642659	-27.819624346317	-0.300549431071895	-27.7973883969442	-14.0539462490019	-109.683565453955	
883300000	-14.1723835865667	-132.303562739723	-0.306182518976459	-27.8578777289817	-0.297491292993466	-27.8757898289537	-13.9728348696463	-110.046086135219	
885000000	-14.1290921266262	-132.030408470231	-0.303578596404105	-27.9613399224304	-0.316706516713798	-27.9090276772441	-13.9898964106279	-109.916569561334	
886700000	-14.1497982227085	-131.911797242121	-0.307325573859277	-28.0153683803751	-0.297361666117333	-27.9896514416749	-14.0000957185639	-109.671377401391	
888400000	-14.1804618441523	-132.895803696659	-0.314869760120083	-27.9938450422685	-0.313385167046136	-28.0143897881144	-13.9155474248817	-109.928826238641	
890100000	-14.1240466379814	-132.729935516341	-0.309590925503705	-28.099629749034	-0.304829780614653	-28.0741322357195	-13.9780090154253	-109.708067034878	
891800000	-14.1219872514629	-132.583857230311	-0.293413010209118	-28.063136794175	-0.316752983392124	-28.1529926537547	-14.0209405858227	-109.833562944295	
893500000	-14.1322235005441	-132.383182091008	-0.292988527457183	-28.1537709302617	-0.297810216800516	-28.164275008221	-13.9093373208524	-109.942722540026	
895200000	-14.1222666504778	-132.316768266277	-0.294894062166006	-28.228817335133	-0.30218055776652	-28.2835819097563	-13.8644466023276	-109.935838966314	
896900000	-14.0645229045077	-132.824885957272	-0.30957389858581	-28.3836091484411	-0.320258165209278	-28.4231116257954	-13.9240716274117	-110.001164849935	
898600000	-14.0342382752599	-133.061641666632	-0.309159677488041	-28.3000888873124	-0.310271196513351	-28.4190742391369	-13.9319997521465	-109.971603324156	
900300000	-14.0384506912572	-133.636438575841	-0.31021144760032	-28.3886562701288	-0.309034177800271	-28.4651993837012	-13.9368073249905	-110.138923503676	
902000000	-13.9894027514268	-132.884909497716	-0.299174908844065	-28.5107585333174	-0.315000354905396	-28.3770019908043	-13.8829982578788	-109.74768864917	
903700000	-13.9922971800716	-133.284746406129	-0.320028502705097	-28.5029310502675	-0.306556873486086	-28.5242576794121	-13.8964271585062	-109.738439582641	
905400000	-13.9643544401969	-133.535084917464	-0.325303496724508	-28.5817358664404	-0.321734298905817	-28.5464723411993	-13.8662409288683	-110.013826613212	
907100000	-14.0052497121059	-133.5490929584	-0.30361212364292	-28.6085269113985	-0.319824544770023	-28.5733813311361	-13.8145690197636	-110.707614074369	
908800000	-13.9320451535339	-133.627287819744	-0.315106964768074	-28.5932886639782	-0.321777713008716	-28.6876613411156	-13.8277624865198	-110.711320431808	
910500000	-13.946376231361	-133.431292321952	-0.317578017495959	-28.7602434518396	-0.313516406899138	-28.7610424348269	-13.7654736370111	-110.298765623466	
912200000	-13.9511784533825	-133.526679552892	-0.319018797256348	-28.8646607313319	-0.321181575629609	-28.7628939780759	-13.8342426805196	-110.566250193045	
913900000	-13.9977682857275	-134.026096577042	-0.324327984068363	-28.8168989105255	-0.304151415748148	-28.9103406947259	-13.874211943184	-109.914028306727	
915600000	-13.9606485541208	-133.689034021784	-0.307326244108039	-28.9418578441554	-0.321865081668007	-28.9304153498477	-13.7984868969501	-110.494203711213	
917300000	-13.8806491431762	-134.204643381708	-0.311266476698107	-28.8875098361056	-0.315054087699565	-28.9346102691458	-13.8606274287802	-110.895820186773	
919000000	-13.8967550300435	-133.549093450592	-0.310275867000591	-28.9264080949626	-0.313642453689739	-28.938633637862	-13.779754392199	-110.269975893417	
920700000	-13.8493907018703	-134.13776589203	-0.327976590022102	-29.0046761707153	-0.33827281545608	-28.9834382118082	-13.7555727955541	-110.407944100947	
922400000	-13.8786944537019	-133.846108333319	-0.317048298684271	-29.1444899970123	-0.318431147639674	-29.0872382916794	-13.7446397651494	-110.500299983479	
924100000	-13.8340045092374	-133.662558815963	-0.317839711965791	-29.2008128676298	-0.320973915413383	-29.0954880848056	-13.6409677746848	-110.397310125349	
925800000	-13.925485433644	-133.909630045254	-0.30984805882851	-29.158727372242	-0.320878088883019	-29.0662133643123	-13.7706532216519	-110.489562846726	
927500000	-13.8385455836495	-133.959944030399	-0.326195974872364	-29.2247690326666	-0.318777786692414	-29.1707446464119	-13.6731869105632	-110.743755639331	
929200000	-13.8567820718878	-134.13417882689	-0.327873605056221	-29.3848749267154	-0.32360361736805	-29.3021071317127	-13.6033659358037	-110.832112049109	
930900000	-13.8057452644291	-134.435400627091	-0.307309134020025	-29.2914408619952	-0.321486457630197	-29.2615178307948	-13.6562626097404	-110.426512593489	
932600000	-13.7863340448199	-134.736062962768	-0.320194551421364	-29.3107203715266	-0.319504573677566	-29.4565146149385	-13.5944832275258	-110.300232208113	
934300000	-13.7937082985281	-134.449165191212	-0.328975061204471	-29.4977209352474	-0.32618897524788	-29.3900421929267	-13.7092015405699	-111.132261271645	
936000000	-13.7435184213777	-134.297221475387	-0.304947300578603	-29.4397244437339	-0.32898127889418	-29.4776929184245	-13.5447577553144	-110.535255969128	
937700000	-13.8232847117292	-135.008607407295	-0.303152485480234	-29.5046077600795	-0.333442806122507	-29.4414601698662	-13.6231734037142	-110.274749615133	
939400000	-13.7185080641474	-134.596822261336	-0.307931997005573	-29.5921390674056	-0.328099576921404	-29.6091336275453	-13.6194437006416	-110.683005829213	
941100000	-13.7007059464796	-135.150094608462	-0.329561743835232	-29.6827491407027	-0.339201813380202	-29.6838309438572	-13.6500054196147	-110.724709187067	
942800000	-13.7403174177345	-134.99903447916	-0.31922249453602	-29.6346009130641	-0.33617240169093	-29.698704467799	-13.5923635889224	-110.418684396916	
944500000	-13.7018346402678	-134.669434575688	-0.31079739101724	-29.8061329558202	-0.325272922833485	-29.6697408928424	-13.5750021970206	-110.357594803605	
946200000	-13.7427913632962	-134.584309920209	-0.327294728221301	-29.8448728525791	-0.338735528117862	-29.8184593930571	-13.4716893248481	-110.844315087975	
947900000	-13.6524485640409	-134.655386728943	-0.340445306253014	-29.8652482222657	-0.329353614285191	-29.9167513253918	-13.5024901361713	-110.929247865935	
949600000	-13.6094271241496	-135.530279395875	-0.331729574254537	-29.8886039477568	-0.343089348171843	-29.891380707441	-13.5522067032363	-111.219256367268	
951300000	-13.6128014508796	-135.035664067256	-0.323174411616034	-29.9249600687678	-0.329884883942707	-29.9146808485851	-13.4926316780626	-110.640038989605	
953000000	-13.5997256398609	-135.325930180764	-0.338167445503286	-30.0598474577457	-0.329058060598051	-30.0172116505921	-13.4343234631721	-110.879534629025	
954700000	-13.6428378684615	-135.758057881785	-0.339266973968965	-30.0529509716655	-0.333636825177747	-29.9621232630356	-13.538842614063	-111.102743198955	
956400000	-13.6067421014795	-135.125225427714	-0.353081961262093	-30.1387793773131	-0.328260386441099	-30.0155431383795	-13.4427974015152	-110.808317808306	
958100000	-13.5444596458209	-135.445785454982	-0.34259675476316	-30.0728891933594	-0.339035565019287	-30.1235919540479	-13.4873804753881	-111.241056528666	
959800000	-13.6454842830143	-135.63398851802	-0.348678530065854	-30.0934912121162	-0.332455642769933	-30.1320003854835	-13.4455188692644	-111.073242223186	
961500000	-13.5776310910053	-135.455041643148	-0.332956739835607	-30.3148244326426	-0.335486462253391	-30.2429008883221	-13.3440442513853	-110.956309422243	
963200000	-13.6582967265489	-135.284057356738	-0.331435726650893	-30.4264685635224	-0.35296456451397	-30.3981363055881	-13.3753080225048	-111.104386134334	
964900000	-13.5635008236334	-135.60272761854	-0.317238432934773	-30.3742203425652	-0.344195595626609	-30.3508535183381	-13.395992802363	-110.575869575147	
966600000	-13.5100914745523	-135.823872640215	-0.338163097007268	-30.4210729213824	-0.342024338900795	-30.4957669551153	-13.3601351955276	-111.212792668973	
968300000	-13.526247190725	-135.681608290484	-0.344401310518198	-30.4896536716069	-0.348493978527253	-30.4622791175445	-13.3556763226771	-111.219806535702	
970000000	-13.5680972144257	-135.887273647748	-0.349241859063014	-30.4995157605945	-0.337877418547318	-30.5137625045269	-13.3200932653121	-110.743784687566	
971700000	-13.4804819401569	-136.102186607297	-0.343013587764909	-30.6926416790459	-0.352016029700013	-30.5473578435232	-13.3607794502982	-111.153544415811	
973400000	-13.5102071142558	-135.947334233771	-0.346964960678103	-30.5579984740047	-0.344823035326258	-30.5604240966426	-13.2612015981774	-110.603958557892	
975100000	-13.4306230691652	-136.405010520303	-0.337585820875511	-30.5992383575308	-0.354220985527182	-30.6313365759619	-13.2784719986385	-111.352052610169	
976800000	-13.5019605369647	-135.937173919789	-0.350522826215749	-30.6446493809778	-0.353584338448953	-30.6481441609579	-13.2961322519835	-111.495002739219	
978500000	-13.4813898227939	-136.386534805997	-0.351438928915929	-30.7079277249454	-0.346574213039945	-30.7432587492493	-13.3077345502848	-111.34966834441	
980200000	-13.464388870613	-136.222645257951	-0.361091691250171	-30.8218494717851	-0.345748257400685	-30.8240959762925	-13.2574270600952	-111.596437008656	
981900000	-13.3846335291947	-136.247741975159	-0.352760921816255	-30.8569469990586	-0.336122475163269	-30.8177781358718	-13.2989173923503	-111.461407694311	
983600000	-13.4176589589445	-136.479164884578	-0.348636019492287	-30.917042015753	-0.346996604013478	-30.8831799498423	-13.245530571605	-110.87827965492	
985300000	-13.423418951703	-136.479691681501	-0.351589739800088	-30.9241572352027	-0.351849597824421	-30.994443072757	-13.2423274338537	-111.304823920731	
987000000	-13.3952028919675	-136.523553665639	-0.347918061105992	-31.0384123341059	-0.34116983081584	-31.033686434897	-13.2731397393228	-111.236956785566	
988700000	-13.4115734702377	-136.598026402624	-0.336802184007967	-31.1487103885142	-0.351979312064262	-31.0191027095152	-13.1938952667951	-111.704217420545	
990400000	-13.3965024030833	-136.990849361557	-0.36744067478542	-31.1188630841751	-0.356810406414249	-31.0941125569744	-13.1789824366117	-111.264562039819	
992100000	-13.2947823290701	-136.523988021846	-0.365227906809999	-31.1705238354925	-0.351348991299786	-31.0786239363907	-13.1559690416616	-111.426296394805	
993800000	-13.3615318110156	-137.070370349385	-0.356433564465373	-31.2418110107032	-0.338347229728062	-31.1529664637922	-13.1118423145529	-111.48405173811	
995500000	-13.3229153425809	-137.357636056137	-0.361081608330517	-31.2457757407861	-0.345031139252316	-31.2054773168113	-13.1638133592764	-111.97808060815	
997200000	-13.3121368111666	-137.031498443837	-0.356196462286663	-31.4142169247558	-0.35870065337522	-31.3216702129876	-13.1026230624056	-111.521738446875	
998900000	-13.284381746204	-136.965844757064	-0.358868031956834	-31.3139977234497	-0.361110097463679	-31.3737473620044	-13.1572489913624	-112.084903685191	
1000600000	-13.2922204678904	-137.052985695929	-0.356787634495239	-31.3730516674058	-0.367648221754958	-31.4638866715541	-13.1264699736403	-111.544774179771	
1002300000	-13.2369758725611	-137.593966290873	-0.369827248385497	-31.4875149312023	-0.359725000918543	-31.4925171816126	-13.1418377236066	-111.53164958763	
1004000000	-13.3108790566999	-137.404699902653	-0.374017949258574	-31.4019313169638	-0.377873965278872	-31.4430550082951	-13.1099472715926	-112.071631716694	
1005700000	-13.2130691854008	-137.605938953236	-0.348820002913182	-31.598315223014	-0.350501881800273	-31.6219988676511	-13.1072184110085	-111.70433983667	
1007400000	-13.2361077906109	-137.764014667448	-0.365323550858706	-31.6847068873038	-0.369893504776897	-31.645130949397	-13.0681376778333	-111.894253995644	
1009100000	-13.177216519135	-137.753362703928	-0.364354492807495	-31.634415577807	-0.372945931981871	-31.6092402673666	-13.0402462334061	-112.543263109174	
1010800000	-13.1910669014937	-137.254880408113	-0.361120388494698	-31.7166842237505	-0.353457487272192	-31.6930721327412	-13.0659395675395	-112.309545888091	
