!Keysight Technologies N9950B: A.12.38
!Date: Thursday, 01 June 2023 14:18:12
!Timezone: (UTC-06:00) Central Time (US & Canada)
!Model: N9950B
!Serial: MY61131330
!GPS Latitude: 
!GPS Longitude: 
!GPS TimeStamp: 0001-01-01 00:00:00Z
!GPS Seconds Since Last Read: 0
!CHECKSUM:0021487317
!Correction: S11(ON U)S21(ON U)S12(ON U)S22(ON U)
!S2P File: Measurements:S11,S21,S12,S22:
# Hz S DB R 50
800000000	-15.7689920087806	-115.728452619033	-0.122429499516937	-24.5896120409911	-0.131594590267449	-24.6078614779509	-15.887253866995	-114.070652636367	
803200000	-15.7853916580608	-115.382674819393	-0.131266079078306	-24.757595536772	-0.130715092875883	-24.7794989755977	-15.71316855221	-114.418434867412	
806400000	-15.7529829330826	-115.951594284017	-0.133106477460958	-24.7951466905561	-0.131457745934704	-24.7235202472761	-15.8045108602137	-114.95851073585	
809600000	-15.6055489816013	-115.988669684083	-0.131454775311324	-24.9160980167824	-0.143079402984954	-24.9456433548813	-15.6962220336977	-114.302868012247	
812800000	-15.7899212992054	-116.31743395567	-0.147065453788975	-25.0333901636651	-0.141939583967902	-25.0550793440781	-15.6526715846231	-114.373240075052	
816000000	-15.7416809591921	-116.185645140104	-0.135352464713242	-25.1255788471107	-0.150487832556247	-25.1054851035214	-15.6008837505449	-114.182951833671	
819200000	-15.657420562159	-116.400005649499	-0.138820314141485	-25.0954259175079	-0.136154692995316	-25.2860210848507	-15.6297498640465	-114.494648805058	
822400000	-15.5233543943243	-116.222758116918	-0.129372968513748	-25.260273422382	-0.132508662438117	-25.3320745399661	-15.6142365318321	-114.699994603117	
825600000	-15.529571155036	-116.767907244585	-0.146368488480441	-25.4184361217221	-0.151960408744617	-25.3496981652989	-15.4159377017888	-114.946807285193	
828800000	-15.558193111485	-116.213456551378	-0.139745620485878	-25.4407981365103	-0.147603845630529	-25.5006490477202	-15.5678493479133	-114.674217486927	
832000000	-15.5204307868537	-116.267722505929	-0.124381664088111	-25.657693096126	-0.159747631646767	-25.6395123371353	-15.5380064043198	-115.287172463554	
835200000	-15.3875421744381	-116.369355798146	-0.124915240517785	-25.7934581028812	-0.154147380092766	-25.6701527991726	-15.3191385787152	-115.237154115256	
838400000	-15.4504798618148	-116.892722658416	-0.146636007977814	-25.8341518609496	-0.146783722801645	-25.8140515246817	-15.3059499186245	-115.10161395848	
841600000	-15.3824686204014	-116.896238099729	-0.147259380600866	-25.9747562043135	-0.157681037197284	-25.832012409884	-15.350360860688	-115.059629631854	
844800000	-15.3947159117334	-117.197580656119	-0.142553636822817	-26.0148980363666	-0.146901255722021	-26.0843925837229	-15.3930091019192	-115.254413857599	
848000000	-15.3198065766019	-117.23004396515	-0.141613234734495	-26.1766617670579	-0.153743184081081	-26.0743041624293	-15.398435361491	-115.263590948759	
851200000	-15.3675642328447	-117.243684300029	-0.141731784194516	-26.0814071410829	-0.150490818060498	-26.1246846402978	-15.2946466478431	-115.658056052861	
854400000	-15.2275282438326	-117.317379030473	-0.149883448106982	-26.2811636157375	-0.163123070525622	-26.3264669772211	-15.3095600862741	-115.680066004331	
857600000	-15.2988625235035	-117.071580051565	-0.139386490146079	-26.3135834314904	-0.154216202894109	-26.3892747266821	-15.1879720558218	-114.847536642602	
860800000	-15.3061752771991	-117.811493238232	-0.15420913379932	-26.4472554831545	-0.154765696863903	-26.4815373058922	-15.3030713528459	-115.902811035496	
864000000	-15.2307363385412	-117.619747267197	-0.139475757074854	-26.5592648212862	-0.150682588715037	-26.5210649787363	-15.169794099374	-115.931466022545	
867200000	-15.1594136621569	-117.218842506471	-0.15095237685649	-26.7281258031164	-0.160374891789671	-26.6606549271462	-15.2349193273659	-115.594457327946	
870400000	-15.1012561573273	-117.242636180591	-0.146727210155319	-26.787975507839	-0.153550800967904	-26.7375912097647	-15.1321414085045	-115.927202767193	
873600000	-15.0140984876955	-118.126152104769	-0.1345908699313	-26.8825196828703	-0.155228296066104	-26.8845939084102	-15.1536457121452	-116.493947102251	
876800000	-15.0151830535183	-117.938273921583	-0.146201243078579	-26.8513593566006	-0.152949576886764	-26.9168433114379	-15.0939014242961	-115.816720916459	
880000000	-15.0995776300724	-117.067380587524	-0.153023710243981	-27.0484396594955	-0.162124973526171	-27.0447686715442	-15.0929015247923	-117.074944697042	
883200000	-15.034752283633	-117.666362590498	-0.157704371848794	-27.1272332038515	-0.169827364207868	-27.1553364317953	-15.0995599024099	-115.88045805389	
886400000	-14.910323358322	-118.1442819526	-0.140764499416562	-27.1717493102424	-0.147228490620849	-27.2917482079816	-15.016193815528	-116.428135654217	
889600000	-15.0262106729551	-117.950476606839	-0.157382416002859	-27.3595122270786	-0.159996947994901	-27.3086220674118	-14.951569131061	-116.40221867486	
892800000	-14.9075372597916	-118.434650035762	-0.160877620181832	-27.4038480064063	-0.148864251290094	-27.3507290826887	-14.9158777964771	-116.427695224849	
896000000	-14.9225893505928	-119.35100195894	-0.157468159287077	-27.5071555673464	-0.156137187535482	-27.551545617458	-14.9341036674667	-116.80264552115	
899200000	-14.9173652743894	-118.508650467628	-0.155076079095142	-27.7228736524409	-0.171515436546309	-27.6494195990245	-14.7714403685117	-116.901666374365	
902400000	-14.8058747329363	-118.58943799702	-0.185934668959835	-27.7472161927853	-0.167088102229752	-27.7400665443645	-14.8934213115528	-117.378258267403	
905600000	-14.8289703175126	-119.548234209507	-0.170237833691975	-27.8473523653152	-0.161364801013459	-27.8304735516049	-14.9124246701697	-116.576917853563	
908800000	-14.8728490247639	-119.407783838244	-0.170992393692489	-27.9297647845493	-0.182555239562266	-27.9461813186787	-14.8307354355017	-117.253370539854	
912000000	-14.7748037887618	-119.146249742992	-0.159902825162942	-27.9739465682387	-0.167143922008792	-27.8746212329951	-14.7176107549195	-117.216237122506	
915200000	-14.7379648797701	-119.275647423894	-0.171141809831164	-28.1541934065799	-0.189367818883893	-28.1708355497097	-14.730581202047	-117.431964077991	
918400000	-14.6710661750609	-118.745639591011	-0.160821763819189	-28.1333222248739	-0.150169323312619	-28.2604062876057	-14.7120172730509	-117.133651091187	
921600000	-14.6912175312984	-119.580469055728	-0.16144326295802	-28.2920779138813	-0.173663011219373	-28.3409433261619	-14.6511926170728	-117.201413215568	
924800000	-14.6563254847318	-119.690992433983	-0.182274310868661	-28.3389930894441	-0.180215503242663	-28.3649006234374	-14.6257677786756	-118.357495111276	
928000000	-14.7094188192874	-119.430717205718	-0.161704430394303	-28.5137578621641	-0.18708720576996	-28.5117673178608	-14.7453202953411	-117.653482728836	
931200000	-14.5253996418038	-120.147383226013	-0.184021902154041	-28.5185140143957	-0.176340511758558	-28.5332165264933	-14.5852723355307	-117.290241120781	
934400000	-14.5957175330039	-119.853445078801	-0.174986564346715	-28.6646863995845	-0.189184891114728	-28.6289854296224	-14.5618730156903	-117.939627220493	
937600000	-14.562569006879	-120.258213116246	-0.17352023286617	-28.6373264547339	-0.182916822592028	-28.7412034224652	-14.5514537885169	-118.01364205094	
940800000	-14.5192899645443	-120.260093742977	-0.182729612099519	-28.9264875930431	-0.18787478333058	-28.8396870902602	-14.4480263928718	-117.93543062741	
944000000	-14.573795425562	-120.721405210427	-0.163668815500575	-28.9560341105024	-0.172494603565436	-28.9476348758003	-14.5694147908333	-118.041446046954	
947200000	-14.4927734636646	-120.464142779663	-0.180507113306315	-29.0036708501481	-0.164910546696481	-29.0495930844535	-14.3972566249054	-118.011317615082	
950400000	-14.3448093247838	-120.053341560968	-0.170483170036048	-29.2064443051888	-0.189612312183296	-29.1742461320514	-14.3628393618668	-118.528811990571	
953600000	-14.4909536556219	-120.0670309852	-0.173507997526628	-29.1705399077734	-0.183879982458884	-29.2599252912899	-14.3901295413519	-118.149230552519	
956800000	-14.4606839679915	-121.234028313161	-0.178276534727691	-29.4372973039326	-0.194925209925119	-29.4788800200228	-14.3883740442545	-119.068329182692	
960000000	-14.3713383814244	-120.618514376742	-0.177173283293872	-29.470413600734	-0.187067488469794	-29.4609782917526	-14.3622693864902	-118.547446768538	
963200000	-14.3236416555596	-121.155890374102	-0.172125605808187	-29.5332480150551	-0.190948693706958	-29.5718604488914	-14.3427918747585	-118.341937143167	
966400000	-14.297865319527	-120.929571520923	-0.1915004090316	-29.6948897825027	-0.190088231899874	-29.6659886983829	-14.3703990382937	-118.309686904682	
969600000	-14.336957842326	-121.278544830055	-0.185159132541152	-29.6979671023458	-0.190852431034367	-29.8236413959778	-14.244235109493	-118.779418333177	
972800000	-14.3119092607677	-121.183192816792	-0.178517214044369	-29.8277311352785	-0.189444951477698	-29.8920495515355	-14.37070455764	-118.547148535976	
976000000	-14.2706535388139	-121.582464151621	-0.181040602931102	-29.9568912946496	-0.195388658414535	-29.8690230410429	-14.3106529897293	-119.245263516471	
979200000	-14.2010745112927	-122.023476942871	-0.186192416315257	-29.9613982599861	-0.189232939797788	-30.0658910549101	-14.1441715834744	-118.853198960386	
982400000	-14.1223698440377	-121.63848445693	-0.177056138439747	-30.0412932681804	-0.199201358596629	-30.0711335518807	-14.1477401308856	-118.748182865307	
985600000	-14.1382661655496	-121.537676445904	-0.205526872115319	-30.2588464641912	-0.195922281653976	-30.2246624565857	-14.116052166586	-119.527871148651	
988800000	-14.1552043866745	-122.234605901762	-0.200328015644406	-30.3763217574534	-0.196124024089133	-30.3044405793367	-14.1364116908315	-119.608372220321	
992000000	-14.0035893116477	-122.391864792256	-0.19298584172816	-30.3511680512867	-0.190684712594459	-30.4912689070996	-14.0514122072216	-119.48213127347	
995200000	-14.0083339236378	-121.596593840897	-0.175987209461919	-30.382316061777	-0.202519398861321	-30.5185431463881	-14.124018299074	-119.312787559625	
998400000	-14.0511028861801	-122.165726782237	-0.180659957216017	-30.6895939573556	-0.200244345609687	-30.6591851809521	-13.9953757851124	-119.799257744281	
1001600000	-14.002566675463	-121.897931184142	-0.210699282956595	-30.6618090706404	-0.208820960288601	-30.725996434252	-14.0494691025545	-119.503101426567	
1004800000	-13.9736472561574	-122.16555268612	-0.198938979101382	-30.7951754951717	-0.195331222686409	-30.8082477313812	-13.9519521725375	-120.067641161922	
1008000000	-14.0005350039767	-122.668640665065	-0.190905098202646	-30.8296129933333	-0.203656785867383	-30.8733248723652	-14.0299448633197	-119.883256362194	
1011200000	-14.0242406136595	-122.467876541114	-0.201143845350074	-30.9235308457355	-0.202109491187501	-30.9215197170378	-13.9618612170293	-119.551199184239	
1014400000	-13.9434295980194	-122.742338266688	-0.189026026305845	-31.058234424646	-0.217054985793331	-31.1154218529755	-14.0224936839311	-120.41565964209	
1017600000	-13.9313025430339	-122.813156329397	-0.203383729177634	-31.1226693794424	-0.214740090312662	-31.2099828905308	-13.9231153899285	-120.576044797878	
1020800000	-13.976768785307	-122.678179851526	-0.203216283090859	-31.2505222157847	-0.196911003482373	-31.299665875301	-13.9001339626019	-120.703108934076	
1024000000	-13.8828332440132	-122.628876128564	-0.194536478986964	-31.3993419692693	-0.197291599939348	-31.4905359407601	-13.8619315076163	-119.735206919715	
1027200000	-13.8455560502217	-123.091190296192	-0.195276430657121	-31.4546859089429	-0.209488011888903	-31.4050775670741	-13.7873147331234	-120.966417653415	
1030400000	-13.6989346653364	-122.487029980858	-0.204924756301578	-31.5446506349487	-0.220105082696312	-31.6443098558531	-13.7843807294438	-120.136976883576	
1033600000	-13.7557794353624	-122.967009649466	-0.204995723636975	-31.6813994405627	-0.201100636857446	-31.6630284370745	-13.6866618840767	-120.769475771628	
1036800000	-13.7493968859397	-122.545155166617	-0.191109039129511	-31.7164672314191	-0.221804111477947	-31.7934703906918	-13.7838005243456	-120.619633943573	
1040000000	-13.7354356503147	-123.262552442088	-0.216614594178548	-31.8503188525134	-0.227432889622362	-31.779060398653	-13.7351815301105	-120.892428325013	
1043200000	-13.7557407727829	-123.149544629942	-0.199246163091544	-31.9454101263024	-0.211806813661986	-31.9179426417406	-13.651847976545	-120.808662673978	
1046400000	-13.7791039746773	-124.220215498088	-0.196630949958185	-32.0062959695724	-0.215147452230414	-31.9783806220509	-13.7717191086376	-120.485320093245	
1049600000	-13.7403436058296	-123.082364689526	-0.214851028985288	-32.1204166411876	-0.21845780184951	-32.1379611492806	-13.7128687765541	-121.143947371661	
1052800000	-13.6945473413091	-123.631258954386	-0.211598637210291	-32.109245018614	-0.198895456674368	-32.1777596208006	-13.6351286194258	-121.024821550407	
1056000000	-13.6484969711242	-123.76491271233	-0.204291650698361	-32.3544129974399	-0.222808464326983	-32.2594180147368	-13.5443222372172	-120.957816676284	
1059200000	-13.6240611307065	-123.523024672457	-0.203847118080281	-32.486550957483	-0.211408239254503	-32.6154963940393	-13.5918108607778	-121.171929826341	
1062400000	-13.5768532302338	-124.211203402069	-0.229665458804936	-32.5078647542187	-0.217438493303747	-32.5361025876741	-13.5767546367146	-121.385724617531	
1065600000	-13.5047055758763	-123.846515742014	-0.212388029835447	-32.604345291098	-0.223969988269905	-32.5384844742932	-13.5497908375798	-121.792124028422	
1068800000	-13.5233749281864	-124.459813719674	-0.218201408594477	-32.6084300925832	-0.238094649379672	-32.6736488197211	-13.503404786742	-121.942738148701	
1072000000	-13.5229544766427	-123.935376210997	-0.199253380897613	-32.7790074863676	-0.210349828277486	-32.8062138704096	-13.5591603520752	-121.139749305068	
1075200000	-13.5529493685749	-124.195915611096	-0.220667627651991	-32.8012074781913	-0.21914362124659	-32.9060647030369	-13.44144543014	-121.450208772915	
1078400000	-13.42913822492	-124.430326493631	-0.217028400103221	-32.9411675854975	-0.226357640582809	-33.0061135326379	-13.4500870624804	-121.589200066259	
1081600000	-13.4010080317009	-124.34001595691	-0.211699916146712	-33.0614509151974	-0.23029735614111	-33.0759193919571	-13.4273428317023	-121.612870077618	
1084800000	-13.4978784199169	-125.085166034469	-0.221583083236232	-33.0605624526504	-0.22176290178462	-33.1760812972438	-13.4060988554489	-121.843231183663	
1088000000	-13.3876398532632	-124.552932432678	-0.218979303090458	-33.2082912270731	-0.222378894747914	-33.2577378143757	-13.3994411855802	-121.718572086804	
1091200000	-13.455966622836	-124.833152796118	-0.226693619952838	-33.2865170359141	-0.219288729194348	-33.3605490282892	-13.4935937846775	-121.903721884061	
1094400000	-13.4126347028428	-124.900582683838	-0.222676545784159	-33.4820567780111	-0.228898286618827	-33.5043324067708	-13.3733627901832	-122.449692645163	
1097600000	-13.3412365910581	-124.573565800134	-0.223186952147168	-33.4791850239198	-0.232931845312421	-33.4842096157964	-13.3773028271719	-121.854240453846	
1100800000	-13.2706659935605	-124.743562084415	-0.222749542192366	-33.744351387508	-0.228606230526482	-33.6613282494179	-13.2829165056576	-122.532855799574	
1104000000	-13.2976030065911	-124.97900008643	-0.225418331029505	-33.6882753857199	-0.224018368014936	-33.7417995325335	-13.3647210413366	-122.238998341949	
1107200000	-13.2130310305344	-125.61404569877	-0.224249088547057	-33.7670718461269	-0.240310707401833	-33.849806351021	-13.2998187659242	-122.644909896735	
1110400000	-13.2291690085303	-125.806453303203	-0.233693178652743	-33.945672919883	-0.220797068613194	-33.8695614666245	-13.1636263465614	-122.821335032863	
1113600000	-13.2272177722173	-125.862099803125	-0.233330680759994	-34.0119857335027	-0.228356640332948	-33.9420773387096	-13.2525907170347	-122.754744846349	
1116800000	-13.2567304336879	-126.170385800269	-0.233174412493369	-34.0328449253585	-0.240483872860342	-34.1071401282843	-13.3198624547218	-123.308755367284	
1120000000	-13.2342639754351	-126.031594592872	-0.24779222843474	-34.1678655856904	-0.229890090961629	-34.2727560205297	-13.1796167722105	-122.780917926454	
1123200000	-13.1773718638847	-125.82924039572	-0.23229630937125	-34.2242093517644	-0.237885399981101	-34.2521070593502	-13.2378506071914	-122.173329495488	
1126400000	-13.2029352446983	-126.449033030281	-0.218143741227239	-34.3454988416597	-0.234553962267556	-34.3309731784431	-13.1930642008484	-122.977363408344	
1129600000	-13.1473690723477	-126.204131278619	-0.226380236872504	-34.4973221799683	-0.238019649238307	-34.4783894600418	-13.131087614786	-123.244862751773	
1132800000	-13.1343141711547	-125.896357710683	-0.227784803813116	-34.5028143310969	-0.234035096910251	-34.5902916177304	-13.1132953670732	-122.979077008344	
1136000000	-13.0965706516745	-126.517218258897	-0.254132283951276	-34.7077803867642	-0.24411551390876	-34.6305987350679	-13.0995175314661	-122.916991489353	
1139200000	-13.107188743948	-126.419609770448	-0.236060406297058	-34.7611145302009	-0.236592559894156	-34.7858338403082	-13.1075662580211	-123.715426532333	
1142400000	-13.1171491307415	-126.37611044043	-0.237675351729806	-35.0295046092116	-0.242411576780957	-34.7261055157611	-13.1230270369565	-123.241569519201	
1145600000	-13.0893733272102	-126.535566753767	-0.247118255125008	-35.0213558277544	-0.246793599508745	-34.9804934835869	-13.0776822455649	-123.326959715	
1148800000	-13.0056529423864	-126.7005751118	-0.239760259324442	-35.0420862222042	-0.251635528333038	-34.9170008705023	-13.066428826745	-123.401135081804	
1152000000	-13.0070409366299	-127.116053372511	-0.2516863881482	-35.218159194171	-0.263342050369517	-35.1034426098012	-13.0513658980756	-124.004501365727	
1155200000	-12.9519852658122	-127.289293408755	-0.244905060808384	-35.2159145872404	-0.244984715107951	-35.2198028590267	-13.0334752759523	-124.110987526753	
1158400000	-12.8951297646841	-127.008002746867	-0.246062558136563	-35.3737402562658	-0.249109795082674	-35.3241802195915	-12.9715520920999	-124.013181186386	
1161600000	-12.9058252761998	-127.094673049706	-0.241160785906164	-35.3925759752546	-0.239022413586714	-35.4498290341952	-12.9551211772376	-123.732482979068	
1164800000	-12.8901709408535	-127.450874851863	-0.245090103532323	-35.6344634497938	-0.250578320453238	-35.5777986070038	-12.9684672096762	-124.180491921069	
1168000000	-12.8865471741749	-127.399558538821	-0.252470717156912	-35.7037174791368	-0.239476940840028	-35.6160131850356	-12.8434158787892	-123.627154794524	
1171200000	-12.8952714445941	-127.067084073388	-0.242670567782657	-35.7328335617024	-0.265266635749092	-35.7121333905352	-12.8760840442988	-124.157464949637	
1174400000	-12.8316879037318	-127.94026686822	-0.233505496621021	-35.7531673159692	-0.241729905062483	-35.8796263179002	-12.7929568110553	-124.481490682927	
1177600000	-12.859395710013	-128.106324565686	-0.242329240118879	-36.0530043183675	-0.254793435225773	-35.9272472307267	-12.7405587356842	-124.969002730662	
1180800000	-12.7865928699398	-127.845712084243	-0.265586513350996	-36.0497552301236	-0.258950598562319	-35.9930067383276	-12.8333240071985	-124.576610097257	
1184000000	-12.7254908703591	-127.794835753502	-0.248080359763205	-36.1184360695843	-0.256338913760782	-36.1174163491993	-12.8031771490128	-124.711430427119	
1187200000	-12.837089017502	-127.855248532143	-0.248618064495677	-36.1605844095034	-0.258161778619355	-36.1366581414503	-12.7665770502692	-124.783383781361	
1190400000	-12.7012123657766	-128.095663696125	-0.260719142223089	-36.3615013234382	-0.245795851102729	-36.2576956997895	-12.7660158999916	-124.570488273804	
1193600000	-12.6917824251025	-128.118494366509	-0.261732766497563	-36.4156964643493	-0.256318411787808	-36.3562900247614	-12.7106257141511	-124.781358383258	
1196800000	-12.6985009650665	-128.45267328826	-0.254467325186267	-36.5493382192553	-0.274965686892083	-36.4502235644493	-12.7204312835951	-125.182655515664	
