!Keysight Technologies N9950B: A.12.38
!Date: Thursday, 01 June 2023 14:22:37
!Timezone: (UTC-06:00) Central Time (US & Canada)
!Model: N9950B
!Serial: MY61131330
!GPS Latitude: 
!GPS Longitude: 
!GPS TimeStamp: 0001-01-01 00:00:00Z
!GPS Seconds Since Last Read: 0
!CHECKSUM:0104207395
!Correction: S11(ON U)S21(ON U)S12(ON U)S22(ON U)
!S2P File: Measurements:S11,S21,S12,S22:
# Hz S DB R 50
800000000	-56.491707924349	120.251055550927	-0.000832666388570644	-15.0989767033604	-0.00615791695067312	-15.1612355577072	-48.4301124279601	42.6955467954668	
803200000	-54.7330326101097	76.8372333290851	0.00306634848438459	-15.227165736756	-0.00590029601812144	-15.3146019620031	-54.1446315264958	6.68755125123349	
806400000	-52.4720136942781	109.97858287262	0.0031105454780567	-15.2663231920055	0.00133631950292541	-15.1949193162451	-50.3583247841157	73.7300036140622	
809600000	-56.8283987368073	132.222474089556	-0.00704233684003153	-15.3910649458551	0.000883889089573165	-15.2322541889148	-50.373384371745	20.3203284725216	
812800000	-49.4138487769501	96.5520578727202	-0.0130386446298819	-15.3418672771555	-0.00422212073642512	-15.4090964483366	-52.0523366539007	14.9731572983492	
816000000	-48.242287415608	89.8027323378253	0.000324340446152069	-15.4410524520398	-0.0153796786690501	-15.5030188938455	-48.8727560737252	2.83887084587866	
819200000	-51.4389160501148	111.340556547235	-0.0156731019845374	-15.3735101850702	-0.00783991946098246	-15.5288933897225	-50.5067090578978	32.1644035390715	
822400000	-57.0595586593156	113.993112158395	0.0119618713437277	-15.5868797113338	-0.00691182512083323	-15.47348352502	-51.9804680366453	36.250749928017	
825600000	-53.847714856533	128.060233484833	-0.00421208465661594	-15.6897414251694	-0.00109378321720167	-15.5868068971724	-56.5623320952278	-52.0507864664144	
828800000	-53.9767572845626	89.4519025549366	0.000280901167610977	-15.5619377061595	-0.0108557870167684	-15.7421740532046	-48.9999701384323	28.4197108142543	
832000000	-53.0495897964365	81.0495588115028	-0.00506113867082426	-15.8064661933796	-0.0152662283245784	-15.7781126708489	-52.0198391878151	33.0335771132268	
835200000	-60.8160538671231	64.3579700830293	0.00587268014089878	-15.845459004725	-0.00708547117075401	-15.7383700149418	-55.9192234999415	-24.2375466111587	
838400000	-52.9780759206169	112.627334817041	-0.00115968987964335	-15.9093318934903	-0.00339580479240618	-15.9006514734411	-54.0766935759206	-12.7570039744338	
841600000	-55.5970667369804	101.45424604261	0.00269869985127404	-15.9531183196086	-0.0160212812521058	-15.9112401505162	-50.8924003224753	18.2684934950924	
844800000	-51.6701914009691	107.31086390539	-0.0139857101787212	-15.9361427910265	-0.00904563163224453	-16.0267891075648	-49.5155797801671	25.3719166865899	
848000000	-53.71284006616	123.655475388487	0.00385137202048188	-16.1128726085768	-0.0191464865678285	-16.0662633757913	-49.1413611147108	41.5380144625108	
851200000	-49.3066134345018	103.518459725704	0.00640778114089995	-16.163352832235	-0.00462630317459053	-16.0530468483941	-52.6812724068149	19.8107034923152	
854400000	-58.7523367460805	122.768828651248	-0.0023776740704217	-16.1412047452747	-0.00897863812565789	-16.1756113127406	-48.5792114112157	30.2151796500852	
857600000	-48.8460891774223	82.9279927374772	-0.00652658637866659	-16.2363428616383	-0.0063560032219061	-16.1369984296509	-46.8057721215732	-12.2856971897421	
860800000	-48.8108521543003	93.2735224705345	-0.00199561607954494	-16.3057704462908	-0.00666019129084506	-16.3090287318558	-48.5457467191281	46.7909498510627	
864000000	-49.5242005239045	96.953226415697	0.00229573902612569	-16.2936029648635	-0.000750644374997439	-16.3402723984882	-53.8193393222926	39.9198825916313	
867200000	-53.5297036022191	76.9020633427864	-0.00925519106427093	-16.3964277003905	-0.00239198928663601	-16.4314179112601	-46.6853101283347	29.1153259070979	
870400000	-57.2369217175328	59.3045407268148	0.00121395817216206	-16.5536360906218	-0.00671316734033775	-16.5486334751372	-50.7774320552525	28.7436966913603	
873600000	-59.0943052231388	138.135528057122	0.0253328815361287	-16.5406823846997	-0.00607417413389862	-16.5691579772778	-49.9574412957935	45.2345487201198	
876800000	-56.7031404521788	114.872417298079	-0.0024989390372944	-16.5939523765616	-0.00466468463442859	-16.5723598796194	-47.7846267926055	28.448811701296	
880000000	-49.2665479425928	40.2406273951854	-0.0124604525165656	-16.6436958335511	-0.0175360569385482	-16.6720236270907	-50.9305347201499	67.5172664227058	
883200000	-53.2313594037355	69.559542503445	-0.0104067781548637	-16.700908254746	-0.0187540004873649	-16.7776022639904	-46.495361316755	34.1644351220495	
886400000	-60.0917263022494	104.752942618015	-0.00981639199531451	-16.7069331841442	0.00103558728217291	-16.717264040786	-46.3796223762379	34.5490453747891	
889600000	-49.56286526728	70.7531536131918	-0.00215153045822207	-16.8208876185357	-0.0211077657593026	-16.8283321123305	-49.6125450618228	20.773761534055	
892800000	-54.7767892823583	89.6627540528753	-0.00657347117592611	-16.9125526709153	-0.00103816566880395	-16.8292483614068	-50.8426348805843	26.3830436851929	
896000000	-49.2305198007228	125.408674128347	-0.0022782600960132	-16.9782457323115	-0.00138821342148411	-16.9145990751695	-48.9667393290714	31.4757309454724	
899200000	-49.158292944153	75.2978633229935	0.00294032852543473	-17.1071351184582	-0.0179510523291039	-16.9710300468408	-53.2543173412496	-18.0020889156165	
902400000	-57.1187175005032	73.6978380648941	-0.0124575385658753	-17.0053394698398	-0.0111901336178327	-17.0800315557969	-49.8200431426072	65.4160148338087	
905600000	-48.6523009843314	113.511319196043	0.00659214632261439	-17.2112071327705	-0.01091904013848	-17.1654555719452	-44.8552119816868	31.4736709710919	
908800000	-47.4875051795756	101.281959583862	-0.0142985919215079	-17.2256467765485	-0.0217574813108142	-17.1948531381966	-49.7666464930141	37.636594774798	
912000000	-50.5079116586558	97.4814028935721	-0.00996340036206058	-17.2329097785288	-0.0165625217969739	-17.1306416160323	-52.4573429698332	16.5539244866663	
915200000	-54.730737275535	94.7734351311743	-0.0245802765645961	-17.277514890956	-0.0275439328043499	-17.3522562206414	-50.0519969019709	27.5415302353133	
918400000	-54.257576589196	51.9499156732666	0.00238886909562438	-17.3763575870037	-0.000795573989320326	-17.3664968839376	-48.3442793803978	33.1255120366151	
921600000	-49.8695282880475	100.647779847654	0.00364332768214755	-17.4452074806743	-0.0058188928436889	-17.4114060227299	-48.0962184425684	22.7209069462323	
924800000	-51.7877519150103	98.7170086213787	-0.00161101313149671	-17.4749185699076	-0.00378906230553612	-17.5150075840199	-56.2047764682169	74.7353871401464	
928000000	-48.582721231297	75.8081581240899	0.00834761501650512	-17.6168903598144	-0.0272523987996505	-17.6309894336256	-46.0825785103168	42.9583847221484	
931200000	-51.9734590326793	129.024258864488	-0.0154036745654736	-17.5800946626487	-0.00184450241251597	-17.5829335474375	-48.8765831939182	18.1186032902618	
934400000	-49.8245107478986	88.3765796028294	-0.00425524429986428	-17.650930293405	-0.0165883899568163	-17.6550680039268	-51.8087532017432	40.4114558457754	
937600000	-49.5324906069833	110.920356923475	-0.00943924651999768	-17.748647934725	-0.0147381901015518	-17.8039975035777	-49.3876613335847	35.9389190943897	
940800000	-49.3699657039998	99.2478894675737	-0.006424967424767	-17.7685519640291	-0.00764492287819841	-17.7590015888835	-51.5503503677617	12.2693132301527	
944000000	-46.8138862281038	108.257370064802	0.00252681058706515	-17.8563604293808	-0.0143574329099906	-17.7880176749889	-46.2506118708529	46.636060946681	
947200000	-49.3840997268894	102.871429936185	-0.00252601815614718	-17.7949735372912	0.0120883763028421	-17.9251754233004	-50.753244146524	25.9496061965843	
950400000	-57.1714852507877	54.5250832743523	0.00433227705395015	-18.041357491424	-0.0175466021994401	-18.0037310667278	-56.5605256335206	-0.905521164627213	
953600000	-47.7773107605227	72.7157942223761	0.00847078219859975	-18.0015459507503	-0.00150593729191522	-18.0171638543145	-51.1816628821939	29.1833599118717	
956800000	-46.3176756868508	99.3259230631849	-0.00776589938362838	-18.1921370015435	-0.00968382446435747	-18.1670814887493	-51.4445003058991	60.2266085008903	
960000000	-50.6412338987924	86.9211880490833	0.00316329553515199	-18.2284818100418	-0.0149870676756349	-18.1071087993671	-48.4757305631195	31.5835320658244	
963200000	-49.5023124555057	107.270892749084	0.000395861307425623	-18.1653885978926	-0.00610417919665331	-18.2936466064913	-47.6331401296715	17.3108193046703	
966400000	-51.3451259393793	88.2000344377661	-0.0129736797692082	-18.3050626400058	-0.0106235441841021	-18.3290394756736	-46.389195728064	33.9646581815706	
969600000	-47.611757975484	91.7511907609287	-0.000742271261600731	-18.3426597525063	-0.00818616852999456	-18.3198561196822	-49.5233878349393	18.1935216934102	
972800000	-47.5549540517683	82.2695796780512	-0.00687432667635962	-18.355131313559	-0.0141604643955025	-18.4416956349275	-45.2684200527065	41.182253563593	
976000000	-48.5994492264448	103.633567397747	-0.00586521912460598	-18.5246601443824	-0.0252321613417166	-18.4512004919915	-46.5478964022315	47.5061392637466	
979200000	-48.1764242797741	116.864034163329	-0.0076774628329408	-18.3721699467655	-0.0158138773469962	-18.55009817013	-49.0265314796851	4.02712597370282	
982400000	-50.6332291617309	115.942218116164	0.000646075851916766	-18.5119210392699	-0.0165933603932164	-18.543673406045	-47.5894289129587	16.9810805133322	
985600000	-52.3411235577341	87.4981145893966	-0.0166876684209283	-18.6202953841055	-0.0102696873283665	-18.6394681645241	-52.6842979051108	35.8054710031993	
988800000	-49.1363715759116	113.336759782674	0.00295085671212828	-18.7223761830939	0.000977478567287205	-18.7514331215483	-49.5728931767683	44.4190885978637	
992000000	-50.5002639668608	139.198680659316	-0.0104825270822338	-18.6979283860962	0.00240953734146282	-18.8424103512395	-50.7857557071735	38.2755711938524	
995200000	-55.1147374410971	100.444246349466	-0.00191674795742691	-18.7626151034169	-0.0116691096771847	-18.7013536286872	-46.0681543261056	35.2438849441354	
998400000	-49.1512443709436	93.6825069852244	-0.00137386503656672	-18.9569556646053	-0.00897408490043652	-18.8981205071509	-50.6043885105273	17.1110226079565	
1001600000	-54.2893493281639	102.746613621367	-0.0126780266317629	-18.8859645209517	-0.0220488884106526	-18.998162551166	-47.0261921172348	34.766661284997	
1004800000	-50.7569309313037	94.9734888269123	-0.0144286811651765	-18.9559730112065	0.000727520303301523	-18.9244735950674	-52.501169171077	26.3020160140402	
1008000000	-47.5706521395046	109.203712216899	0.0087149505858932	-19.0961590227736	-0.00970304007468795	-19.032051655579	-45.8526032509107	45.4908685877231	
1011200000	-46.8098209795431	92.7758937446261	-0.00939183463932553	-19.1653506641828	-0.0136137187832033	-19.1106380095342	-47.023276602305	18.0469933450499	
1014400000	-49.2109332479964	102.471830500391	0.00142298118793476	-19.2097447183715	-0.0134639781384681	-19.1892068501709	-47.3892450869425	58.3012200711694	
1017600000	-47.8089379785095	106.590628446575	-0.00229513472476114	-19.2457448046612	-0.0115398663666495	-19.1769259505353	-49.3156564566943	42.6172052033317	
1020800000	-46.7609304989042	85.4628396592531	-0.00681311001604696	-19.2887026167818	-0.00725220614018344	-19.3802556529963	-48.8894673597959	52.6588889678243	
1024000000	-47.2977871749227	91.8026814393812	-0.0104192929148844	-19.3969254099048	-0.00806292870232751	-19.3927447761742	-45.0560421018135	11.4491963150338	
1027200000	-47.7928524892891	100.994283571678	0.0125407721472547	-19.3692213075275	-0.0167041821510265	-19.4236491701132	-52.7270982713588	54.2204778778929	
1030400000	-61.9823794515521	90.5372024132034	0.000798384115772726	-19.4315957671394	-0.0232104346784986	-19.5916164997705	-46.3110568031883	13.5350280212919	
1033600000	-52.8409572112409	87.4204140206139	0.00275000297181089	-19.5477369947561	-0.00448021895412966	-19.5898114174303	-50.4527982126413	7.13518793058176	
1036800000	-50.4966894635147	57.2567471984711	0.00930170422437056	-19.6459193343711	-0.0130784603704713	-19.586249480002	-48.3761088709701	24.0791653429633	
1040000000	-50.0417845347557	92.1660223693557	-0.0140786361641307	-19.6910625642684	-0.0148837739096354	-19.6245985268816	-48.4981333193867	34.7875973636421	
1043200000	-47.5075777038837	87.8091618086705	0.00382306963270048	-19.7587924987461	-0.0147988511875292	-19.7359938296205	-49.3192912347267	9.35328847358846	
1046400000	-44.3775001614532	109.72571096682	0.0110647535149301	-19.7324659099283	-0.0284624935248701	-19.7933917704815	-43.7754105279423	35.1906293803953	
1049600000	-47.5767865139375	74.060493397598	-0.00423534409348301	-19.8625740560902	-0.0132525633129136	-19.8847581611845	-46.5454509539192	31.5044428660219	
1052800000	-46.7277571298034	94.3674559272258	-0.00167538601252215	-19.8203184585257	0.00140830355757871	-19.8888444167821	-47.1175089369954	22.0972768697979	
1056000000	-47.8700984526185	95.5143778959147	0.000776943306678681	-20.0107807934214	-0.0134325954930517	-20.0054647580507	-48.7826833117554	1.86587427210166	
1059200000	-47.616388168359	77.8511111992495	0.00720562049533104	-20.0887447217186	-0.00740969050554599	-20.1234991568611	-46.3570753213306	23.5699938329501	
1062400000	-48.7811137472107	114.049500914901	-0.0129440004079772	-20.1270225857174	-0.0190067286179114	-20.1613323079244	-47.7180455560622	18.1042997517981	
1065600000	-52.1147925084722	105.850464419444	0.0127664752839821	-20.1951792689748	-0.0155990442535838	-20.0745822741363	-48.5498840500951	39.02140831576	
1068800000	-47.3749242553871	118.384297569192	-0.0081252523392065	-20.2034283783895	-0.0125779600290176	-20.1690227328703	-50.0036020330138	34.2354365191194	
1072000000	-49.4142780805376	88.387898322789	-0.000539718557003803	-20.3782812002788	-0.00386074795530127	-20.3435121385568	-44.2460352362291	23.0524982945412	
1075200000	-46.1644629698286	92.2586424607481	0.00184843937153181	-20.3251544427999	-0.0228938817283057	-20.3398780861609	-46.7342092979423	8.40797153611198	
1078400000	-50.1500214819073	107.725039883409	0.00840988481474607	-20.3280200583126	-0.0212639718726157	-20.4878510755669	-46.8078654412266	22.9994580555233	
1081600000	-49.9025697116775	100.110326821882	0.0123514736068618	-20.4277342191354	-0.0257424964600843	-20.4984874888126	-46.8439251598914	11.3946645871121	
1084800000	-44.5681697918145	103.294983308575	0.00612161420900314	-20.4356413950213	-0.00186721082499374	-20.6130220848935	-47.0917745244007	18.5468643671241	
1088000000	-48.3762302100278	90.5138874134667	-0.00840055654182777	-20.5599635590344	-0.00408662082673427	-20.6340761636587	-45.5630268449547	13.0780123273342	
1091200000	-46.3050185347547	97.9631042800217	-0.00852895124836444	-20.6440670141715	-0.010132752689616	-20.6186028167041	-43.115310887645	34.3640745623423	
1094400000	-46.1359079717057	87.9636497142561	0.00446235407752099	-20.7502243960475	-0.0102133860933428	-20.7403435151523	-47.2894867557238	34.2291388981319	
1097600000	-49.6603540667322	80.5080551403491	-0.00549018415955184	-20.7629697037552	-0.00982255233810639	-20.7466951589343	-44.7933019473839	16.8081553653531	
1100800000	-51.3153869577073	65.7867842599501	0.0150710822261315	-20.9291722384459	-0.00972207875450977	-20.8361972409181	-48.1526179123787	22.8014525943953	
1104000000	-48.3267372307076	85.5586098244218	0.00410933290894723	-20.9500795710375	-0.0119573579332207	-20.8637932329709	-43.8806792988664	26.5725696107388	
1107200000	-48.1609506738646	123.926632220427	-0.00411551842666219	-20.9617147810115	-0.0153353424578564	-20.9261150567197	-47.0696958798558	26.527174036205	
1110400000	-48.1814016342997	120.287524021381	-0.00803198703037827	-21.0131686131735	-0.00584105976962253	-20.9777058318153	-50.197411052553	11.6700554018149	
1113600000	-46.6136124249446	115.965092568857	-0.00766175808205699	-21.0661865949612	0.00710590517252536	-21.0156628538347	-45.8192107826906	29.5035099920551	
1116800000	-44.9994179235287	113.846052354314	0.00264752934642749	-21.1441558961879	-0.00671627814769552	-21.1329308592163	-44.3728140916665	48.3375230572289	
1120000000	-46.6107505764533	108.245870217169	-0.00752520572228892	-21.1843728934296	-0.00664119749305071	-21.1909368769676	-45.8192758994237	15.8114207858464	
1123200000	-46.828659197743	99.6326376922173	-0.0128347004262624	-21.2100174125477	-0.00248875993702982	-21.2445294483774	-42.7184298950397	17.074280499136	
1126400000	-45.1171663944873	105.372830158913	0.00595304533536777	-21.3035593639059	-0.00424450166143476	-21.3020194320868	-45.4091420352091	28.8939910791449	
1129600000	-47.2104448598003	102.059738713821	0.00313894027643007	-21.437310991463	-0.00746887122556399	-21.3616070146419	-46.9150264336691	23.4359914166453	
1132800000	-48.1393785530883	90.5213429736897	0.00505876243818897	-21.3697308218309	-0.00710829796408661	-21.3812633332498	-45.4706551712271	23.2967663408576	
1136000000	-45.8300798386988	107.991402810275	0.00703343269919109	-21.5104019925419	-0.00777983830657206	-21.3977934577035	-44.2129571419087	18.9897630007977	
1139200000	-46.626493714336	95.6797609895907	0.000948328807159544	-21.650434659172	-0.0044940653236966	-21.5657152515271	-45.7998920520868	34.9184488751565	
1142400000	-46.0732861503264	81.2099785549108	-0.0142884670105492	-21.663306814891	-0.0103821899535347	-21.6383381637257	-45.1039156663506	29.0860588771834	
1145600000	-47.141973979449	89.1251733976319	-0.0144512185205618	-21.6555103316522	-0.0185954897494268	-21.8040823764859	-44.2475813733324	21.6888951803174	
1148800000	-49.4592820165204	96.3546916154531	0.00744578783631138	-21.736860086731	-0.00450817335118138	-21.6799726562006	-44.7665870470454	28.4853421758777	
1152000000	-46.9380645285456	108.042201584191	-0.011048333713547	-21.7708645191188	-0.0222058999281035	-21.8358136518567	-45.524097407451	37.0140464793903	
1155200000	-47.3455483971124	122.8205704507	-0.00229738093729944	-21.8118688880389	-0.0131438867948371	-21.8800854783565	-46.5581997927709	41.3113499625426	
1158400000	-51.0336409085429	110.037872091716	-0.00285492666907092	-21.9724168064104	-0.00211705841511732	-21.9310198683357	-46.1267340729798	34.0353525205134	
1161600000	-47.8720950375131	113.12354198998	-0.00442214012635671	-21.9159506267394	0.00290857020115305	-21.9890061776616	-44.0173649933505	18.3718207317938	
1164800000	-49.7097346850215	111.633949152035	0.00237582595535128	-22.0099930742152	-0.00756788931370824	-22.0388523540076	-44.409706058896	27.5259005564587	
1168000000	-46.7079689575028	103.529477157581	-0.00789592116353286	-22.0378143361194	0.00617817721659815	-22.0756264985013	-44.0777046383274	3.11807059066067	
1171200000	-46.7821934969002	81.9158836965512	-0.00943848004694645	-22.2705539046952	-0.023446464351648	-22.0976212562099	-45.6102285997457	10.3622180270454	
1174400000	-46.6829174698069	118.319437785104	-0.0112869145444843	-22.2066464202944	-0.0045028001722139	-22.1818923125958	-47.0088862290294	11.8022192082607	
1177600000	-45.5816457754516	103.319065685063	0.0012714137903194	-22.3769543825707	0.00601595743624259	-22.3798219546189	-51.8416734324436	1.75852257535516	
1180800000	-48.8744367405046	110.426532239644	-0.00402605391250995	-22.4257010134708	-0.0141521490131565	-22.3280017839586	-45.5126356403272	24.523136404267	
1184000000	-49.6925279277162	109.246421097615	-0.0180728133062051	-22.4557525677815	-0.00729123981926635	-22.4828215828267	-45.1188894166669	17.7824627385064	
1187200000	-45.002234295218	84.7732985000415	0.0144622991135037	-22.4013629663956	0.00601648590890714	-22.4651479584236	-46.6459547255745	24.1458641270211	
1190400000	-48.9536491529436	107.649010085085	0.0091024630228846	-22.5659884103143	0.00821795240903622	-22.5476485857465	-44.761302977363	19.2801342891165	
1193600000	-49.8262332420135	106.583363102412	-0.0140131956706824	-22.5895692970971	-0.0114475064895017	-22.550637393848	-46.5930050741277	20.7262740398892	
