!Keysight Technologies N9950B: A.12.38
!Date: Thursday, 01 June 2023 13:34:55
!Timezone: (UTC-06:00) Central Time (US & Canada)
!Model: N9950B
!Serial: MY61131330
!GPS Latitude: 
!GPS Longitude: 
!GPS TimeStamp: 0001-01-01 00:00:00Z
!GPS Seconds Since Last Read: 0
!CHECKSUM:1659347202
!Correction: S11(ON U)S21(ON U)S12(ON U)S22(ON U)
!S2P File: Measurements:S11,S21,S12,S22:
# Hz S DB R 50
800000000	-49.7857132085313	57.796628003739	-0.0312610521235221	-14.4096728376974	-0.0259126500648179	-14.3574030953274	-55.4041676049859	6.17004380043868	
801700000	-56.1988165443706	122.538077882837	-0.0233087504981151	-14.4737120158514	-0.0184861527810492	-14.5255064485087	-54.1843049415289	-39.5910809811997	
803400000	-53.6321999020713	39.8553255313715	-0.0211418579900878	-14.622187046147	-0.0425547679982241	-14.5826257041917	-49.3286286035105	0.419095573064289	
805100000	-46.7731325462917	63.4280020517791	-0.00770245625832738	-14.5963100401665	-0.0245816613800879	-14.5019694032948	-49.0601069118934	5.07253486764644	
806800000	-49.2040519698409	59.8724731085844	-0.0235776356078958	-14.6522100130945	-0.0236563346135785	-14.5307263385141	-48.9652143659953	-39.2682922799061	
808500000	-51.4327285062439	70.4872579033324	-0.0256212336759753	-14.5220317856129	-0.020311823780338	-14.615541365037	-48.6216770114749	-22.3777100999584	
810200000	-49.0846791053392	88.0661314484581	-0.0252145690179317	-14.737670843669	-0.0255378787813228	-14.6099435339834	-51.2707027847331	0.741112843140978	
811900000	-59.0934394845224	126.502517666845	-0.0182530859670742	-14.6679945144237	-0.0226559556207872	-14.7292812401571	-48.9911991216325	32.8485742707283	
813600000	-48.6449665809603	53.3749182260269	-0.0264682296286483	-14.7173099773041	-0.00850524517597156	-14.7625596534475	-59.568503932245	-52.3154271101122	
815300000	-53.9602977929221	70.2619379873116	-0.0145698644461274	-14.767547910432	-0.0276126325557792	-14.7510340894607	-51.4034679210641	1.78587536832525	
817000000	-48.5027616644697	67.2709532836086	-0.0171239524725001	-14.7553715025777	-0.024533289266154	-14.8681993016338	-54.736068533805	-30.6772918010471	
818700000	-51.6359841085449	68.9932046943127	-0.0164175560017726	-14.7289192380576	-0.0213757141665288	-14.8204978920984	-52.7913238472119	-8.90509907219511	
820400000	-49.7300127130534	82.1905418674563	-0.0140820633048776	-14.9089936291181	-0.022328432535003	-14.8569640779656	-53.7134067518183	15.4962154629169	
822100000	-48.5245867911494	61.0547891896869	-0.0224125055349506	-14.8268638668054	-0.0151255157164102	-14.7915752336291	-50.544344019795	13.9538474613808	
823800000	-50.8544896688413	87.4175502016596	-0.0244565448653995	-14.9090982037053	-0.023424389730462	-14.9633818608702	-50.17754234389	7.76607780967155	
825500000	-48.9986395892268	75.964282566269	-0.0210365075990305	-15.0093649869222	-0.0216922927615393	-15.061696453204	-58.8395569639485	16.0726880656597	
827200000	-49.5101014993226	70.3937164666934	-0.0407319463002037	-14.8235062795589	-0.0270371050092969	-14.8473917034776	-56.0045571483065	-12.9844765388013	
828900000	-48.3890986649608	60.4207929678528	-0.00677637149166106	-14.9911924510549	-0.0315073505754115	-14.9855539325179	-49.8189280829974	-78.1725701385831	
830600000	-61.3032942618754	74.2341164662417	-0.0102846365626223	-15.1223704182868	-0.0103569913177072	-15.0502055077968	-59.250856381328	39.2536707788778	
832300000	-51.2407820595202	51.2418012052562	-0.0353953365764213	-14.978377289859	-0.0368155581164802	-15.1952009032216	-56.3245961726844	-8.34418626114069	
834000000	-51.1459462904454	111.455366167971	-0.016135125516158	-15.1367407113898	-0.0225480921556003	-15.0917022169617	-54.8927150315972	-7.69666343478162	
835700000	-51.2473408313369	83.2552798047608	-0.00986238920064209	-15.1690748525836	-0.0269965033029634	-15.1691173126125	-48.2123068243	-3.52087672005054	
837400000	-50.5138692123225	60.351563579687	-0.0321524237501173	-15.1273491113143	-0.013184911269909	-15.2092942916553	-51.883787377743	-28.4742533727068	
839100000	-58.2761024463452	101.063565736386	-0.0204114613160313	-15.2014110471635	-0.0189412668397267	-15.2627309987687	-48.7788825999481	-26.0888046956004	
840800000	-50.8305669035297	79.1867446288796	-0.0270775830713792	-15.1980981755761	-0.0318803119414574	-15.204926970558	-51.4002200995267	-8.49906740844962	
842500000	-48.6938671497911	88.7660075303444	-0.0219289370282459	-15.3721452618031	-0.0163008152360984	-15.2384532302707	-56.177604884219	30.7814693170824	
844200000	-48.4038954507144	75.1382822365702	-0.0346785766692148	-15.2349930701775	-0.0194310389192427	-15.319084294759	-56.1756952624395	-9.4648077502348	
845900000	-50.1075084927056	77.9587645196462	-0.013864346511687	-15.3680300562826	-0.0244881941811738	-15.3431336936875	-56.0372338967207	-34.7035548757901	
847600000	-52.6327102887324	57.0887410989077	-0.0336902618095896	-15.3769880709903	-0.0186897595824384	-15.3363326837917	-52.5945650407041	18.6093225751719	
849300000	-48.1990154096177	68.8258810598303	-0.0170909556140078	-15.3295077965957	-0.0211634245457285	-15.3486475072097	-54.235467314055	15.2682670846966	
851000000	-48.6345173755456	88.226896299642	-0.0330889175308128	-15.3435995325111	-0.0263524953583824	-15.3894572188974	-52.2349253898041	9.15685470445848	
852700000	-52.1997483743977	74.5269356851747	-0.0444795895917042	-15.3979732803845	-0.013829462244816	-15.473565376525	-47.5146854132387	15.9665131204721	
854400000	-48.6404768939848	77.3683669367861	-0.0236658058147403	-15.497302359111	-0.0184547426529796	-15.4670487818694	-53.1714555851486	17.5919877928684	
856100000	-53.1276320778882	124.173671228407	-0.0197871832875174	-15.4663492685371	-0.0264324803082886	-15.5187412018288	-52.5542559317116	5.39658992664177	
857800000	-48.3847291523395	91.3283167493479	-0.0211986501459146	-15.4525789967587	-0.0169913164371698	-15.53391927614	-52.8215531540133	-65.8414633346296	
859500000	-51.9375533350633	16.8130827745163	-0.0236092069679056	-15.5046084059649	-0.0300350159688381	-15.5060280502082	-49.9231235442751	8.81880176186378	
861200000	-50.6034540187208	45.7624902642544	-0.0291713076268076	-15.6030804036917	-0.0275390268413894	-15.6551810374773	-50.3039088448086	-32.3524540821191	
862900000	-48.6390077716597	58.3716710854133	-0.0235240688746527	-15.6502129183571	-0.0236960391469538	-15.6656260312331	-49.7508647261277	16.6777224345485	
864600000	-56.9431738116566	66.5805026900864	-0.0126053580927498	-15.6247912602302	-0.0315441223889447	-15.6782582549486	-52.2588905146252	-6.57473911992045	
866300000	-58.2618435438962	46.531271230249	-0.0295982510042508	-15.7095628359873	-0.0160440479045823	-15.6717829386157	-49.9218487031923	11.2972864970342	
868000000	-56.1163953961849	27.1364651847721	-0.0172704912020003	-15.7765961979191	-0.00867980550543783	-15.7529104896633	-53.3638399666321	-12.1077136409782	
869700000	-46.8548748786718	54.0205579054126	-0.0208435547646043	-15.7911307988763	-0.0146446360033152	-15.7560167974364	-46.8728198763256	-2.38570167353797	
871400000	-50.7016240209397	66.9014542378063	-0.0191643344585958	-15.6762843105283	-0.0284342853191554	-15.7977031354112	-50.588082401178	26.5686466317776	
873100000	-49.4478646845852	87.055249631557	-0.0293452301617229	-15.89060222798	-0.034228690519672	-15.7916724911438	-54.5507222038001	5.77092544010182	
874800000	-50.4767062702587	87.0826757384793	-0.036115013987175	-15.8678973534594	-0.0240621620182537	-15.7763223683505	-51.7872341752298	4.79758061367743	
876500000	-51.2981047424194	98.4800950838099	-0.0187434603196672	-15.8075382884302	-0.0172007318853492	-15.8654194670673	-50.0590925281218	-28.6552306746368	
878200000	-51.9990860271938	99.4518027547125	-0.0234602639237058	-15.8027190941401	-0.0183551667488774	-15.835357866615	-52.7859813553979	1.62163754774597	
879900000	-50.869783523109	51.6491265241271	-0.0329245427377757	-16.0458047995755	-0.025645513911892	-15.8885882763158	-49.480543944079	0.375525194599834	
881600000	-50.4738609678147	52.73506588228	-0.020473125232829	-15.9149844514503	-0.0235392919525095	-15.8798793167871	-52.937028130559	-15.7012408210021	
883300000	-51.8994292844452	86.1635678143387	-0.019785089636391	-15.9783769344106	-0.00299136819224755	-15.8935655977903	-54.9177960751485	-46.5904277579192	
885000000	-54.175041334411	38.4910132032872	-0.0204230888423671	-15.9673514106097	-0.024353567575651	-16.0608695610396	-53.8359733974976	-31.8061266118847	
886700000	-50.9848855300259	20.7146228460934	-0.0388609925071988	-16.0229771982752	-0.0157241588849754	-16.0975599883616	-50.7254494175967	-10.6972563180334	
888400000	-48.3748917032946	94.5534234429235	-0.0286991803782624	-16.0526323455023	-0.0249824402046212	-16.0716745914712	-51.5335848892827	-51.4563979417598	
890100000	-53.340454676505	89.4302108806095	-0.0167508466978493	-16.1446130159063	-0.0254056265478853	-16.2138132463323	-50.5104204490055	-10.001606961996	
891800000	-51.948897030958	70.0954093767017	-0.0152402928771639	-16.0401026580927	-0.0272889028039587	-16.1254439363652	-50.844623428422	22.1966688922862	
893500000	-49.1726972167129	58.2775367366375	-0.0138280891327944	-16.2463213891292	-0.0263412544993302	-16.1555248491982	-52.266887942813	-28.5242855374737	
895200000	-50.1418994359738	44.2512425435592	-0.0281549888707603	-16.0566722559448	-0.0157796855438156	-16.2272529581105	-51.1875989954179	-42.3766645674281	
896900000	-51.5837784665823	65.7487685954317	-0.0328883708181081	-16.2184111235418	-0.0183242641946217	-16.2205284623075	-52.2315466352743	-18.8151766516845	
898600000	-52.9161608928322	84.624199318673	-0.0362476832208018	-16.2449831118796	-0.019964679667204	-16.2815386828018	-51.6693683665874	6.56398575300567	
900300000	-49.1975112498611	108.500005326697	-0.0284066065848264	-16.2322081330218	-0.0258935398061478	-16.3376322133036	-53.0175378646867	1.22939272152204	
902000000	-56.8317124382476	54.3600247336182	-0.0215606619741193	-16.4164292517903	-0.0197060994350876	-16.287026873975	-48.9789395046341	-0.933837023249443	
903700000	-53.8817537687037	63.1306763799224	-0.0167512435762465	-16.3503798365905	-0.0208067831310568	-16.3809278046281	-51.5731211454046	-0.876261945451563	
905400000	-56.1414212561269	95.4263432598974	-0.0255549380661682	-16.3633450970368	-0.0313943516852245	-16.4516213998861	-51.4878592354131	-0.470707419547176	
907100000	-48.7132145540145	82.4820872008249	-0.0169455714371773	-16.385216092756	-0.0245172271167759	-16.4393604990614	-57.3878981697338	-58.1180646816564	
908800000	-52.4161136025525	102.048461137535	-0.0242527804244511	-16.3416057285206	-0.0263320577645728	-16.4801182229553	-60.6495166232989	3.45646417669511	
910500000	-53.3878174681105	72.3947907312549	-0.03360492930217	-16.5068572396316	-0.0250133711968824	-16.4913361723955	-52.1281509287495	-27.6714327638965	
912200000	-51.7029962472914	83.6620288353639	-0.0275212122145316	-16.6695578608554	-0.0275703779362325	-16.4646727639795	-53.4402740933391	26.8512314781911	
913900000	-47.8266836183555	85.092418247075	-0.0393510687330462	-16.549998439442	-0.0142411674582089	-16.5244321212702	-48.2428869096329	16.3919428184262	
915600000	-48.495775954355	73.6322464701895	-0.0188354921799775	-16.5703941937674	-0.00871907548582043	-16.6209010294044	-54.4569351208585	8.32621308994312	
917300000	-48.8928187185824	106.471495247699	-0.0199178331001794	-16.6466846790525	-0.0132511630171729	-16.5923912676962	-56.6962432162823	53.1386269283612	
919000000	-52.3462200197401	63.2677512043646	-0.0183107858898743	-16.6025472228789	-0.0202704720195122	-16.6329799692763	-51.5500257327877	15.0912676947303	
920700000	-53.3462637084693	86.400626454924	-0.0274722215111577	-16.6801424379393	-0.0292601660052676	-16.6096171283886	-55.386272128135	-9.14203007992092	
922400000	-51.4135557360143	70.2919660174968	-0.0191497766022896	-16.7622707298097	-0.0250541657003243	-16.6235034432071	-52.5543270788187	-0.0770612537194848	
924100000	-54.6821750039911	40.7870445660775	-0.0293094612930611	-16.7208301080231	-0.031059314768058	-16.6644245539215	-51.8493453101485	-33.7613132552279	
925800000	-47.5650608398593	70.6710419784459	-0.00501176031380917	-16.7472358143639	-0.0283518454732306	-16.6532040045477	-53.3608602926072	33.5468060480891	
927500000	-51.0940749441276	49.2429300122936	-0.0180331908308616	-16.8478470429522	-0.0261692097206681	-16.7617401291356	-58.5195710074998	13.2965345573257	
929200000	-49.5874133525037	62.2689587750087	-0.0138167323904354	-16.865249406783	-0.0192846183541877	-16.8243953644639	-52.1686511660577	-40.7098705062937	
930900000	-49.5603427126993	83.251904931766	-0.0178695002934314	-16.8998833271526	-0.0191522508060388	-16.8165410434111	-51.6141918168002	-0.363703943879962	
932600000	-49.47485322231	96.2458890782549	-0.0228606746410139	-16.8235850428288	-0.0265836129839292	-16.918442502879	-47.6038678842887	-22.8511708644685	
934300000	-51.1484560781141	65.4815684131217	-0.027223412106861	-16.9834293331345	-0.0230444975905263	-16.8882763230063	-55.0138847134631	74.4259134019865	
936000000	-53.1771551267754	50.941198484401	-0.0157527570849398	-16.8781620561028	-0.0256898944805656	-16.9150981117735	-52.4065585572943	-34.6222804168626	
937700000	-47.1030735440675	86.534804494209	-0.00686504844768736	-16.9689674367886	-0.0307178243091811	-16.9781414383174	-49.1353715164965	4.38302008212278	
939400000	-52.7116333452815	66.7387956109656	-0.00609419144178967	-16.9696367449715	-0.0249292096706573	-17.055639483324	-54.1400650290125	9.53969079860861	
941100000	-51.0877102363761	108.014078566788	-0.02051462014467	-16.9632272263883	-0.0340513159755763	-17.0534616399441	-51.2153816296894	20.2253302256526	
942800000	-49.4659741940917	82.2976216767767	-0.0151991054876053	-17.1150338810574	-0.0289845114235992	-17.1259829064729	-49.8919708589987	11.2687364070869	
944500000	-51.9687420602247	53.4116267840384	-0.0227995477104161	-17.1178272374083	-0.0116609313548786	-17.0850771412226	-46.873643004279	14.4325088865374	
946200000	-48.3395568074737	50.2008629597466	-0.0159595926784691	-17.2432418740207	-0.0299923280605905	-17.1103832565031	-52.1967674474076	-48.4102553261706	
947900000	-54.200578922858	49.8382977770287	-0.0248981177967473	-17.1594122237446	-0.0225508116094421	-17.1592624270265	-53.8532520830306	-21.8597251833006	
949600000	-50.3348264081628	104.456814761205	-0.0150975113975336	-17.1710344105854	-0.0333270803944149	-17.1905937786327	-54.8537366497693	29.4871256644226	
951300000	-53.5600870113633	64.3647547819555	-0.03541933702389	-17.1928515098843	-0.0247357680887	-17.221789740244	-49.7535676556939	-5.6510938182676	
953000000	-57.0155396743253	84.2932089531122	-0.0163389612258401	-17.2417300905051	-0.00781308636649784	-17.2641470704802	-52.9878858481024	-38.7670005661285	
954700000	-47.9162482716435	98.7005036407047	-0.0168268946516694	-17.2529823577739	-0.0202366535912426	-17.1853373730948	-54.6836958929358	21.7348094626972	
956400000	-53.236675952509	58.7588190292851	-0.0234571252112417	-17.3227178495661	-0.0325307708897848	-17.2750996319418	-51.6101798838309	-11.369724068591	
958100000	-56.5865514345567	86.701936687379	-0.0375483436305417	-17.3200490599978	-0.027407989405062	-17.3575882008587	-59.0365197407654	25.2776375992502	
959800000	-47.3369977450029	81.3601897597126	-0.0354943761093486	-17.3583693013584	-0.0196907541567597	-17.3128251970258	-52.6991742612621	-9.83798088616136	
961500000	-52.2960733521821	62.5474798779956	-0.0182879717282195	-17.4069835413757	-0.0144578474950054	-17.3786608417325	-50.8762868231057	-31.0194648990711	
963200000	-45.2595181172739	42.5803239197533	-0.02743849449079	-17.5553748755745	-0.0201277340060611	-17.529334841359	-50.1763908763836	-36.0118998230409	
964900000	-51.2847986209851	66.8843384156255	-0.0147247156050275	-17.4983407250553	-0.0362370191737925	-17.4881264515385	-48.9751207697072	5.40987916008249	
966600000	-53.2818355270853	82.4061424602423	-0.0354257859496223	-17.4880743415678	-0.021743338848227	-17.5722327800171	-51.26807672415	-10.9088545955356	
968300000	-53.7811153705745	57.1522464267081	-0.0171535770709532	-17.5171147096058	-0.029936386863408	-17.5259956889378	-53.635808504808	0.555693378359794	
970000000	-48.4166762043353	71.2134771995266	-0.0386077667186408	-17.5157878127876	-0.0392189935042024	-17.5955705737811	-46.3607771880863	-10.104838017786	
971700000	-50.2541985984623	74.8943102977231	-0.0423195008748375	-17.8194507278989	-0.0282221424594226	-17.5702828626983	-50.4837956873365	-0.849571694501139	
973400000	-50.1233722719778	76.3474772328854	-0.0387931454755409	-17.6483539900238	-0.0225684510004795	-17.6654116090915	-46.421867307785	-24.8599514784621	
975100000	-52.4991275397427	107.951900761014	-0.036115723226394	-17.6219381973141	-0.0267922091943532	-17.6305535934155	-50.8153050934352	-28.3534065696217	
976800000	-49.2237453659087	47.5260661857871	-0.0321537408274968	-17.6165935088562	-0.0149890350452372	-17.6512429878595	-62.6983158271063	-12.3953550950573	
978500000	-49.5580083430042	75.686979590251	-0.0167861776354039	-17.7227824068757	-0.0241007099936294	-17.7289634288771	-55.5816054810563	-2.33984514187837	
980200000	-51.2081739361246	54.6808600557017	-0.0265210318265364	-17.7853732369827	-0.0213628378819053	-17.6993213887342	-55.1561816542884	-10.0934101782284	
981900000	-53.8389985581921	64.2772893977988	-0.0371955937747543	-17.8168168687987	-0.014971544724479	-17.8128831421042	-53.242737622368	15.2135043195986	
983600000	-51.6091222631702	65.858324862201	-0.0274041060294152	-17.8101816735112	-0.0127947373708054	-17.8617092912862	-48.8075086583489	-8.863390317731	
985300000	-49.6822746455335	61.9679205715604	-0.0418792480420256	-17.7571102822802	-0.0270268432542868	-17.8621747156157	-52.012643577766	-7.120863235166	
987000000	-52.7217766326536	56.998644000085	-0.0153942298298911	-17.9177747901657	-0.0211680399986249	-17.8945491744481	-49.7982872471425	16.3995955196421	
988700000	-48.4469162857543	61.2693313992335	-0.0187559507354001	-18.0055943327589	-0.0183654321556537	-17.8611408522745	-54.7174691096866	-33.2986783816649	
990400000	-48.5008707992608	87.1201039738894	-0.0221406903623604	-17.9412094094695	-0.0244278887473997	-17.8821083967573	-49.2973007832032	-13.4056394081859	
992100000	-62.2281064529291	27.1485098418682	-0.0254267971019417	-17.9921314863618	-0.0182977134127881	-17.8695147405272	-50.8874580364515	-12.5970013814684	
993800000	-49.5424470645302	77.7832898039939	-0.00969426742347242	-17.946112281734	-0.000442226728868691	-17.93566665005	-50.7891157490191	-25.594808731806	
995500000	-49.5337987164412	91.6825285702825	-0.0336545200926318	-18.0657852346022	-0.0102962903492471	-17.985615744805	-61.298537098521	4.2291508322414	
997200000	-50.660476016551	70.7349726890183	-0.0134248956044638	-18.0401972955536	-0.0269460669517936	-18.0546182186695	-49.1414911794304	-22.8248628006037	
998900000	-52.3181173675487	57.2534181524363	-0.0309777712271145	-17.9385608373944	-0.0294154393455282	-18.0842337014232	-59.270721729545	-17.0205762905572	
1000600000	-51.3010879399581	60.7549210783633	-0.0182248896238954	-18.0626327082158	-0.0297095757237838	-18.1030140532175	-49.5738825862238	-9.23478124308687	
1002300000	-51.9552234567146	87.0745690772004	-0.0296807806908273	-18.1188393226656	-0.0204054074988293	-18.1443520647572	-51.577033834619	-0.872441707673749	
1004000000	-47.825592952616	73.705651438135	-0.0295661395994595	-18.1062099671783	-0.0279017799589193	-18.1150795121322	-54.9666104808325	-22.0005761577184	
1005700000	-50.6436305777843	81.4416478939715	-0.0288298382852917	-18.153534468233	-0.0131083224054168	-18.109307043844	-49.4255641447233	10.2533587179934	
1007400000	-50.7046096325539	98.2280577112714	-0.025347311955815	-18.2981965863999	-0.0383295628265426	-18.2301756002381	-52.0087957094405	-7.00314871271717	
1009100000	-50.5051329472555	109.490660299727	-0.0112079235422909	-18.2060068808668	-0.0320830561602554	-18.1919475174326	-59.9931800852615	-76.0990685817822	
1010800000	-51.2480838196852	50.7839610716497	-0.0298079890609281	-18.3491348958857	-0.0205086139160246	-18.2184308375911	-57.9789326909736	7.60075433001086	
