!Keysight Technologies N9950B: A.12.38
!Date: Thursday, 01 June 2023 14:36:59
!Timezone: (UTC-06:00) Central Time (US & Canada)
!Model: N9950B
!Serial: MY61131330
!GPS Latitude: 
!GPS Longitude: 
!GPS TimeStamp: 0001-01-01 00:00:00Z
!GPS Seconds Since Last Read: 0
!CHECKSUM:1692642286
!Correction: S11(ON U)S21(ON U)S12(ON U)S22(ON U)
!S2P File: Measurements:S11,S21,S12,S22:
# Hz S DB R 50
800000000	-20.9151782016929	-109.821482824028	-0.0343323458418624	-19.7991540658853	-0.0439802660305486	-19.7879737963349	-21.0978489055845	-109.500243261939	
803200000	-20.8809169439674	-109.102104033018	-0.0398745475357412	-19.8529409169686	-0.0539848736878294	-19.9829966913366	-20.8090703053332	-109.820535299105	
806400000	-20.85548310474	-110.152033900685	-0.0343744708129369	-19.9677131354946	-0.0485849597880896	-19.8264024503311	-20.9823323481033	-110.591703889101	
809600000	-20.6214814174853	-110.172381405901	-0.0390861817823349	-20.1462030908635	-0.0643285546674454	-19.9445903286764	-20.8146992078013	-109.278256560284	
812800000	-20.9575192878474	-110.643681931726	-0.0467658982594993	-20.1245548871466	-0.0678657364021037	-20.1666145424133	-20.7967528090524	-109.554895918236	
816000000	-20.9192392038325	-110.193027412571	-0.0303959870840347	-20.2583311692436	-0.0675473682599982	-20.1486091451008	-20.7768292789688	-108.714354167159	
819200000	-20.7937178315955	-110.682442453507	-0.0513982832029899	-20.2203917317432	-0.0566984059493115	-20.3193392317239	-20.8049064895177	-109.85961285914	
822400000	-20.6199452266178	-110.397695160096	-0.0448758415616172	-20.414740255145	-0.0530438764484703	-20.391755222351	-20.766088847096	-110.12410037445	
825600000	-20.5877704336142	-110.998113981064	-0.0442455777502563	-20.5209773852758	-0.0440588532182587	-20.4085791799584	-20.4269078493921	-110.170860821753	
828800000	-20.6393119092864	-110.236329554226	-0.0333600441613674	-20.4931458455547	-0.0554347907578284	-20.468781751682	-20.7649470230174	-109.321999686856	
832000000	-20.6592552379063	-109.867937713255	-0.0380531164298072	-20.6651092655882	-0.0607379222776352	-20.6178253016574	-20.6659241348926	-110.438005125186	
835200000	-20.462259187193	-110.137926846194	-0.0351538753360777	-20.7769653765616	-0.0705238865114079	-20.7047642538683	-20.4251491688215	-110.121882725006	
838400000	-20.5473736309034	-110.963300715963	-0.0464676657962797	-20.8032821916737	-0.0604009867617778	-20.7835018006115	-20.383210653666	-110.092877382806	
841600000	-20.4561022260138	-110.644527197197	-0.03752687678812	-20.8542640853295	-0.0655642905526239	-20.8811396070979	-20.4970393869425	-110.007016239045	
844800000	-20.5086562808915	-111.218279749208	-0.0407172578302927	-20.8717071319613	-0.0579330218132067	-20.9230729926736	-20.5200296353758	-109.737159669727	
848000000	-20.4258082770344	-111.02149344898	-0.0420734285007632	-21.0719510287876	-0.0621290667095486	-20.9563290638795	-20.6106354994961	-109.822807946966	
851200000	-20.5155996957985	-111.574682768128	-0.0358672968880509	-21.1055086093982	-0.0538515534696496	-21.0229808115855	-20.4247361257984	-110.595745434298	
854400000	-20.2873097578565	-111.297953537338	-0.0412053904788997	-21.2142262919911	-0.0646860868156251	-21.2096691745027	-20.5006166261865	-110.664061462921	
857600000	-20.4992620403722	-110.797309614871	-0.0419284520177263	-21.1935910087688	-0.0517580099906366	-21.1895598543717	-20.2751580823208	-109.056145791246	
860800000	-20.498077266643	-111.704801753107	-0.0359214552184601	-21.3280025283745	-0.0512323443874066	-21.3393765542676	-20.4666676758705	-110.907657445585	
864000000	-20.4293869951309	-111.441185312318	-0.0379425400416791	-21.27372496712	-0.0558863840486515	-21.37589989336	-20.3662241906036	-111.270180124297	
867200000	-20.3268573475332	-110.55977740648	-0.0549770961980885	-21.4327375516014	-0.0578075088628773	-21.4769767356874	-20.478322496143	-110.365238895968	
870400000	-20.2561802681094	-110.608559019762	-0.0374413476681051	-21.5816451919345	-0.0585634243581976	-21.529534253454	-20.2897681053202	-110.629631982211	
873600000	-20.1220462050013	-111.792229179722	-0.0364753973674649	-21.6490306739641	-0.0647499382579645	-21.6493889494668	-20.3331795771439	-111.296818330832	
876800000	-20.1534510397328	-111.903553606949	-0.0411189972775494	-21.7870084295203	-0.0485501285748473	-21.6234631188514	-20.2863582299499	-110.138520937419	
880000000	-20.3097217530473	-110.084195138449	-0.0455546483016429	-21.7582623295104	-0.0677010423510186	-21.7750551391949	-20.2928556141311	-112.153651778765	
883200000	-20.2159304720151	-110.855014049199	-0.0522199053986245	-21.8037697458843	-0.0608091098596093	-21.8430259531238	-20.3539290610596	-110.580299093283	
886400000	-20.0200420281215	-111.625927261683	-0.0416256521944804	-21.9503294968393	-0.0466035527676714	-21.9375909415035	-20.2378260970334	-110.645800065094	
889600000	-20.2377565500329	-111.147187208745	-0.0404832313893306	-22.0228277391127	-0.0636495003202042	-22.0489130818443	-20.1204294135615	-110.821106554267	
892800000	-20.090085961966	-111.912298868559	-0.0596147127085673	-22.0801451141858	-0.0595609703280157	-22.071758974551	-20.0856178853267	-110.988278322905	
896000000	-20.0918844536362	-113.134677201567	-0.0387965782199755	-22.2031263386735	-0.0654202117465277	-22.2053376712735	-20.127044373267	-111.611313059661	
899200000	-20.135580919844	-111.694369682383	-0.0442193995470551	-22.2997583772375	-0.0640847194003683	-22.2737811314715	-19.8640361485951	-111.490683270254	
902400000	-19.9329964891587	-111.629159011592	-0.0650780244720766	-22.3612430189023	-0.073745399722352	-22.3473266006976	-20.1175905324974	-112.524645134689	
905600000	-20.0049795226543	-113.391556025857	-0.0509199223629083	-22.5361940374055	-0.0603534600190598	-22.4268756113771	-20.2087626768287	-110.644362780517	
908800000	-20.0898346800197	-112.896867168877	-0.0436552785323504	-22.508511285032	-0.0736677090585376	-22.4750580474079	-20.0543467466952	-111.774638965005	
912000000	-19.9676524370136	-112.557716870228	-0.0530802956471303	-22.5550357197629	-0.0575795884409411	-22.4817259872774	-19.8456800825564	-111.998999831941	
915200000	-19.9112045190281	-112.546401630973	-0.0564585553787188	-22.616864651274	-0.0806032442035223	-22.6220561878029	-19.910775494853	-112.012943795829	
918400000	-19.8150167942659	-111.699655139853	-0.0395995925898186	-22.7434536591315	-0.0668009301805509	-22.7368501362373	-19.9909101919315	-111.612194422008	
921600000	-19.8575969988005	-113.253836869904	-0.0468373972032689	-22.8701784582394	-0.0643253882287267	-22.8158150632675	-19.8674331484346	-111.529707941311	
924800000	-19.8132386843821	-113.205190317959	-0.0438836163406855	-22.8245205304458	-0.0626943147217937	-22.8486584289724	-19.7907214333931	-113.556083482258	
928000000	-19.9064310224533	-112.568565929761	-0.0242049458971217	-22.9791773822525	-0.0782870076614969	-22.9588840829353	-20.0170926483962	-112.253290297828	
931200000	-19.6527663754687	-113.932920307386	-0.0601683297299814	-22.9287401681245	-0.0612689727292442	-22.9803481353669	-19.7357427913455	-111.718854595331	
934400000	-19.8004890020825	-112.979984369933	-0.0564839907523486	-23.0976654968277	-0.0721362493667705	-23.1051253142041	-19.7467240601604	-112.654449099519	
937600000	-19.7646831657624	-113.878280046104	-0.0582364811324602	-23.1823301760039	-0.0677691093634181	-23.2096230089327	-19.7650898141902	-112.662758693112	
940800000	-19.7051438463272	-113.55360398352	-0.0631423798063488	-23.3161285500166	-0.0578021921697458	-23.1772835362405	-19.5788971664625	-112.542711879998	
944000000	-19.7881481037351	-114.44298675251	-0.0475435874997958	-23.3391979848863	-0.0694958800657659	-23.2646340447872	-19.81330704915	-112.582276526183	
947200000	-19.6232007885115	-114.11262471664	-0.0424281007163513	-23.4399200969588	-0.0633972474296577	-23.4575978638874	-19.5408924955613	-112.677212863155	
950400000	-19.4909330064273	-112.95672183019	-0.0477523285557691	-23.5147924269318	-0.078856648959091	-23.513494850809	-19.4077561274664	-113.005667548007	
953600000	-19.6929118198895	-113.110644847211	-0.0461861842986975	-23.6116916924377	-0.0774267661543485	-23.5417447396493	-19.5411925385928	-112.848973996374	
956800000	-19.7018571509846	-114.963967848133	-0.0576626041427666	-23.7160364017926	-0.0813224996283446	-23.6995135374757	-19.5558575783926	-113.804968105932	
960000000	-19.5524643310807	-114.006960383974	-0.0572575704696358	-23.7901780309062	-0.0727676919016772	-23.7554151471157	-19.5402934567401	-112.741277693164	
963200000	-19.4913540303092	-114.855064477497	-0.0541668065215516	-23.8165041236777	-0.0674613485116651	-23.8373395493295	-19.4827261114466	-112.607552073065	
966400000	-19.4328626170325	-113.949830050367	-0.0693899748566672	-23.9053328042521	-0.0710778014934922	-23.9353657318211	-19.5776176283803	-112.414290143584	
969600000	-19.5172090092803	-114.785631652828	-0.0577642828455627	-23.8884309977586	-0.0836790082713147	-23.9714688637761	-19.3537226880305	-112.85275443309	
972800000	-19.5364694622116	-114.486270770596	-0.0442858163355519	-24.1275533004444	-0.0742677557467892	-24.0035604211254	-19.6028579569629	-112.539002555066	
976000000	-19.4220434489438	-115.234698324038	-0.0603096072869577	-24.1605991445528	-0.0762369272461312	-24.1350927549867	-19.5187217309076	-113.357755265157	
979200000	-19.3593112100001	-115.525659265747	-0.0626517755872524	-24.1874550828853	-0.0644217059953502	-24.2033744151447	-19.2481633622064	-112.99623060308	
982400000	-19.2606583617737	-115.14150219306	-0.0507382329451125	-24.3607672813428	-0.0754375112559749	-24.2984006968664	-19.2575937599804	-112.840783416979	
985600000	-19.2556502301537	-114.757969466435	-0.066571881290602	-24.4412107758663	-0.0660732826902298	-24.3226234202385	-19.2353679344385	-113.985404441508	
988800000	-19.2752747181111	-115.64788556275	-0.0670782016090708	-24.4933035722865	-0.0691887560034866	-24.4697853640132	-19.28173538865	-113.984033572057	
992000000	-19.0807035610835	-116.148217188756	-0.0535255741268182	-24.4775812735321	-0.0727031689021549	-24.5912826924456	-19.1925958194559	-113.400299633874	
995200000	-19.0868726977073	-114.810789581794	-0.0541283649118756	-24.5235081923978	-0.0686997483436245	-24.6390140887463	-19.3080904284148	-113.239050329888	
998400000	-19.2057352816914	-115.654665939682	-0.042205587540033	-24.742865656277	-0.0770402040118777	-24.667525513189	-19.0956484316265	-113.51094959523	
1001600000	-19.0758978871919	-115.293981652632	-0.0691385001767394	-24.7882197837725	-0.0886669533341268	-24.7866684520927	-19.2126733751073	-113.057565332845	
1004800000	-19.0924952621774	-115.618420474361	-0.0746644387114981	-24.8735935377391	-0.0724851193463656	-24.7965041869528	-19.0365450985109	-113.703233901815	
1008000000	-19.1104477292412	-116.533712782774	-0.0338238790890418	-24.9083188838838	-0.079303101897318	-24.9002839044576	-19.2453599630209	-113.666237458979	
1011200000	-19.1789634941543	-115.793372956787	-0.0581829207390543	-24.9556917409192	-0.074683510643115	-25.0012078833895	-19.0684336277836	-113.144160748645	
1014400000	-19.0624587222136	-116.068265225536	-0.0546079552326223	-24.9785466598494	-0.0789592161065358	-25.1030187340661	-19.1644662717712	-114.366165345342	
1017600000	-19.0591283055552	-116.404494783917	-0.0701982485229451	-25.1319588152354	-0.0759754383124774	-25.0909332518043	-19.0222146392777	-114.302494739206	
1020800000	-19.14367211171	-116.151263240917	-0.0695809683096261	-25.2379633809108	-0.0795934808137717	-25.2871932929627	-19.0236482781015	-114.451125898406	
1024000000	-18.9981691456282	-116.068467095999	-0.0561144296080326	-25.3219638645037	-0.0733580704659958	-25.319876402129	-19.0057113594709	-112.442281659645	
1027200000	-18.9507927784508	-116.581372506117	-0.0548567142940374	-25.4099021844661	-0.0743029512356671	-25.2524435745872	-18.8942716050864	-114.652655623547	
1030400000	-18.7376885173825	-115.677490062159	-0.0597855608166816	-25.431712783076	-0.0778339249662828	-25.5137931396695	-18.8844691574673	-112.967974921572	
1033600000	-18.8047205493018	-116.311848340057	-0.052544401405502	-25.5348767483969	-0.0679539965840903	-25.5824967599444	-18.7460818736844	-114.065774444253	
1036800000	-18.8589259434873	-115.558306102982	-0.051573344030239	-25.654917775842	-0.0926989822565934	-25.6340378722106	-18.9304260034096	-113.951612802852	
1040000000	-18.8331267592106	-116.727800569843	-0.0803640762185608	-25.7402301183996	-0.0806492397860534	-25.7082610239693	-18.8418321364503	-113.932376042395	
1043200000	-18.8650914092046	-116.468457671113	-0.0503185355836454	-25.8060040352508	-0.0738269535277501	-25.7265359523342	-18.7124932155523	-113.911192870992	
1046400000	-18.9114502793357	-117.77266595187	-0.0456922054140299	-25.7605600861209	-0.0882746048589599	-25.8369858400283	-18.9563499513494	-113.516630996419	
1049600000	-18.8331450330287	-116.225520664554	-0.0548492083361854	-26.0042409884854	-0.0769736925817631	-25.9429854793879	-18.8496117297654	-114.167643497698	
1052800000	-18.8322478644784	-117.202284841268	-0.0479992074182198	-25.9316192708728	-0.0837386378595668	-25.9779827679208	-18.7731234511139	-114.382537377009	
1056000000	-18.7727493945411	-117.20624728144	-0.047556996827225	-26.1307575330484	-0.0770075658613323	-26.1096307926904	-18.5857438145192	-114.178322608686	
1059200000	-18.7320351779113	-116.682938624446	-0.0601777124701178	-26.2181898492321	-0.0728953846691122	-26.3140488540595	-18.7629737827328	-113.913588130054	
1062400000	-18.6507017780363	-117.803311876126	-0.0813199016633725	-26.2094639850414	-0.0845862848436222	-26.3019574465342	-18.7236261282899	-114.566949794179	
1065600000	-18.5315799169766	-117.252870705289	-0.0454774024409986	-26.3389525915858	-0.0821693208507122	-26.2222679239275	-18.6809018134825	-115.176984903525	
1068800000	-18.6269322335275	-118.126911779735	-0.0708998170769077	-26.3601416067262	-0.0925423900908003	-26.4369306786215	-18.5960814688325	-115.327703999353	
1072000000	-18.5981783253962	-116.973854878069	-0.0493668788691424	-26.4150916241386	-0.0824662350707739	-26.5007310916224	-18.7341990182257	-114.007321831821	
1075200000	-18.681061607235	-117.54064634648	-0.0731713091681246	-26.6083437379158	-0.088515819875043	-26.5103864287055	-18.5754545874689	-114.256281952163	
1078400000	-18.448139396661	-117.821694686682	-0.0625305464949413	-26.6116714056273	-0.0883665801989887	-26.6995357266517	-18.5690734078478	-114.78346428795	
1081600000	-18.4950022315615	-117.621591115474	-0.0560439762368321	-26.6907036312752	-0.0982556958669603	-26.7782592413258	-18.5640410047711	-114.454628154754	
1084800000	-18.602414820425	-118.753073438689	-0.0644811701619408	-26.6999364510542	-0.0754242578032617	-26.8951812028861	-18.5038669566258	-114.886452784583	
1088000000	-18.4584481476072	-117.720110244263	-0.0630573354109472	-26.8643425330946	-0.0682205229575359	-26.8483267574026	-18.4793229510619	-114.349907850295	
1091200000	-18.5544534141813	-118.091004741503	-0.0656593198215671	-26.8530472330843	-0.0670583638536368	-26.9523987544419	-18.698249024374	-114.724796107081	
1094400000	-18.5243298528666	-118.345107888124	-0.0648509508174234	-27.0208925924629	-0.0735385777151263	-27.0519778922922	-18.4534985999372	-115.485746662926	
1097600000	-18.4318027129187	-117.712105366146	-0.0558389685699416	-27.1104419164867	-0.0872966620061105	-27.054257956778	-18.4299130283139	-114.542164353216	
1100800000	-18.305761530221	-117.492378437985	-0.0543878625557057	-27.2712021204544	-0.0882639679421369	-27.2015960406357	-18.3619567280814	-115.479115882474	
1104000000	-18.3520390156115	-117.922497556858	-0.0629509558781413	-27.3131445067991	-0.0825598449211931	-27.2860911668192	-18.5163308330948	-114.98107298814	
1107200000	-18.2378068086982	-118.914870612633	-0.071071774363573	-27.3820452477298	-0.0858787811742467	-27.3499941594115	-18.3722377822007	-115.731405933734	
1110400000	-18.2638367744651	-119.092408579452	-0.0698267183161539	-27.4163036861522	-0.0813645121091601	-27.3645392653064	-18.1935760413974	-115.892221431992	
1113600000	-18.2930888542685	-119.215151984741	-0.0687881507978904	-27.4907548498767	-0.0751505307985837	-27.4343948384577	-18.3280689926567	-115.812336567454	
1116800000	-18.3574884182771	-119.641639967626	-0.0694308234189454	-27.5306750876228	-0.0839880114341114	-27.5413360202796	-18.4570685078803	-116.481819517246	
1120000000	-18.3001576226381	-119.249912446836	-0.0699651447551817	-27.5898909854514	-0.0840114462425535	-27.6992349705554	-18.2199460975816	-115.57659872855	
1123200000	-18.2417983347999	-118.869560681158	-0.0775765722368093	-27.652519767788	-0.0758522537736681	-27.7937210002578	-18.3585404422322	-114.577922332425	
1126400000	-18.2946828294151	-119.744155186512	-0.0715149925027004	-27.7885740185116	-0.0959704856574349	-27.7716242460951	-18.2452346131314	-115.929103933778	
1129600000	-18.1976497100652	-119.106988270484	-0.0649214529752577	-27.9112415979042	-0.0878261221525742	-27.9433049613951	-18.1963085095431	-116.089796260863	
1132800000	-18.188852069463	-118.826107839465	-0.060557941849494	-27.9846288266288	-0.0861634027859563	-27.9910357262212	-18.1501642297738	-115.624606568046	
1136000000	-18.1513250395671	-119.832083261122	-0.0689730478247486	-28.0368041393862	-0.0903263773158021	-28.014762054748	-18.1917661249608	-115.452339585387	
1139200000	-18.1639863470684	-119.438610572065	-0.0764868635665059	-28.1409130331513	-0.0825347720017631	-28.2125564577476	-18.1987532687706	-116.606570214773	
1142400000	-18.1748122428867	-119.194687354767	-0.0681398231192341	-28.2835809168825	-0.102977921556311	-28.1671401728404	-18.2278928989758	-115.990485370066	
1145600000	-18.1354525587262	-119.119613047832	-0.0663915417203941	-28.273225980353	-0.0838871600348631	-28.301906028063	-18.1387141680409	-115.871571262977	
1148800000	-18.0363739895453	-119.752880247618	-0.0746553841388756	-28.4308525333988	-0.0898712834628604	-28.2508059010687	-18.0931016277144	-116.148766716063	
1152000000	-18.0102724834322	-120.203170583137	-0.0815964601663801	-28.4977362769228	-0.116693697460235	-28.474628844009	-18.1410353597307	-117.016574690331	
1155200000	-17.9692985312983	-120.325337013276	-0.0735554225561712	-28.5228190472035	-0.0853262654812313	-28.5408564244146	-18.0806955572351	-117.242578155486	
1158400000	-17.8656253084853	-119.834280705273	-0.052755588813813	-28.693097833984	-0.101667611980047	-28.6272488051423	-17.9964338421803	-116.799316549861	
1161600000	-17.9177704537836	-120.368747678739	-0.089122335598695	-28.7472006939212	-0.0842777451234727	-28.6864349295123	-18.0042738273239	-116.08331835614	
1164800000	-17.8712026787206	-120.365176579113	-0.0661912534406845	-28.7646792922985	-0.0930410877860499	-28.7896150981698	-18.0112300022056	-116.703807635327	
1168000000	-17.9053549204144	-120.278081986635	-0.0699676856223899	-28.862650636654	-0.078386494060664	-28.6914691334987	-17.8285677253943	-115.597602042479	
1171200000	-17.9406068067355	-119.582441204777	-0.0727944756475255	-28.9275970192641	-0.0955304717494306	-28.8806095166017	-17.8812273067049	-116.535521527436	
1174400000	-17.8375921388478	-121.09740729165	-0.0605061607567147	-28.9619248864824	-0.090543415834542	-29.0398333749623	-17.797250169581	-117.190302929929	
1177600000	-17.9036922857072	-121.018152242282	-0.0634012809100914	-29.2728634901939	-0.0819393552280243	-29.0642018689873	-17.6481198679093	-117.710714209768	
1180800000	-17.7667693414057	-120.82710072851	-0.0820404128808561	-29.226013382017	-0.0875304373002291	-29.2107520116905	-17.8375092357901	-117.132385876311	
1184000000	-17.7007287115731	-120.355508127228	-0.0788733890548666	-29.2662508115629	-0.0951407003031205	-29.1765854253009	-17.8174159418481	-116.935943080189	
1187200000	-17.869335736789	-120.378780664628	-0.0676463982929014	-29.2742263938908	-0.0964380065578579	-29.3057447634866	-17.7509492726189	-117.439274585383	
1190400000	-17.683815472186	-120.913159863991	-0.0853146458968666	-29.4484718126334	-0.0933043539679018	-29.3551500755802	-17.7904988735738	-116.912316344441	
